#H
SOURCE='IsSpice4'	VERSION='ver. 8.11-SI-1.0.3   10/6/2010'
TITLE='* Thu Oct 01 20:45:45 2015, Generated by: 010328058, Server: None, Windows, INSTALLED_SOFTWARE_VERSION: 2015.07 Build 6, Engine: 2015.07rc1, GUI: 2015.07rc1'
SUBTITLE='pc'
TIME='20:45:48' DATE='Oct 01, 2015' TEMPERATURE='298.15'
ANALYSIS='Trans'	SERIALNO='01234567'
ALLVALUES='NO' COMPLEXVALUES='NO' NODES='6'
SWEEPVAR='time' SWEEPMODE='VAR_STEP' DGTLDATA='NO'
XBEGIN='0.000000e+000' XEND='3.700000e-008'
FORMAT='0 VOLTSorAMPS;EFLOAT : NODEorBRANCH;NODE'
#N
'V(v_stimulus)'
'V(stload_sl_wopkg_!load)'
'V(stload_sl_wpkg_!load)'
'V(stload_sl_wopkg_!pad)'
'V(stload_sl_wpkg_!pad)'
'V(stload_sl_wpkg_!pin)'
#U
'Volts'
'Volts'
'Volts'
'Volts'
'Volts'
'Volts'
#C 0.000000e+000 6
0.000000e+000:1 8.454953e-003:2 8.454953e-003:3 8.454953e-003:4 8.454953e-003:5 8.454953e-003:6 
#C 2.560000e-011 6
0.000000e+000:1 8.454953e-003:2 8.454953e-003:3 8.454953e-003:4 8.454953e-003:5 8.454953e-003:6 
#C 5.440000e-011 6
0.000000e+000:1 8.454953e-003:2 8.454953e-003:3 8.454953e-003:4 8.454953e-003:5 8.454953e-003:6 
#C 8.320000e-011 6
0.000000e+000:1 8.454953e-003:2 8.454953e-003:3 8.454953e-003:4 8.454953e-003:5 8.454953e-003:6 
#C 1.088000e-010 6
0.000000e+000:1 8.454953e-003:2 8.454953e-003:3 8.454953e-003:4 8.454953e-003:5 8.454953e-003:6 
#C 1.600000e-010 6
0.000000e+000:1 8.454953e-003:2 8.454953e-003:3 8.454953e-003:4 8.454953e-003:5 8.454953e-003:6 
#C 2.624000e-010 6
0.000000e+000:1 8.454953e-003:2 8.454953e-003:3 8.454953e-003:4 8.454953e-003:5 8.454953e-003:6 
#C 4.672000e-010 6
0.000000e+000:1 8.454953e-003:2 8.454953e-003:3 8.454953e-003:4 8.454953e-003:5 8.454953e-003:6 
#C 8.768000e-010 6
0.000000e+000:1 8.454953e-003:2 8.454953e-003:3 8.454953e-003:4 8.454953e-003:5 8.454953e-003:6 
#C 9.016303e-010 6
0.000000e+000:1 8.454953e-003:2 8.454953e-003:3 8.454953e-003:4 8.454953e-003:5 8.454953e-003:6 
#C 9.264606e-010 6
0.000000e+000:1 8.454953e-003:2 8.454953e-003:3 8.454953e-003:4 8.454953e-003:5 8.454953e-003:6 
#C 9.761211e-010 6
0.000000e+000:1 8.454953e-003:2 8.454953e-003:3 8.454953e-003:4 8.454953e-003:5 8.454953e-003:6 
#C 1.075442e-009 6
0.000000e+000:1 8.454953e-003:2 8.454953e-003:3 8.454953e-003:4 8.454953e-003:5 8.454953e-003:6 
#C 1.100273e-009 6
0.000000e+000:1 8.454953e-003:2 8.454953e-003:3 8.454953e-003:4 8.454953e-003:5 8.454953e-003:6 
#C 1.130612e-009 6
0.000000e+000:1 8.454953e-003:2 8.454953e-003:3 8.454953e-003:4 8.454953e-003:5 8.454953e-003:6 
#C 1.160951e-009 6
0.000000e+000:1 8.454953e-003:2 8.454953e-003:3 8.454953e-003:4 8.454953e-003:5 8.454953e-003:6 
#C 1.189933e-009 6
0.000000e+000:1 8.454953e-003:2 8.454953e-003:3 8.454953e-003:4 8.454953e-003:5 8.454953e-003:6 
#C 1.210612e-009 6
0.000000e+000:1 8.454953e-003:2 8.454953e-003:3 8.454953e-003:4 8.454953e-003:5 8.454953e-003:6 
#C 1.250612e-009 6
0.000000e+000:1 8.454953e-003:2 8.454953e-003:3 8.454953e-003:4 8.454953e-003:5 8.454953e-003:6 
#C 1.290612e-009 6
0.000000e+000:1 8.454953e-003:2 8.454953e-003:3 8.454953e-003:4 8.454953e-003:5 8.454953e-003:6 
#C 1.330612e-009 6
0.000000e+000:1 8.454953e-003:2 8.454953e-003:3 8.454953e-003:4 8.454953e-003:5 8.454953e-003:6 
#C 1.370612e-009 6
0.000000e+000:1 8.454953e-003:2 8.454953e-003:3 8.454953e-003:4 8.454953e-003:5 8.454953e-003:6 
#C 1.410612e-009 6
0.000000e+000:1 8.454953e-003:2 8.454953e-003:3 8.454953e-003:4 8.454953e-003:5 8.454953e-003:6 
#C 1.450612e-009 6
0.000000e+000:1 8.454953e-003:2 8.454953e-003:3 8.454953e-003:4 8.454953e-003:5 8.454953e-003:6 
#C 1.490612e-009 6
0.000000e+000:1 8.454953e-003:2 8.454953e-003:3 8.454953e-003:4 8.454953e-003:5 8.454953e-003:6 
#C 1.530612e-009 6
0.000000e+000:1 8.454953e-003:2 8.454953e-003:3 8.454953e-003:4 8.454953e-003:5 8.454953e-003:6 
#C 1.570612e-009 6
0.000000e+000:1 8.454953e-003:2 8.454953e-003:3 8.454953e-003:4 8.454953e-003:5 8.454953e-003:6 
#C 1.610612e-009 6
0.000000e+000:1 8.454953e-003:2 8.454953e-003:3 8.454953e-003:4 8.454953e-003:5 8.454953e-003:6 
#C 1.650612e-009 6
0.000000e+000:1 8.454953e-003:2 8.454953e-003:3 8.454953e-003:4 8.454953e-003:5 8.454953e-003:6 
#C 1.690612e-009 6
0.000000e+000:1 8.454953e-003:2 8.454953e-003:3 8.454953e-003:4 8.454953e-003:5 8.454953e-003:6 
#C 1.730612e-009 6
0.000000e+000:1 8.454953e-003:2 8.454953e-003:3 8.454953e-003:4 8.454953e-003:5 8.454953e-003:6 
#C 1.770612e-009 6
0.000000e+000:1 8.454953e-003:2 8.454953e-003:3 8.454953e-003:4 8.454953e-003:5 8.454953e-003:6 
#C 1.810612e-009 6
0.000000e+000:1 8.454953e-003:2 8.454953e-003:3 8.454953e-003:4 8.454953e-003:5 8.454953e-003:6 
#C 1.850612e-009 6
0.000000e+000:1 8.454953e-003:2 8.454953e-003:3 8.454953e-003:4 8.454953e-003:5 8.454953e-003:6 
#C 1.890612e-009 6
0.000000e+000:1 8.454953e-003:2 8.454953e-003:3 8.454953e-003:4 8.454953e-003:5 8.454953e-003:6 
#C 1.930612e-009 6
0.000000e+000:1 8.454953e-003:2 8.454953e-003:3 8.454953e-003:4 8.454953e-003:5 8.454953e-003:6 
#C 1.970612e-009 6
0.000000e+000:1 8.454953e-003:2 8.454953e-003:3 8.454953e-003:4 8.454953e-003:5 8.454953e-003:6 
#C 2.010612e-009 6
0.000000e+000:1 8.454953e-003:2 8.454953e-003:3 8.454953e-003:4 8.454953e-003:5 8.454953e-003:6 
#C 2.050612e-009 6
0.000000e+000:1 8.454953e-003:2 8.454953e-003:3 8.454953e-003:4 8.454953e-003:5 8.454953e-003:6 
#C 2.090612e-009 6
0.000000e+000:1 8.454953e-003:2 8.454953e-003:3 8.454953e-003:4 8.454953e-003:5 8.454953e-003:6 
#C 2.130612e-009 6
0.000000e+000:1 8.454953e-003:2 8.454953e-003:3 8.454953e-003:4 8.454953e-003:5 8.454953e-003:6 
#C 2.170612e-009 6
0.000000e+000:1 8.454953e-003:2 8.454953e-003:3 8.454953e-003:4 8.454953e-003:5 8.454953e-003:6 
#C 2.210612e-009 6
0.000000e+000:1 8.454953e-003:2 8.454953e-003:3 8.454953e-003:4 8.454953e-003:5 8.454953e-003:6 
#C 2.250612e-009 6
0.000000e+000:1 8.454953e-003:2 8.454953e-003:3 8.454953e-003:4 8.454953e-003:5 8.454953e-003:6 
#C 2.290612e-009 6
0.000000e+000:1 8.454953e-003:2 8.454953e-003:3 8.454953e-003:4 8.454953e-003:5 8.454953e-003:6 
#C 2.330612e-009 6
0.000000e+000:1 8.454953e-003:2 8.454953e-003:3 8.454953e-003:4 8.454953e-003:5 8.454953e-003:6 
#C 2.370612e-009 6
0.000000e+000:1 8.454953e-003:2 8.454953e-003:3 8.454953e-003:4 8.454953e-003:5 8.454953e-003:6 
#C 2.410612e-009 6
0.000000e+000:1 8.454953e-003:2 8.454953e-003:3 8.454953e-003:4 8.454953e-003:5 8.454953e-003:6 
#C 2.450612e-009 6
0.000000e+000:1 8.454953e-003:2 8.454953e-003:3 8.454953e-003:4 8.454953e-003:5 8.454953e-003:6 
#C 2.490612e-009 6
0.000000e+000:1 8.454953e-003:2 8.454953e-003:3 8.454953e-003:4 8.454953e-003:5 8.454953e-003:6 
#C 2.530612e-009 6
0.000000e+000:1 8.454953e-003:2 8.454953e-003:3 8.454953e-003:4 8.454953e-003:5 8.454953e-003:6 
#C 2.570612e-009 6
0.000000e+000:1 8.454953e-003:2 8.454953e-003:3 8.454953e-003:4 8.454953e-003:5 8.454953e-003:6 
#C 2.610612e-009 6
0.000000e+000:1 8.454953e-003:2 8.454953e-003:3 8.454953e-003:4 8.454953e-003:5 8.454953e-003:6 
#C 2.650612e-009 6
0.000000e+000:1 8.454953e-003:2 8.454953e-003:3 8.454953e-003:4 8.454953e-003:5 8.454953e-003:6 
#C 2.690612e-009 6
0.000000e+000:1 8.454953e-003:2 8.454953e-003:3 8.454953e-003:4 8.454953e-003:5 8.454953e-003:6 
#C 2.730612e-009 6
0.000000e+000:1 8.454953e-003:2 8.454953e-003:3 8.454953e-003:4 8.454953e-003:5 8.454953e-003:6 
#C 2.770612e-009 6
0.000000e+000:1 8.454953e-003:2 8.454953e-003:3 8.454953e-003:4 8.454953e-003:5 8.454953e-003:6 
#C 2.810612e-009 6
0.000000e+000:1 8.454953e-003:2 8.454953e-003:3 8.454953e-003:4 8.454953e-003:5 8.454953e-003:6 
#C 2.850612e-009 6
0.000000e+000:1 8.454953e-003:2 8.454953e-003:3 8.454953e-003:4 8.454953e-003:5 8.454953e-003:6 
#C 2.890612e-009 6
0.000000e+000:1 8.454953e-003:2 8.454953e-003:3 8.454953e-003:4 8.454953e-003:5 8.454953e-003:6 
#C 2.930612e-009 6
0.000000e+000:1 8.454953e-003:2 8.454953e-003:3 8.454953e-003:4 8.454953e-003:5 8.454953e-003:6 
#C 2.970612e-009 6
0.000000e+000:1 8.454953e-003:2 8.454953e-003:3 8.454953e-003:4 8.454953e-003:5 8.454953e-003:6 
#C 3.010612e-009 6
0.000000e+000:1 8.454953e-003:2 8.454953e-003:3 8.454953e-003:4 8.454953e-003:5 8.454953e-003:6 
#C 3.050612e-009 6
0.000000e+000:1 8.454953e-003:2 8.454953e-003:3 8.454953e-003:4 8.454953e-003:5 8.454953e-003:6 
#C 3.090612e-009 6
0.000000e+000:1 8.454953e-003:2 8.454953e-003:3 8.454953e-003:4 8.454953e-003:5 8.454953e-003:6 
#C 3.130612e-009 6
0.000000e+000:1 8.454953e-003:2 8.454953e-003:3 8.454953e-003:4 8.454953e-003:5 8.454953e-003:6 
#C 3.170612e-009 6
0.000000e+000:1 8.454953e-003:2 8.454953e-003:3 8.454953e-003:4 8.454953e-003:5 8.454953e-003:6 
#C 3.210612e-009 6
0.000000e+000:1 8.454953e-003:2 8.454953e-003:3 8.454953e-003:4 8.454953e-003:5 8.454953e-003:6 
#C 3.250612e-009 6
0.000000e+000:1 8.454953e-003:2 8.454953e-003:3 8.454953e-003:4 8.454953e-003:5 8.454953e-003:6 
#C 3.290612e-009 6
0.000000e+000:1 8.454953e-003:2 8.454953e-003:3 8.454953e-003:4 8.454953e-003:5 8.454953e-003:6 
#C 3.330612e-009 6
0.000000e+000:1 8.454953e-003:2 8.454953e-003:3 8.454953e-003:4 8.454953e-003:5 8.454953e-003:6 
#C 3.370612e-009 6
0.000000e+000:1 8.454953e-003:2 8.454953e-003:3 8.454953e-003:4 8.454953e-003:5 8.454953e-003:6 
#C 3.410612e-009 6
0.000000e+000:1 8.454953e-003:2 8.454953e-003:3 8.454953e-003:4 8.454953e-003:5 8.454953e-003:6 
#C 3.450612e-009 6
0.000000e+000:1 8.454953e-003:2 8.454953e-003:3 8.454953e-003:4 8.454953e-003:5 8.454953e-003:6 
#C 3.490612e-009 6
0.000000e+000:1 8.454953e-003:2 8.454953e-003:3 8.454953e-003:4 8.454953e-003:5 8.454953e-003:6 
#C 3.530612e-009 6
0.000000e+000:1 8.454953e-003:2 8.454953e-003:3 8.454953e-003:4 8.454953e-003:5 8.454953e-003:6 
#C 3.570612e-009 6
0.000000e+000:1 8.454953e-003:2 8.454953e-003:3 8.454953e-003:4 8.454953e-003:5 8.454953e-003:6 
#C 3.610612e-009 6
0.000000e+000:1 8.454953e-003:2 8.454953e-003:3 8.454953e-003:4 8.454953e-003:5 8.454953e-003:6 
#C 3.650612e-009 6
0.000000e+000:1 8.454953e-003:2 8.454953e-003:3 8.454953e-003:4 8.454953e-003:5 8.454953e-003:6 
#C 3.690612e-009 6
0.000000e+000:1 8.454953e-003:2 8.454953e-003:3 8.454953e-003:4 8.454953e-003:5 8.454953e-003:6 
#C 3.730612e-009 6
0.000000e+000:1 8.454953e-003:2 8.454953e-003:3 8.454953e-003:4 8.454953e-003:5 8.454953e-003:6 
#C 3.770612e-009 6
0.000000e+000:1 8.454953e-003:2 8.454953e-003:3 8.454953e-003:4 8.454953e-003:5 8.454953e-003:6 
#C 3.810612e-009 6
0.000000e+000:1 8.454953e-003:2 8.454953e-003:3 8.454953e-003:4 8.454953e-003:5 8.454953e-003:6 
#C 3.850612e-009 6
0.000000e+000:1 8.454953e-003:2 8.454953e-003:3 8.454953e-003:4 8.454953e-003:5 8.454953e-003:6 
#C 3.890612e-009 6
0.000000e+000:1 8.454953e-003:2 8.454953e-003:3 8.454953e-003:4 8.454953e-003:5 8.454953e-003:6 
#C 3.930612e-009 6
0.000000e+000:1 8.454953e-003:2 8.454953e-003:3 8.454953e-003:4 8.454953e-003:5 8.454953e-003:6 
#C 3.970612e-009 6
0.000000e+000:1 8.454953e-003:2 8.454953e-003:3 8.454953e-003:4 8.454953e-003:5 8.454953e-003:6 
#C 4.010612e-009 6
0.000000e+000:1 8.454953e-003:2 8.454953e-003:3 8.454953e-003:4 8.454953e-003:5 8.454953e-003:6 
#C 4.050612e-009 6
0.000000e+000:1 8.454953e-003:2 8.454953e-003:3 8.454953e-003:4 8.454953e-003:5 8.454953e-003:6 
#C 4.090612e-009 6
0.000000e+000:1 8.454953e-003:2 8.454953e-003:3 8.454953e-003:4 8.454953e-003:5 8.454953e-003:6 
#C 4.130612e-009 6
0.000000e+000:1 8.454953e-003:2 8.454953e-003:3 8.454953e-003:4 8.454953e-003:5 8.454953e-003:6 
#C 4.170612e-009 6
0.000000e+000:1 8.454953e-003:2 8.454953e-003:3 8.454953e-003:4 8.454953e-003:5 8.454953e-003:6 
#C 4.210612e-009 6
0.000000e+000:1 8.454953e-003:2 8.454953e-003:3 8.454953e-003:4 8.454953e-003:5 8.454953e-003:6 
#C 4.250612e-009 6
0.000000e+000:1 8.454953e-003:2 8.454953e-003:3 8.454953e-003:4 8.454953e-003:5 8.454953e-003:6 
#C 4.290612e-009 6
0.000000e+000:1 8.454953e-003:2 8.454953e-003:3 8.454953e-003:4 8.454953e-003:5 8.454953e-003:6 
#C 4.330612e-009 6
0.000000e+000:1 8.454953e-003:2 8.454953e-003:3 8.454953e-003:4 8.454953e-003:5 8.454953e-003:6 
#C 4.370612e-009 6
0.000000e+000:1 8.454953e-003:2 8.454953e-003:3 8.454953e-003:4 8.454953e-003:5 8.454953e-003:6 
#C 4.410612e-009 6
0.000000e+000:1 8.454953e-003:2 8.454953e-003:3 8.454953e-003:4 8.454953e-003:5 8.454953e-003:6 
#C 4.450612e-009 6
0.000000e+000:1 8.454953e-003:2 8.454953e-003:3 8.454953e-003:4 8.454953e-003:5 8.454953e-003:6 
#C 4.490612e-009 6
0.000000e+000:1 8.454953e-003:2 8.454953e-003:3 8.454953e-003:4 8.454953e-003:5 8.454953e-003:6 
#C 4.530612e-009 6
0.000000e+000:1 8.454953e-003:2 8.454953e-003:3 8.454953e-003:4 8.454953e-003:5 8.454953e-003:6 
#C 4.570612e-009 6
0.000000e+000:1 8.454953e-003:2 8.454953e-003:3 8.454953e-003:4 8.454953e-003:5 8.454953e-003:6 
#C 4.610612e-009 6
0.000000e+000:1 8.454953e-003:2 8.454953e-003:3 8.454953e-003:4 8.454953e-003:5 8.454953e-003:6 
#C 4.650612e-009 6
0.000000e+000:1 8.454953e-003:2 8.454953e-003:3 8.454953e-003:4 8.454953e-003:5 8.454953e-003:6 
#C 4.690612e-009 6
0.000000e+000:1 8.454953e-003:2 8.454953e-003:3 8.454953e-003:4 8.454953e-003:5 8.454953e-003:6 
#C 4.730612e-009 6
0.000000e+000:1 8.454953e-003:2 8.454953e-003:3 8.454953e-003:4 8.454953e-003:5 8.454953e-003:6 
#C 4.770612e-009 6
0.000000e+000:1 8.454953e-003:2 8.454953e-003:3 8.454953e-003:4 8.454953e-003:5 8.454953e-003:6 
#C 4.810612e-009 6
0.000000e+000:1 8.454953e-003:2 8.454953e-003:3 8.454953e-003:4 8.454953e-003:5 8.454953e-003:6 
#C 4.850612e-009 6
0.000000e+000:1 8.454953e-003:2 8.454953e-003:3 8.454953e-003:4 8.454953e-003:5 8.454953e-003:6 
#C 4.890612e-009 6
0.000000e+000:1 8.454953e-003:2 8.454953e-003:3 8.454953e-003:4 8.454953e-003:5 8.454953e-003:6 
#C 4.930612e-009 6
0.000000e+000:1 8.454953e-003:2 8.454953e-003:3 8.454953e-003:4 8.454953e-003:5 8.454953e-003:6 
#C 4.970612e-009 6
0.000000e+000:1 8.454953e-003:2 8.454953e-003:3 8.454953e-003:4 8.454953e-003:5 8.454953e-003:6 
#C 5.010612e-009 6
0.000000e+000:1 8.454953e-003:2 8.454953e-003:3 8.454953e-003:4 8.454953e-003:5 8.454953e-003:6 
#C 5.050612e-009 6
0.000000e+000:1 8.454953e-003:2 8.454953e-003:3 8.454953e-003:4 8.454953e-003:5 8.454953e-003:6 
#C 5.090612e-009 6
0.000000e+000:1 8.454953e-003:2 8.454953e-003:3 8.454953e-003:4 8.454953e-003:5 8.454953e-003:6 
#C 5.130612e-009 6
0.000000e+000:1 8.454953e-003:2 8.454953e-003:3 8.454953e-003:4 8.454953e-003:5 8.454953e-003:6 
#C 5.170612e-009 6
0.000000e+000:1 8.454953e-003:2 8.454953e-003:3 8.454953e-003:4 8.454953e-003:5 8.454953e-003:6 
#C 5.210612e-009 6
0.000000e+000:1 8.454953e-003:2 8.454953e-003:3 8.454953e-003:4 8.454953e-003:5 8.454953e-003:6 
#C 5.250612e-009 6
0.000000e+000:1 8.454953e-003:2 8.454953e-003:3 8.454953e-003:4 8.454953e-003:5 8.454953e-003:6 
#C 5.290612e-009 6
0.000000e+000:1 8.454953e-003:2 8.454953e-003:3 8.454953e-003:4 8.454953e-003:5 8.454953e-003:6 
#C 5.330612e-009 6
0.000000e+000:1 8.454953e-003:2 8.454953e-003:3 8.454953e-003:4 8.454953e-003:5 8.454953e-003:6 
#C 5.370612e-009 6
0.000000e+000:1 8.454953e-003:2 8.454953e-003:3 8.454953e-003:4 8.454953e-003:5 8.454953e-003:6 
#C 5.410612e-009 6
0.000000e+000:1 8.454953e-003:2 8.454953e-003:3 8.454953e-003:4 8.454953e-003:5 8.454953e-003:6 
#C 5.450612e-009 6
0.000000e+000:1 8.454953e-003:2 8.454953e-003:3 8.454953e-003:4 8.454953e-003:5 8.454953e-003:6 
#C 5.490612e-009 6
0.000000e+000:1 8.454953e-003:2 8.454953e-003:3 8.454953e-003:4 8.454953e-003:5 8.454953e-003:6 
#C 5.530612e-009 6
0.000000e+000:1 8.454953e-003:2 8.454953e-003:3 8.454953e-003:4 8.454953e-003:5 8.454953e-003:6 
#C 5.570612e-009 6
0.000000e+000:1 8.454953e-003:2 8.454953e-003:3 8.454953e-003:4 8.454953e-003:5 8.454953e-003:6 
#C 5.610612e-009 6
0.000000e+000:1 8.454953e-003:2 8.454953e-003:3 8.454953e-003:4 8.454953e-003:5 8.454953e-003:6 
#C 5.650612e-009 6
0.000000e+000:1 8.454953e-003:2 8.454953e-003:3 8.454953e-003:4 8.454953e-003:5 8.454953e-003:6 
#C 5.690612e-009 6
0.000000e+000:1 8.454953e-003:2 8.454953e-003:3 8.454953e-003:4 8.454953e-003:5 8.454953e-003:6 
#C 5.730612e-009 6
0.000000e+000:1 8.454953e-003:2 8.454953e-003:3 8.454953e-003:4 8.454953e-003:5 8.454953e-003:6 
#C 5.770612e-009 6
0.000000e+000:1 8.454953e-003:2 8.454953e-003:3 8.454953e-003:4 8.454953e-003:5 8.454953e-003:6 
#C 5.810612e-009 6
0.000000e+000:1 8.454953e-003:2 8.454953e-003:3 8.454953e-003:4 8.454953e-003:5 8.454953e-003:6 
#C 5.850612e-009 6
0.000000e+000:1 8.454953e-003:2 8.454953e-003:3 8.454953e-003:4 8.454953e-003:5 8.454953e-003:6 
#C 5.890612e-009 6
0.000000e+000:1 8.454953e-003:2 8.454953e-003:3 8.454953e-003:4 8.454953e-003:5 8.454953e-003:6 
#C 5.930612e-009 6
0.000000e+000:1 8.454953e-003:2 8.454953e-003:3 8.454953e-003:4 8.454953e-003:5 8.454953e-003:6 
#C 5.970612e-009 6
0.000000e+000:1 8.454953e-003:2 8.454953e-003:3 8.454953e-003:4 8.454953e-003:5 8.454953e-003:6 
#C 6.000000e-009 6
0.000000e+000:1 8.454953e-003:2 8.454953e-003:3 8.454953e-003:4 8.454953e-003:5 8.454953e-003:6 
#C 6.031018e-009 6
3.101832e-001:1 8.454953e-003:2 8.454953e-003:3 8.454953e-003:4 8.454953e-003:5 8.454953e-003:6 
#C 6.051100e-009 6
5.110000e-001:1 1.609408e-002:2 8.461430e-003:3 1.609408e-002:4 1.609377e-002:5 8.461430e-003:6 
#C 6.083536e-009 6
8.388645e-001:1 2.077973e-001:2 9.160672e-002:3 2.077973e-001:4 2.045220e-001:5 9.160672e-002:6 
#C 6.105524e-009 6
1.000000e+000:1 3.286664e-001:2 2.856731e-001:3 3.286664e-001:4 3.191472e-001:5 2.856731e-001:6 
#C 6.127620e-009 6
1.000000e+000:1 4.453870e-001:2 5.145591e-001:3 4.453870e-001:4 4.308458e-001:5 5.145591e-001:6 
#C 6.153681e-009 6
1.000000e+000:1 5.790964e-001:2 6.679791e-001:3 5.790964e-001:4 5.656964e-001:5 6.679791e-001:6 
#C 6.180405e-009 6
1.000000e+000:1 7.140385e-001:2 6.793778e-001:3 7.140385e-001:4 7.062822e-001:5 6.793778e-001:6 
#C 6.208769e-009 6
1.000000e+000:1 8.561135e-001:2 7.370239e-001:3 8.561135e-001:4 8.495931e-001:5 7.370239e-001:6 
#C 6.246048e-009 6
1.000000e+000:1 1.044101e+000:2 1.058064e+000:3 1.044101e+000:4 1.029702e+000:5 1.058064e+000:6 
#C 6.267582e-009 6
1.000000e+000:1 1.155147e+000:2 1.241609e+000:3 1.155147e+000:4 1.138151e+000:5 1.241609e+000:6 
#C 6.292412e-009 6
1.000000e+000:1 1.286517e+000:2 1.331596e+000:3 1.286517e+000:4 1.272186e+000:5 1.331596e+000:6 
#C 6.320698e-009 6
1.000000e+000:1 1.442826e+000:2 1.352106e+000:3 1.442826e+000:4 1.432823e+000:5 1.352106e+000:6 
#C 6.358206e-009 6
1.000000e+000:1 1.659279e+000:2 1.584311e+000:3 1.659279e+000:4 1.644300e+000:5 1.584311e+000:6 
#C 6.393554e-009 6
1.000000e+000:1 1.869267e+000:2 1.943395e+000:3 1.869267e+000:4 1.846475e+000:5 1.943395e+000:6 
#C 6.426574e-009 6
1.000000e+000:1 2.065225e+000:2 2.088438e+000:3 2.065225e+000:4 2.045620e+000:5 2.088438e+000:6 
#C 6.449078e-009 6
1.000000e+000:1 2.196802e+000:2 2.113955e+000:3 2.196802e+000:4 2.181656e+000:5 2.113955e+000:6 
#C 6.489090e-009 6
1.000000e+000:1 2.426373e+000:2 2.358161e+000:3 2.426373e+000:4 2.408853e+000:5 2.358161e+000:6 
#C 6.522870e-009 6
1.000000e+000:1 2.616238e+000:2 2.686375e+000:3 2.616238e+000:4 2.593649e+000:5 2.686375e+000:6 
#C 6.551499e-009 6
1.000000e+000:1 2.775536e+000:2 2.816032e+000:3 2.775536e+000:4 2.756012e+000:5 2.816032e+000:6 
#C 6.577308e-009 6
1.000000e+000:1 2.918459e+000:2 2.842549e+000:3 2.918459e+000:4 2.904248e+000:5 2.842549e+000:6 
#C 6.597826e-009 6
1.000000e+000:1 3.032098e+000:2 2.917718e+000:3 3.032098e+000:4 3.018627e+000:5 2.917718e+000:6 
#C 6.635280e-009 6
1.000000e+000:1 3.197910e+000:2 3.238419e+000:3 3.197910e+000:4 3.178244e+000:5 3.238419e+000:6 
#C 6.655984e-009 6
1.000000e+000:1 3.221028e+000:2 3.371735e+000:3 3.221028e+000:4 3.201165e+000:5 3.371735e+000:6 
#C 6.690439e-009 6
1.000000e+000:1 3.246232e+000:2 3.274934e+000:3 3.246232e+000:4 3.238686e+000:5 3.274934e+000:6 
#C 6.728690e-009 6
1.000000e+000:1 3.262199e+000:2 3.098057e+000:3 3.262199e+000:4 3.264056e+000:5 3.098057e+000:6 
#C 6.763034e-009 6
1.000000e+000:1 3.270319e+000:2 3.289875e+000:3 3.270319e+000:4 3.263909e+000:5 3.289875e+000:6 
#C 6.798237e-009 6
1.000000e+000:1 3.275173e+000:2 3.426267e+000:3 3.275173e+000:4 3.266849e+000:5 3.426267e+000:6 
#C 6.830291e-009 6
1.000000e+000:1 3.277787e+000:2 3.237454e+000:3 3.277787e+000:4 3.280115e+000:5 3.237454e+000:6 
#C 6.866522e-009 6
