#H
SOURCE='IsSpice4'	VERSION='ver. 8.11-SI-1.0.3   10/6/2010'
TITLE='* Thu Oct 01 19:52:24 2015, Generated by: 010328058, Server: None, Windows, INSTALLED_SOFTWARE_VERSION: 2015.07 Build 6, Engine: 2015.07rc1, GUI: 2015.07rc1'
SUBTITLE='pc'
TIME='19:52:27' DATE='Oct 01, 2015' TEMPERATURE='298.15'
ANALYSIS='Trans'	SERIALNO='01234567'
ALLVALUES='NO' COMPLEXVALUES='NO' NODES='6'
SWEEPVAR='time' SWEEPMODE='VAR_STEP' DGTLDATA='NO'
XBEGIN='0.000000e+000' XEND='1.180000e-007'
FORMAT='0 VOLTSorAMPS;EFLOAT : NODEorBRANCH;NODE'
#N
'V(v_stimulus)'
'V(designator1_pad)'
'V(designator2_pad)'
'V(designator1_pin)'
'V(designator2_pin)'
'V(designator2_z)'
#U
'Volts'
'Volts'
'Volts'
'Volts'
'Volts'
'Volts'
#C 0.000000e+000 6
0.000000e+000:1 2.478435e-005:2 2.478483e-005:3 2.478459e-005:4 2.478459e-005:5 0.000000e+000:6 
#C 2.560000e-011 6
0.000000e+000:1 2.478435e-005:2 2.478483e-005:3 2.478459e-005:4 2.478459e-005:5 0.000000e+000:6 
#C 5.440000e-011 6
0.000000e+000:1 2.478435e-005:2 2.478483e-005:3 2.478459e-005:4 2.478459e-005:5 0.000000e+000:6 
#C 8.320000e-011 6
0.000000e+000:1 2.478435e-005:2 2.478483e-005:3 2.478459e-005:4 2.478459e-005:5 0.000000e+000:6 
#C 1.088000e-010 6
0.000000e+000:1 2.478435e-005:2 2.478483e-005:3 2.478459e-005:4 2.478459e-005:5 0.000000e+000:6 
#C 1.600000e-010 6
0.000000e+000:1 2.478435e-005:2 2.478483e-005:3 2.478459e-005:4 2.478459e-005:5 0.000000e+000:6 
#C 2.600000e-010 6
0.000000e+000:1 2.478435e-005:2 2.478483e-005:3 2.478459e-005:4 2.478459e-005:5 0.000000e+000:6 
#C 3.600000e-010 6
0.000000e+000:1 2.478435e-005:2 2.478483e-005:3 2.478459e-005:4 2.478459e-005:5 0.000000e+000:6 
#C 4.600000e-010 6
0.000000e+000:1 2.478435e-005:2 2.478483e-005:3 2.478459e-005:4 2.478459e-005:5 0.000000e+000:6 
#C 5.600000e-010 6
0.000000e+000:1 2.478435e-005:2 2.478483e-005:3 2.478459e-005:4 2.478459e-005:5 0.000000e+000:6 
#C 6.600000e-010 6
0.000000e+000:1 2.478435e-005:2 2.478483e-005:3 2.478459e-005:4 2.478459e-005:5 0.000000e+000:6 
#C 7.600000e-010 6
0.000000e+000:1 2.478435e-005:2 2.478483e-005:3 2.478459e-005:4 2.478459e-005:5 0.000000e+000:6 
#C 8.600000e-010 6
0.000000e+000:1 2.478435e-005:2 2.478483e-005:3 2.478459e-005:4 2.478459e-005:5 0.000000e+000:6 
#C 8.995942e-010 6
0.000000e+000:1 2.478435e-005:2 2.478483e-005:3 2.478459e-005:4 2.478459e-005:5 0.000000e+000:6 
#C 9.251578e-010 6
0.000000e+000:1 2.478435e-005:2 2.478483e-005:3 2.478459e-005:4 2.478459e-005:5 0.000000e+000:6 
#C 9.511270e-010 6
0.000000e+000:1 2.478435e-005:2 2.478483e-005:3 2.478459e-005:4 2.478459e-005:5 0.000000e+000:6 
#C 9.833727e-010 6
0.000000e+000:1 2.478435e-005:2 2.478483e-005:3 2.478459e-005:4 2.478459e-005:5 0.000000e+000:6 
#C 1.006636e-009 6
0.000000e+000:1 2.478435e-005:2 2.478483e-005:3 2.478459e-005:4 2.478459e-005:5 0.000000e+000:6 
#C 1.031127e-009 6
0.000000e+000:1 2.478435e-005:2 2.478483e-005:3 2.478459e-005:4 2.478459e-005:5 0.000000e+000:6 
#C 1.067057e-009 6
0.000000e+000:1 2.478435e-005:2 2.478483e-005:3 2.478459e-005:4 2.478459e-005:5 0.000000e+000:6 
#C 1.102987e-009 6
0.000000e+000:1 2.478435e-005:2 2.478483e-005:3 2.478459e-005:4 2.478459e-005:5 0.000000e+000:6 
#C 1.138918e-009 6
0.000000e+000:1 2.478435e-005:2 2.478483e-005:3 2.478459e-005:4 2.478459e-005:5 0.000000e+000:6 
#C 1.174848e-009 6
0.000000e+000:1 2.478435e-005:2 2.478483e-005:3 2.478459e-005:4 2.478459e-005:5 0.000000e+000:6 
#C 1.210778e-009 6
0.000000e+000:1 2.478435e-005:2 2.478483e-005:3 2.478459e-005:4 2.478459e-005:5 0.000000e+000:6 
#C 1.239267e-009 6
0.000000e+000:1 2.478435e-005:2 2.478483e-005:3 2.478459e-005:4 2.478459e-005:5 0.000000e+000:6 
#C 1.271825e-009 6
0.000000e+000:1 2.478435e-005:2 2.478483e-005:3 2.478459e-005:4 2.478459e-005:5 0.000000e+000:6 
#C 1.295546e-009 6
0.000000e+000:1 2.478435e-005:2 2.478483e-005:3 2.478459e-005:4 2.478459e-005:5 0.000000e+000:6 
#C 1.335140e-009 6
0.000000e+000:1 2.478435e-005:2 2.478483e-005:3 2.478459e-005:4 2.478459e-005:5 0.000000e+000:6 
#C 1.360704e-009 6
0.000000e+000:1 2.478435e-005:2 2.478483e-005:3 2.478459e-005:4 2.478459e-005:5 0.000000e+000:6 
#C 1.386673e-009 6
0.000000e+000:1 2.478435e-005:2 2.478483e-005:3 2.478459e-005:4 2.478459e-005:5 0.000000e+000:6 
#C 1.418919e-009 6
0.000000e+000:1 2.478435e-005:2 2.478483e-005:3 2.478459e-005:4 2.478459e-005:5 0.000000e+000:6 
#C 1.458919e-009 6
0.000000e+000:1 2.478435e-005:2 2.478483e-005:3 2.478459e-005:4 2.478459e-005:5 0.000000e+000:6 
#C 1.498513e-009 6
0.000000e+000:1 2.478435e-005:2 2.478483e-005:3 2.478459e-005:4 2.478459e-005:5 0.000000e+000:6 
#C 1.524076e-009 6
0.000000e+000:1 2.478435e-005:2 2.478483e-005:3 2.478459e-005:4 2.478459e-005:5 0.000000e+000:6 
#C 1.552138e-009 6
0.000000e+000:1 2.478435e-005:2 2.478483e-005:3 2.478459e-005:4 2.478459e-005:5 0.000000e+000:6 
#C 1.580199e-009 6
0.000000e+000:1 2.478435e-005:2 2.478483e-005:3 2.478459e-005:4 2.478459e-005:5 0.000000e+000:6 
#C 1.606168e-009 6
0.000000e+000:1 2.478435e-005:2 2.478483e-005:3 2.478459e-005:4 2.478459e-005:5 0.000000e+000:6 
#C 1.638414e-009 6
0.000000e+000:1 2.478435e-005:2 2.478483e-005:3 2.478459e-005:4 2.478459e-005:5 0.000000e+000:6 
#C 1.662291e-009 6
0.000000e+000:1 2.478435e-005:2 2.478483e-005:3 2.478459e-005:4 2.478459e-005:5 0.000000e+000:6 
#C 1.693309e-009 6
0.000000e+000:1 2.478435e-005:2 2.478483e-005:3 2.478459e-005:4 2.478459e-005:5 0.000000e+000:6 
#C 1.720256e-009 6
0.000000e+000:1 2.478435e-005:2 2.478483e-005:3 2.478459e-005:4 2.478459e-005:5 0.000000e+000:6 
#C 1.742291e-009 6
0.000000e+000:1 2.478435e-005:2 2.478483e-005:3 2.478459e-005:4 2.478459e-005:5 0.000000e+000:6 
#C 1.766710e-009 6
0.000000e+000:1 2.478435e-005:2 2.478483e-005:3 2.478459e-005:4 2.478459e-005:5 0.000000e+000:6 
#C 1.799269e-009 6
0.000000e+000:1 2.478435e-005:2 2.478483e-005:3 2.478459e-005:4 2.478459e-005:5 0.000000e+000:6 
#C 1.831827e-009 6
0.000000e+000:1 2.478435e-005:2 2.478483e-005:3 2.478459e-005:4 2.478459e-005:5 0.000000e+000:6 
#C 1.896944e-009 6
0.000000e+000:1 2.478435e-005:2 2.478483e-005:3 2.478459e-005:4 2.478459e-005:5 0.000000e+000:6 
#C 1.936538e-009 6
0.000000e+000:1 2.478435e-005:2 2.478483e-005:3 2.478459e-005:4 2.478459e-005:5 0.000000e+000:6 
#C 1.956741e-009 6
0.000000e+000:1 2.478435e-005:2 2.478483e-005:3 2.478459e-005:4 2.478459e-005:5 0.000000e+000:6 
#C 1.976944e-009 6
0.000000e+000:1 2.478435e-005:2 2.478483e-005:3 2.478459e-005:4 2.478459e-005:5 0.000000e+000:6 
#C 2.002102e-009 6
0.000000e+000:1 2.478435e-005:2 2.478483e-005:3 2.478459e-005:4 2.478459e-005:5 0.000000e+000:6 
#C 2.028071e-009 6
0.000000e+000:1 2.478435e-005:2 2.478483e-005:3 2.478459e-005:4 2.478459e-005:5 0.000000e+000:6 
#C 2.060317e-009 6
0.000000e+000:1 2.478435e-005:2 2.478483e-005:3 2.478459e-005:4 2.478459e-005:5 0.000000e+000:6 
#C 2.100317e-009 6
0.000000e+000:1 2.478435e-005:2 2.478483e-005:3 2.478459e-005:4 2.478459e-005:5 0.000000e+000:6 
#C 2.139911e-009 6
0.000000e+000:1 2.478435e-005:2 2.478483e-005:3 2.478459e-005:4 2.478459e-005:5 0.000000e+000:6 
#C 2.165474e-009 6
0.000000e+000:1 2.478435e-005:2 2.478483e-005:3 2.478459e-005:4 2.478459e-005:5 0.000000e+000:6 
#C 2.191444e-009 6
0.000000e+000:1 2.478435e-005:2 2.478483e-005:3 2.478459e-005:4 2.478459e-005:5 0.000000e+000:6 
#C 2.223689e-009 6
0.000000e+000:1 2.478435e-005:2 2.478483e-005:3 2.478459e-005:4 2.478459e-005:5 0.000000e+000:6 
#C 2.263689e-009 6
0.000000e+000:1 2.478435e-005:2 2.478483e-005:3 2.478459e-005:4 2.478459e-005:5 0.000000e+000:6 
#C 2.303283e-009 6
0.000000e+000:1 2.478435e-005:2 2.478483e-005:3 2.478459e-005:4 2.478459e-005:5 0.000000e+000:6 
#C 2.328847e-009 6
0.000000e+000:1 2.478435e-005:2 2.478483e-005:3 2.478459e-005:4 2.478459e-005:5 0.000000e+000:6 
#C 2.354816e-009 6
0.000000e+000:1 2.478435e-005:2 2.478483e-005:3 2.478459e-005:4 2.478459e-005:5 0.000000e+000:6 
#C 2.387062e-009 6
0.000000e+000:1 2.478435e-005:2 2.478483e-005:3 2.478459e-005:4 2.478459e-005:5 0.000000e+000:6 
#C 2.427062e-009 6
0.000000e+000:1 2.478435e-005:2 2.478483e-005:3 2.478459e-005:4 2.478459e-005:5 0.000000e+000:6 
#C 2.466656e-009 6
0.000000e+000:1 2.478435e-005:2 2.478483e-005:3 2.478459e-005:4 2.478459e-005:5 0.000000e+000:6 
#C 2.492220e-009 6
0.000000e+000:1 2.478435e-005:2 2.478483e-005:3 2.478459e-005:4 2.478459e-005:5 0.000000e+000:6 
#C 2.520281e-009 6
0.000000e+000:1 2.478435e-005:2 2.478483e-005:3 2.478459e-005:4 2.478459e-005:5 0.000000e+000:6 
#C 2.548343e-009 6
0.000000e+000:1 2.478435e-005:2 2.478483e-005:3 2.478459e-005:4 2.478459e-005:5 0.000000e+000:6 
#C 2.588343e-009 6
0.000000e+000:1 2.478435e-005:2 2.478483e-005:3 2.478459e-005:4 2.478459e-005:5 0.000000e+000:6 
#C 2.627937e-009 6
0.000000e+000:1 2.478435e-005:2 2.478483e-005:3 2.478459e-005:4 2.478459e-005:5 0.000000e+000:6 
#C 2.653500e-009 6
0.000000e+000:1 2.478435e-005:2 2.478483e-005:3 2.478459e-005:4 2.478459e-005:5 0.000000e+000:6 
#C 2.679470e-009 6
0.000000e+000:1 2.478435e-005:2 2.478483e-005:3 2.478459e-005:4 2.478459e-005:5 0.000000e+000:6 
#C 2.711715e-009 6
0.000000e+000:1 2.478435e-005:2 2.478483e-005:3 2.478459e-005:4 2.478459e-005:5 0.000000e+000:6 
#C 2.751715e-009 6
0.000000e+000:1 2.478435e-005:2 2.478483e-005:3 2.478459e-005:4 2.478459e-005:5 0.000000e+000:6 
#C 2.791309e-009 6
0.000000e+000:1 2.478435e-005:2 2.478483e-005:3 2.478459e-005:4 2.478459e-005:5 0.000000e+000:6 
#C 2.816873e-009 6
0.000000e+000:1 2.478435e-005:2 2.478483e-005:3 2.478459e-005:4 2.478459e-005:5 0.000000e+000:6 
#C 2.844934e-009 6
0.000000e+000:1 2.478435e-005:2 2.478483e-005:3 2.478459e-005:4 2.478459e-005:5 0.000000e+000:6 
#C 2.872996e-009 6
0.000000e+000:1 2.478435e-005:2 2.478483e-005:3 2.478459e-005:4 2.478459e-005:5 0.000000e+000:6 
#C 2.901057e-009 6
0.000000e+000:1 2.478435e-005:2 2.478483e-005:3 2.478459e-005:4 2.478459e-005:5 0.000000e+000:6 
#C 2.929119e-009 6
0.000000e+000:1 2.478435e-005:2 2.478483e-005:3 2.478459e-005:4 2.478459e-005:5 0.000000e+000:6 
#C 2.955088e-009 6
0.000000e+000:1 2.478435e-005:2 2.478483e-005:3 2.478459e-005:4 2.478459e-005:5 0.000000e+000:6 
#C 2.987334e-009 6
0.000000e+000:1 2.478435e-005:2 2.478483e-005:3 2.478459e-005:4 2.478459e-005:5 0.000000e+000:6 
#C 3.010597e-009 6
0.000000e+000:1 2.478435e-005:2 2.478483e-005:3 2.478459e-005:4 2.478459e-005:5 0.000000e+000:6 
#C 3.035088e-009 6
0.000000e+000:1 2.478435e-005:2 2.478483e-005:3 2.478459e-005:4 2.478459e-005:5 0.000000e+000:6 
#C 3.071018e-009 6
0.000000e+000:1 2.478435e-005:2 2.478483e-005:3 2.478459e-005:4 2.478459e-005:5 0.000000e+000:6 
#C 3.099507e-009 6
0.000000e+000:1 2.478435e-005:2 2.478483e-005:3 2.478459e-005:4 2.478459e-005:5 0.000000e+000:6 
#C 3.132065e-009 6
0.000000e+000:1 2.478435e-005:2 2.478483e-005:3 2.478459e-005:4 2.478459e-005:5 0.000000e+000:6 
#C 3.164624e-009 6
0.000000e+000:1 2.478435e-005:2 2.478483e-005:3 2.478459e-005:4 2.478459e-005:5 0.000000e+000:6 
#C 3.229741e-009 6
0.000000e+000:1 2.478435e-005:2 2.478483e-005:3 2.478459e-005:4 2.478459e-005:5 0.000000e+000:6 
#C 3.269335e-009 6
0.000000e+000:1 2.478435e-005:2 2.478483e-005:3 2.478459e-005:4 2.478459e-005:5 0.000000e+000:6 
#C 3.289538e-009 6
0.000000e+000:1 2.478435e-005:2 2.478483e-005:3 2.478459e-005:4 2.478459e-005:5 0.000000e+000:6 
#C 3.309741e-009 6
0.000000e+000:1 2.478435e-005:2 2.478483e-005:3 2.478459e-005:4 2.478459e-005:5 0.000000e+000:6 
#C 3.334898e-009 6
0.000000e+000:1 2.478435e-005:2 2.478483e-005:3 2.478459e-005:4 2.478459e-005:5 0.000000e+000:6 
#C 3.360868e-009 6
0.000000e+000:1 2.478435e-005:2 2.478483e-005:3 2.478459e-005:4 2.478459e-005:5 0.000000e+000:6 
#C 3.393113e-009 6
0.000000e+000:1 2.478435e-005:2 2.478483e-005:3 2.478459e-005:4 2.478459e-005:5 0.000000e+000:6 
#C 3.433113e-009 6
0.000000e+000:1 2.478435e-005:2 2.478483e-005:3 2.478459e-005:4 2.478459e-005:5 0.000000e+000:6 
#C 3.472707e-009 6
0.000000e+000:1 2.478435e-005:2 2.478483e-005:3 2.478459e-005:4 2.478459e-005:5 0.000000e+000:6 
#C 3.498271e-009 6
0.000000e+000:1 2.478435e-005:2 2.478483e-005:3 2.478459e-005:4 2.478459e-005:5 0.000000e+000:6 
#C 3.524240e-009 6
0.000000e+000:1 2.478435e-005:2 2.478483e-005:3 2.478459e-005:4 2.478459e-005:5 0.000000e+000:6 
#C 3.556486e-009 6
0.000000e+000:1 2.478435e-005:2 2.478483e-005:3 2.478459e-005:4 2.478459e-005:5 0.000000e+000:6 
#C 3.596486e-009 6
0.000000e+000:1 2.478435e-005:2 2.478483e-005:3 2.478459e-005:4 2.478459e-005:5 0.000000e+000:6 
#C 3.636080e-009 6
0.000000e+000:1 2.478435e-005:2 2.478483e-005:3 2.478459e-005:4 2.478459e-005:5 0.000000e+000:6 
#C 3.661644e-009 6
0.000000e+000:1 2.478435e-005:2 2.478483e-005:3 2.478459e-005:4 2.478459e-005:5 0.000000e+000:6 
#C 3.687613e-009 6
0.000000e+000:1 2.478435e-005:2 2.478483e-005:3 2.478459e-005:4 2.478459e-005:5 0.000000e+000:6 
#C 3.719859e-009 6
0.000000e+000:1 2.478435e-005:2 2.478483e-005:3 2.478459e-005:4 2.478459e-005:5 0.000000e+000:6 
#C 3.759859e-009 6
0.000000e+000:1 2.478435e-005:2 2.478483e-005:3 2.478459e-005:4 2.478459e-005:5 0.000000e+000:6 
#C 3.799453e-009 6
0.000000e+000:1 2.478435e-005:2 2.478483e-005:3 2.478459e-005:4 2.478459e-005:5 0.000000e+000:6 
#C 3.825016e-009 6
0.000000e+000:1 2.478435e-005:2 2.478483e-005:3 2.478459e-005:4 2.478459e-005:5 0.000000e+000:6 
#C 3.853078e-009 6
0.000000e+000:1 2.478435e-005:2 2.478483e-005:3 2.478459e-005:4 2.478459e-005:5 0.000000e+000:6 
#C 3.881139e-009 6
0.000000e+000:1 2.478435e-005:2 2.478483e-005:3 2.478459e-005:4 2.478459e-005:5 0.000000e+000:6 
#C 3.921139e-009 6
0.000000e+000:1 2.478435e-005:2 2.478483e-005:3 2.478459e-005:4 2.478459e-005:5 0.000000e+000:6 
#C 3.960733e-009 6
0.000000e+000:1 2.478435e-005:2 2.478483e-005:3 2.478459e-005:4 2.478459e-005:5 0.000000e+000:6 
#C 3.986297e-009 6
0.000000e+000:1 2.478435e-005:2 2.478483e-005:3 2.478459e-005:4 2.478459e-005:5 0.000000e+000:6 
#C 4.012266e-009 6
0.000000e+000:1 2.478435e-005:2 2.478483e-005:3 2.478459e-005:4 2.478459e-005:5 0.000000e+000:6 
#C 4.044512e-009 6
0.000000e+000:1 2.478435e-005:2 2.478483e-005:3 2.478459e-005:4 2.478459e-005:5 0.000000e+000:6 
#C 4.076757e-009 6
0.000000e+000:1 2.478435e-005:2 2.478483e-005:3 2.478459e-005:4 2.478459e-005:5 0.000000e+000:6 
#C 4.100021e-009 6
0.000000e+000:1 2.478435e-005:2 2.478483e-005:3 2.478459e-005:4 2.478459e-005:5 0.000000e+000:6 
#C 4.131038e-009 6
0.000000e+000:1 2.478435e-005:2 2.478483e-005:3 2.478459e-005:4 2.478459e-005:5 0.000000e+000:6 
#C 4.162055e-009 6
0.000000e+000:1 2.478435e-005:2 2.478483e-005:3 2.478459e-005:4 2.478459e-005:5 0.000000e+000:6 
#C 4.208582e-009 6
0.000000e+000:1 2.478435e-005:2 2.478483e-005:3 2.478459e-005:4 2.478459e-005:5 0.000000e+000:6 
#C 4.248176e-009 6
0.000000e+000:1 2.478435e-005:2 2.478483e-005:3 2.478459e-005:4 2.478459e-005:5 0.000000e+000:6 
#C 4.268379e-009 6
0.000000e+000:1 2.478435e-005:2 2.478483e-005:3 2.478459e-005:4 2.478459e-005:5 0.000000e+000:6 
#C 4.308379e-009 6
0.000000e+000:1 2.478435e-005:2 2.478483e-005:3 2.478459e-005:4 2.478459e-005:5 0.000000e+000:6 
#C 4.348379e-009 6
0.000000e+000:1 2.478435e-005:2 2.478483e-005:3 2.478459e-005:4 2.478459e-005:5 0.000000e+000:6 
#C 4.388379e-009 6
0.000000e+000:1 2.478435e-005:2 2.478483e-005:3 2.478459e-005:4 2.478459e-005:5 0.000000e+000:6 
#C 4.428379e-009 6
0.000000e+000:1 2.478435e-005:2 2.478483e-005:3 2.478459e-005:4 2.478459e-005:5 0.000000e+000:6 
#C 4.468379e-009 6
0.000000e+000:1 2.478435e-005:2 2.478483e-005:3 2.478459e-005:4 2.478459e-005:5 0.000000e+000:6 
#C 4.508379e-009 6
0.000000e+000:1 2.478435e-005:2 2.478483e-005:3 2.478459e-005:4 2.478459e-005:5 0.000000e+000:6 
#C 4.548379e-009 6
0.000000e+000:1 2.478435e-005:2 2.478483e-005:3 2.478459e-005:4 2.478459e-005:5 0.000000e+000:6 
#C 4.588379e-009 6
0.000000e+000:1 2.478435e-005:2 2.478483e-005:3 2.478459e-005:4 2.478459e-005:5 0.000000e+000:6 
#C 4.628379e-009 6
0.000000e+000:1 2.478435e-005:2 2.478483e-005:3 2.478459e-005:4 2.478459e-005:5 0.000000e+000:6 
#C 4.668379e-009 6
0.000000e+000:1 2.478435e-005:2 2.478483e-005:3 2.478459e-005:4 2.478459e-005:5 0.000000e+000:6 
#C 4.708379e-009 6
0.000000e+000:1 2.478435e-005:2 2.478483e-005:3 2.478459e-005:4 2.478459e-005:5 0.000000e+000:6 
#C 4.748379e-009 6
0.000000e+000:1 2.478435e-005:2 2.478483e-005:3 2.478459e-005:4 2.478459e-005:5 0.000000e+000:6 
#C 4.788379e-009 6
0.000000e+000:1 2.478435e-005:2 2.478483e-005:3 2.478459e-005:4 2.478459e-005:5 0.000000e+000:6 
#C 4.828379e-009 6
0.000000e+000:1 2.478435e-005:2 2.478483e-005:3 2.478459e-005:4 2.478459e-005:5 0.000000e+000:6 
#C 4.868379e-009 6
0.000000e+000:1 2.478435e-005:2 2.478483e-005:3 2.478459e-005:4 2.478459e-005:5 0.000000e+000:6 
#C 4.908379e-009 6
0.000000e+000:1 2.478435e-005:2 2.478483e-005:3 2.478459e-005:4 2.478459e-005:5 0.000000e+000:6 
#C 4.948379e-009 6
0.000000e+000:1 2.478435e-005:2 2.478483e-005:3 2.478459e-005:4 2.478459e-005:5 0.000000e+000:6 
#C 4.988379e-009 6
0.000000e+000:1 2.478435e-005:2 2.478483e-005:3 2.478459e-005:4 2.478459e-005:5 0.000000e+000:6 
#C 5.028379e-009 6
0.000000e+000:1 2.478435e-005:2 2.478483e-005:3 2.478459e-005:4 2.478459e-005:5 0.000000e+000:6 
#C 5.068379e-009 6
0.000000e+000:1 2.478435e-005:2 2.478483e-005:3 2.478459e-005:4 2.478459e-005:5 0.000000e+000:6 
#C 5.108379e-009 6
0.000000e+000:1 2.478435e-005:2 2.478483e-005:3 2.478459e-005:4 2.478459e-005:5 0.000000e+000:6 
#C 5.148379e-009 6
0.000000e+000:1 2.478435e-005:2 2.478483e-005:3 2.478459e-005:4 2.478459e-005:5 0.000000e+000:6 
#C 5.188379e-009 6
0.000000e+000:1 2.478435e-005:2 2.478483e-005:3 2.478459e-005:4 2.478459e-005:5 0.000000e+000:6 
#C 5.228379e-009 6
0.000000e+000:1 2.478435e-005:2 2.478483e-005:3 2.478459e-005:4 2.478459e-005:5 0.000000e+000:6 
#C 5.268379e-009 6
0.000000e+000:1 2.478435e-005:2 2.478483e-005:3 2.478459e-005:4 2.478459e-005:5 0.000000e+000:6 
#C 5.308379e-009 6
0.000000e+000:1 2.478435e-005:2 2.478483e-005:3 2.478459e-005:4 2.478459e-005:5 0.000000e+000:6 
#C 5.348379e-009 6
0.000000e+000:1 2.478435e-005:2 2.478483e-005:3 2.478459e-005:4 2.478459e-005:5 0.000000e+000:6 
#C 5.388379e-009 6
0.000000e+000:1 2.478435e-005:2 2.478483e-005:3 2.478459e-005:4 2.478459e-005:5 0.000000e+000:6 
#C 5.428379e-009 6
0.000000e+000:1 2.478435e-005:2 2.478483e-005:3 2.478459e-005:4 2.478459e-005:5 0.000000e+000:6 
#C 5.468379e-009 6
0.000000e+000:1 2.478435e-005:2 2.478483e-005:3 2.478459e-005:4 2.478459e-005:5 0.000000e+000:6 
#C 5.508379e-009 6
0.000000e+000:1 2.478435e-005:2 2.478483e-005:3 2.478459e-005:4 2.478459e-005:5 0.000000e+000:6 
#C 5.548379e-009 6
0.000000e+000:1 2.478435e-005:2 2.478483e-005:3 2.478459e-005:4 2.478459e-005:5 0.000000e+000:6 
#C 5.588379e-009 6
0.000000e+000:1 2.478435e-005:2 2.478483e-005:3 2.478459e-005:4 2.478459e-005:5 0.000000e+000:6 
#C 5.628379e-009 6
0.000000e+000:1 2.478435e-005:2 2.478483e-005:3 2.478459e-005:4 2.478459e-005:5 0.000000e+000:6 
#C 5.668379e-009 6
0.000000e+000:1 2.478435e-005:2 2.478483e-005:3 2.478459e-005:4 2.478459e-005:5 0.000000e+000:6 
#C 5.708379e-009 6
0.000000e+000:1 2.478435e-005:2 2.478483e-005:3 2.478459e-005:4 2.478459e-005:5 0.000000e+000:6 
#C 5.748379e-009 6
0.000000e+000:1 2.478435e-005:2 2.478483e-005:3 2.478459e-005:4 2.478459e-005:5 0.000000e+000:6 
#C 5.788379e-009 6
0.000000e+000:1 2.478435e-005:2 2.478483e-005:3 2.478459e-005:4 2.478459e-005:5 0.000000e+000:6 
#C 5.828379e-009 6
0.000000e+000:1 2.478435e-005:2 2.478483e-005:3 2.478459e-005:4 2.478459e-005:5 0.000000e+000:6 
#C 5.868379e-009 6
0.000000e+000:1 2.478435e-005:2 2.478483e-005:3 2.478459e-005:4 2.478459e-005:5 0.000000e+000:6 
#C 5.908379e-009 6
0.000000e+000:1 2.478435e-005:2 2.478483e-005:3 2.478459e-005:4 2.478459e-005:5 0.000000e+000:6 
#C 5.948379e-009 6
0.000000e+000:1 2.478435e-005:2 2.478483e-005:3 2.478459e-005:4 2.478459e-005:5 0.000000e+000:6 
#C 5.988379e-009 6
0.000000e+000:1 2.478435e-005:2 2.478483e-005:3 2.478459e-005:4 2.478459e-005:5 0.000000e+000:6 
#C 6.013858e-009 6
1.385798e-001:1 2.478435e-005:2 2.478483e-005:3 2.478459e-005:4 2.478459e-005:5 0.000000e+000:6 
#C 6.046000e-009 6
4.600000e-001:1 2.478435e-005:2 2.478483e-005:3 2.478459e-005:4 2.478459e-005:5 0.000000e+000:6 
#C 6.069320e-009 6
