#H
SOURCE='IsSpice4'	VERSION='ver. 8.11-SI-1.0.3   10/6/2010'
TITLE='* Wed Oct 21 17:53:45 2015, Generated by: 010328058, Server: None, Windows, INSTALLED_SOFTWARE_VERSION: 2015.07 Build 6, Engine: 2015.07rc1, GUI: 2015.07rc1'
SUBTITLE='pc'
TIME='17:53:48' DATE='Oct 21, 2015' TEMPERATURE='298.15'
ANALYSIS='Trans'	SERIALNO='01234567'
ALLVALUES='NO' COMPLEXVALUES='NO' NODES='6'
SWEEPVAR='time' SWEEPMODE='VAR_STEP' DGTLDATA='NO'
XBEGIN='0.000000e+000' XEND='3.700000e-008'
FORMAT='0 VOLTSorAMPS;EFLOAT : NODEorBRANCH;NODE'
#N
'V(v_stimulus)'
'V(stload_sl_wopkg_!load)'
'V(stload_sl_wpkg_!load)'
'V(stload_sl_wopkg_!pad)'
'V(stload_sl_wpkg_!pad)'
'V(stload_sl_wpkg_!pin)'
#U
'Volts'
'Volts'
'Volts'
'Volts'
'Volts'
'Volts'
#C 0.000000e+000 6
0.000000e+000:1 4.539147e-006:2 4.539146e-006:3 4.539147e-006:4 4.539147e-006:5 4.539146e-006:6 
#C 2.560000e-011 6
0.000000e+000:1 4.539147e-006:2 4.539146e-006:3 4.539147e-006:4 4.539147e-006:5 4.539146e-006:6 
#C 5.440000e-011 6
0.000000e+000:1 4.539147e-006:2 4.539146e-006:3 4.539147e-006:4 4.539147e-006:5 4.539146e-006:6 
#C 8.320000e-011 6
0.000000e+000:1 4.539147e-006:2 4.539146e-006:3 4.539147e-006:4 4.539147e-006:5 4.539146e-006:6 
#C 1.088000e-010 6
0.000000e+000:1 4.539147e-006:2 4.539146e-006:3 4.539147e-006:4 4.539147e-006:5 4.539146e-006:6 
#C 1.600000e-010 6
0.000000e+000:1 4.539147e-006:2 4.539146e-006:3 4.539147e-006:4 4.539147e-006:5 4.539146e-006:6 
#C 2.624000e-010 6
0.000000e+000:1 4.539147e-006:2 4.539146e-006:3 4.539147e-006:4 4.539147e-006:5 4.539146e-006:6 
#C 4.672000e-010 6
0.000000e+000:1 4.539147e-006:2 4.539146e-006:3 4.539147e-006:4 4.539147e-006:5 4.539146e-006:6 
#C 8.768000e-010 6
0.000000e+000:1 4.539147e-006:2 4.539146e-006:3 4.539147e-006:4 4.539147e-006:5 4.539146e-006:6 
#C 9.016303e-010 6
0.000000e+000:1 4.539147e-006:2 4.539146e-006:3 4.539147e-006:4 4.539147e-006:5 4.539146e-006:6 
#C 9.264606e-010 6
0.000000e+000:1 4.539147e-006:2 4.539146e-006:3 4.539147e-006:4 4.539147e-006:5 4.539146e-006:6 
#C 9.761211e-010 6
0.000000e+000:1 4.539147e-006:2 4.539146e-006:3 4.539147e-006:4 4.539147e-006:5 4.539146e-006:6 
#C 1.075442e-009 6
0.000000e+000:1 4.539147e-006:2 4.539146e-006:3 4.539147e-006:4 4.539147e-006:5 4.539146e-006:6 
#C 1.100273e-009 6
0.000000e+000:1 4.539147e-006:2 4.539146e-006:3 4.539147e-006:4 4.539147e-006:5 4.539146e-006:6 
#C 1.130612e-009 6
0.000000e+000:1 4.539147e-006:2 4.539146e-006:3 4.539147e-006:4 4.539147e-006:5 4.539146e-006:6 
#C 1.160951e-009 6
0.000000e+000:1 4.539147e-006:2 4.539146e-006:3 4.539147e-006:4 4.539147e-006:5 4.539146e-006:6 
#C 1.189933e-009 6
0.000000e+000:1 4.539147e-006:2 4.539146e-006:3 4.539147e-006:4 4.539147e-006:5 4.539146e-006:6 
#C 1.210612e-009 6
0.000000e+000:1 4.539147e-006:2 4.539146e-006:3 4.539147e-006:4 4.539147e-006:5 4.539146e-006:6 
#C 1.250612e-009 6
0.000000e+000:1 4.539147e-006:2 4.539146e-006:3 4.539147e-006:4 4.539147e-006:5 4.539146e-006:6 
#C 1.290612e-009 6
0.000000e+000:1 4.539147e-006:2 4.539146e-006:3 4.539147e-006:4 4.539147e-006:5 4.539146e-006:6 
#C 1.330612e-009 6
0.000000e+000:1 4.539147e-006:2 4.539146e-006:3 4.539147e-006:4 4.539147e-006:5 4.539146e-006:6 
#C 1.370612e-009 6
0.000000e+000:1 4.539147e-006:2 4.539146e-006:3 4.539147e-006:4 4.539147e-006:5 4.539146e-006:6 
#C 1.410612e-009 6
0.000000e+000:1 4.539147e-006:2 4.539146e-006:3 4.539147e-006:4 4.539147e-006:5 4.539146e-006:6 
#C 1.450612e-009 6
0.000000e+000:1 4.539147e-006:2 4.539146e-006:3 4.539147e-006:4 4.539147e-006:5 4.539146e-006:6 
#C 1.490612e-009 6
0.000000e+000:1 4.539147e-006:2 4.539146e-006:3 4.539147e-006:4 4.539147e-006:5 4.539146e-006:6 
#C 1.530612e-009 6
0.000000e+000:1 4.539147e-006:2 4.539146e-006:3 4.539147e-006:4 4.539147e-006:5 4.539146e-006:6 
#C 1.570612e-009 6
0.000000e+000:1 4.539147e-006:2 4.539146e-006:3 4.539147e-006:4 4.539147e-006:5 4.539146e-006:6 
#C 1.610612e-009 6
0.000000e+000:1 4.539147e-006:2 4.539146e-006:3 4.539147e-006:4 4.539147e-006:5 4.539146e-006:6 
#C 1.650612e-009 6
0.000000e+000:1 4.539147e-006:2 4.539146e-006:3 4.539147e-006:4 4.539147e-006:5 4.539146e-006:6 
#C 1.690612e-009 6
0.000000e+000:1 4.539147e-006:2 4.539146e-006:3 4.539147e-006:4 4.539147e-006:5 4.539146e-006:6 
#C 1.730612e-009 6
0.000000e+000:1 4.539147e-006:2 4.539146e-006:3 4.539147e-006:4 4.539147e-006:5 4.539146e-006:6 
#C 1.770612e-009 6
0.000000e+000:1 4.539147e-006:2 4.539146e-006:3 4.539147e-006:4 4.539147e-006:5 4.539146e-006:6 
#C 1.810612e-009 6
0.000000e+000:1 4.539147e-006:2 4.539146e-006:3 4.539147e-006:4 4.539147e-006:5 4.539146e-006:6 
#C 1.850612e-009 6
0.000000e+000:1 4.539147e-006:2 4.539146e-006:3 4.539147e-006:4 4.539147e-006:5 4.539146e-006:6 
#C 1.890612e-009 6
0.000000e+000:1 4.539147e-006:2 4.539146e-006:3 4.539147e-006:4 4.539147e-006:5 4.539146e-006:6 
#C 1.930612e-009 6
0.000000e+000:1 4.539147e-006:2 4.539146e-006:3 4.539147e-006:4 4.539147e-006:5 4.539146e-006:6 
#C 1.970612e-009 6
0.000000e+000:1 4.539147e-006:2 4.539146e-006:3 4.539147e-006:4 4.539147e-006:5 4.539146e-006:6 
#C 2.010612e-009 6
0.000000e+000:1 4.539147e-006:2 4.539146e-006:3 4.539147e-006:4 4.539147e-006:5 4.539146e-006:6 
#C 2.050612e-009 6
0.000000e+000:1 4.539147e-006:2 4.539146e-006:3 4.539147e-006:4 4.539147e-006:5 4.539146e-006:6 
#C 2.090612e-009 6
0.000000e+000:1 4.539147e-006:2 4.539146e-006:3 4.539147e-006:4 4.539147e-006:5 4.539146e-006:6 
#C 2.130612e-009 6
0.000000e+000:1 4.539147e-006:2 4.539146e-006:3 4.539147e-006:4 4.539147e-006:5 4.539146e-006:6 
#C 2.170612e-009 6
0.000000e+000:1 4.539147e-006:2 4.539146e-006:3 4.539147e-006:4 4.539147e-006:5 4.539146e-006:6 
#C 2.210612e-009 6
0.000000e+000:1 4.539147e-006:2 4.539146e-006:3 4.539147e-006:4 4.539147e-006:5 4.539146e-006:6 
#C 2.250612e-009 6
0.000000e+000:1 4.539147e-006:2 4.539146e-006:3 4.539147e-006:4 4.539147e-006:5 4.539146e-006:6 
#C 2.290612e-009 6
0.000000e+000:1 4.539147e-006:2 4.539146e-006:3 4.539147e-006:4 4.539147e-006:5 4.539146e-006:6 
#C 2.330612e-009 6
0.000000e+000:1 4.539147e-006:2 4.539146e-006:3 4.539147e-006:4 4.539147e-006:5 4.539146e-006:6 
#C 2.370612e-009 6
0.000000e+000:1 4.539147e-006:2 4.539146e-006:3 4.539147e-006:4 4.539147e-006:5 4.539146e-006:6 
#C 2.410612e-009 6
0.000000e+000:1 4.539147e-006:2 4.539146e-006:3 4.539147e-006:4 4.539147e-006:5 4.539146e-006:6 
#C 2.450612e-009 6
0.000000e+000:1 4.539147e-006:2 4.539146e-006:3 4.539147e-006:4 4.539147e-006:5 4.539146e-006:6 
#C 2.490612e-009 6
0.000000e+000:1 4.539147e-006:2 4.539146e-006:3 4.539147e-006:4 4.539147e-006:5 4.539146e-006:6 
#C 2.530612e-009 6
0.000000e+000:1 4.539147e-006:2 4.539146e-006:3 4.539147e-006:4 4.539147e-006:5 4.539146e-006:6 
#C 2.570612e-009 6
0.000000e+000:1 4.539147e-006:2 4.539146e-006:3 4.539147e-006:4 4.539147e-006:5 4.539146e-006:6 
#C 2.610612e-009 6
0.000000e+000:1 4.539147e-006:2 4.539146e-006:3 4.539147e-006:4 4.539147e-006:5 4.539146e-006:6 
#C 2.650612e-009 6
0.000000e+000:1 4.539147e-006:2 4.539146e-006:3 4.539147e-006:4 4.539147e-006:5 4.539146e-006:6 
#C 2.690612e-009 6
0.000000e+000:1 4.539147e-006:2 4.539146e-006:3 4.539147e-006:4 4.539147e-006:5 4.539146e-006:6 
#C 2.730612e-009 6
0.000000e+000:1 4.539147e-006:2 4.539146e-006:3 4.539147e-006:4 4.539147e-006:5 4.539146e-006:6 
#C 2.770612e-009 6
0.000000e+000:1 4.539147e-006:2 4.539146e-006:3 4.539147e-006:4 4.539147e-006:5 4.539146e-006:6 
#C 2.810612e-009 6
0.000000e+000:1 4.539147e-006:2 4.539146e-006:3 4.539147e-006:4 4.539147e-006:5 4.539146e-006:6 
#C 2.850612e-009 6
0.000000e+000:1 4.539147e-006:2 4.539146e-006:3 4.539147e-006:4 4.539147e-006:5 4.539146e-006:6 
#C 2.890612e-009 6
0.000000e+000:1 4.539147e-006:2 4.539146e-006:3 4.539147e-006:4 4.539147e-006:5 4.539146e-006:6 
#C 2.930612e-009 6
0.000000e+000:1 4.539147e-006:2 4.539146e-006:3 4.539147e-006:4 4.539147e-006:5 4.539146e-006:6 
#C 2.970612e-009 6
0.000000e+000:1 4.539147e-006:2 4.539146e-006:3 4.539147e-006:4 4.539147e-006:5 4.539146e-006:6 
#C 3.010612e-009 6
0.000000e+000:1 4.539147e-006:2 4.539146e-006:3 4.539147e-006:4 4.539147e-006:5 4.539146e-006:6 
#C 3.050612e-009 6
0.000000e+000:1 4.539147e-006:2 4.539146e-006:3 4.539147e-006:4 4.539147e-006:5 4.539146e-006:6 
#C 3.090612e-009 6
0.000000e+000:1 4.539147e-006:2 4.539146e-006:3 4.539147e-006:4 4.539147e-006:5 4.539146e-006:6 
#C 3.130612e-009 6
0.000000e+000:1 4.539147e-006:2 4.539146e-006:3 4.539147e-006:4 4.539147e-006:5 4.539146e-006:6 
#C 3.170612e-009 6
0.000000e+000:1 4.539147e-006:2 4.539146e-006:3 4.539147e-006:4 4.539147e-006:5 4.539146e-006:6 
#C 3.210612e-009 6
0.000000e+000:1 4.539147e-006:2 4.539146e-006:3 4.539147e-006:4 4.539147e-006:5 4.539146e-006:6 
#C 3.250612e-009 6
0.000000e+000:1 4.539147e-006:2 4.539146e-006:3 4.539147e-006:4 4.539147e-006:5 4.539146e-006:6 
#C 3.290612e-009 6
0.000000e+000:1 4.539147e-006:2 4.539146e-006:3 4.539147e-006:4 4.539147e-006:5 4.539146e-006:6 
#C 3.330612e-009 6
0.000000e+000:1 4.539147e-006:2 4.539146e-006:3 4.539147e-006:4 4.539147e-006:5 4.539146e-006:6 
#C 3.370612e-009 6
0.000000e+000:1 4.539147e-006:2 4.539146e-006:3 4.539147e-006:4 4.539147e-006:5 4.539146e-006:6 
#C 3.410612e-009 6
0.000000e+000:1 4.539147e-006:2 4.539146e-006:3 4.539147e-006:4 4.539147e-006:5 4.539146e-006:6 
#C 3.450612e-009 6
0.000000e+000:1 4.539147e-006:2 4.539146e-006:3 4.539147e-006:4 4.539147e-006:5 4.539146e-006:6 
#C 3.490612e-009 6
0.000000e+000:1 4.539147e-006:2 4.539146e-006:3 4.539147e-006:4 4.539147e-006:5 4.539146e-006:6 
#C 3.530612e-009 6
0.000000e+000:1 4.539147e-006:2 4.539146e-006:3 4.539147e-006:4 4.539147e-006:5 4.539146e-006:6 
#C 3.570612e-009 6
0.000000e+000:1 4.539147e-006:2 4.539146e-006:3 4.539147e-006:4 4.539147e-006:5 4.539146e-006:6 
#C 3.610612e-009 6
0.000000e+000:1 4.539147e-006:2 4.539146e-006:3 4.539147e-006:4 4.539147e-006:5 4.539146e-006:6 
#C 3.650612e-009 6
0.000000e+000:1 4.539147e-006:2 4.539146e-006:3 4.539147e-006:4 4.539147e-006:5 4.539146e-006:6 
#C 3.690612e-009 6
0.000000e+000:1 4.539147e-006:2 4.539146e-006:3 4.539147e-006:4 4.539147e-006:5 4.539146e-006:6 
#C 3.730612e-009 6
0.000000e+000:1 4.539147e-006:2 4.539146e-006:3 4.539147e-006:4 4.539147e-006:5 4.539146e-006:6 
#C 3.770612e-009 6
0.000000e+000:1 4.539147e-006:2 4.539146e-006:3 4.539147e-006:4 4.539147e-006:5 4.539146e-006:6 
#C 3.810612e-009 6
0.000000e+000:1 4.539147e-006:2 4.539146e-006:3 4.539147e-006:4 4.539147e-006:5 4.539146e-006:6 
#C 3.850612e-009 6
0.000000e+000:1 4.539147e-006:2 4.539146e-006:3 4.539147e-006:4 4.539147e-006:5 4.539146e-006:6 
#C 3.890612e-009 6
0.000000e+000:1 4.539147e-006:2 4.539146e-006:3 4.539147e-006:4 4.539147e-006:5 4.539146e-006:6 
#C 3.930612e-009 6
0.000000e+000:1 4.539147e-006:2 4.539146e-006:3 4.539147e-006:4 4.539147e-006:5 4.539146e-006:6 
#C 3.970612e-009 6
0.000000e+000:1 4.539147e-006:2 4.539146e-006:3 4.539147e-006:4 4.539147e-006:5 4.539146e-006:6 
#C 4.010612e-009 6
0.000000e+000:1 4.539147e-006:2 4.539146e-006:3 4.539147e-006:4 4.539147e-006:5 4.539146e-006:6 
#C 4.050612e-009 6
0.000000e+000:1 4.539147e-006:2 4.539146e-006:3 4.539147e-006:4 4.539147e-006:5 4.539146e-006:6 
#C 4.090612e-009 6
0.000000e+000:1 4.539147e-006:2 4.539146e-006:3 4.539147e-006:4 4.539147e-006:5 4.539146e-006:6 
#C 4.130612e-009 6
0.000000e+000:1 4.539147e-006:2 4.539146e-006:3 4.539147e-006:4 4.539147e-006:5 4.539146e-006:6 
#C 4.170612e-009 6
0.000000e+000:1 4.539147e-006:2 4.539146e-006:3 4.539147e-006:4 4.539147e-006:5 4.539146e-006:6 
#C 4.210612e-009 6
0.000000e+000:1 4.539147e-006:2 4.539146e-006:3 4.539147e-006:4 4.539147e-006:5 4.539146e-006:6 
#C 4.250612e-009 6
0.000000e+000:1 4.539147e-006:2 4.539146e-006:3 4.539147e-006:4 4.539147e-006:5 4.539146e-006:6 
#C 4.290612e-009 6
0.000000e+000:1 4.539147e-006:2 4.539146e-006:3 4.539147e-006:4 4.539147e-006:5 4.539146e-006:6 
#C 4.330612e-009 6
0.000000e+000:1 4.539147e-006:2 4.539146e-006:3 4.539147e-006:4 4.539147e-006:5 4.539146e-006:6 
#C 4.370612e-009 6
0.000000e+000:1 4.539147e-006:2 4.539146e-006:3 4.539147e-006:4 4.539147e-006:5 4.539146e-006:6 
#C 4.410612e-009 6
0.000000e+000:1 4.539147e-006:2 4.539146e-006:3 4.539147e-006:4 4.539147e-006:5 4.539146e-006:6 
#C 4.450612e-009 6
0.000000e+000:1 4.539147e-006:2 4.539146e-006:3 4.539147e-006:4 4.539147e-006:5 4.539146e-006:6 
#C 4.490612e-009 6
0.000000e+000:1 4.539147e-006:2 4.539146e-006:3 4.539147e-006:4 4.539147e-006:5 4.539146e-006:6 
#C 4.530612e-009 6
0.000000e+000:1 4.539147e-006:2 4.539146e-006:3 4.539147e-006:4 4.539147e-006:5 4.539146e-006:6 
#C 4.570612e-009 6
0.000000e+000:1 4.539147e-006:2 4.539146e-006:3 4.539147e-006:4 4.539147e-006:5 4.539146e-006:6 
#C 4.610612e-009 6
0.000000e+000:1 4.539147e-006:2 4.539146e-006:3 4.539147e-006:4 4.539147e-006:5 4.539146e-006:6 
#C 4.650612e-009 6
0.000000e+000:1 4.539147e-006:2 4.539146e-006:3 4.539147e-006:4 4.539147e-006:5 4.539146e-006:6 
#C 4.690612e-009 6
0.000000e+000:1 4.539147e-006:2 4.539146e-006:3 4.539147e-006:4 4.539147e-006:5 4.539146e-006:6 
#C 4.730612e-009 6
0.000000e+000:1 4.539147e-006:2 4.539146e-006:3 4.539147e-006:4 4.539147e-006:5 4.539146e-006:6 
#C 4.770612e-009 6
0.000000e+000:1 4.539147e-006:2 4.539146e-006:3 4.539147e-006:4 4.539147e-006:5 4.539146e-006:6 
#C 4.810612e-009 6
0.000000e+000:1 4.539147e-006:2 4.539146e-006:3 4.539147e-006:4 4.539147e-006:5 4.539146e-006:6 
#C 4.850612e-009 6
0.000000e+000:1 4.539147e-006:2 4.539146e-006:3 4.539147e-006:4 4.539147e-006:5 4.539146e-006:6 
#C 4.890612e-009 6
0.000000e+000:1 4.539147e-006:2 4.539146e-006:3 4.539147e-006:4 4.539147e-006:5 4.539146e-006:6 
#C 4.930612e-009 6
0.000000e+000:1 4.539147e-006:2 4.539146e-006:3 4.539147e-006:4 4.539147e-006:5 4.539146e-006:6 
#C 4.970612e-009 6
0.000000e+000:1 4.539147e-006:2 4.539146e-006:3 4.539147e-006:4 4.539147e-006:5 4.539146e-006:6 
#C 5.010612e-009 6
0.000000e+000:1 4.539147e-006:2 4.539146e-006:3 4.539147e-006:4 4.539147e-006:5 4.539146e-006:6 
#C 5.050612e-009 6
0.000000e+000:1 4.539147e-006:2 4.539146e-006:3 4.539147e-006:4 4.539147e-006:5 4.539146e-006:6 
#C 5.090612e-009 6
0.000000e+000:1 4.539147e-006:2 4.539146e-006:3 4.539147e-006:4 4.539147e-006:5 4.539146e-006:6 
#C 5.130612e-009 6
0.000000e+000:1 4.539147e-006:2 4.539146e-006:3 4.539147e-006:4 4.539147e-006:5 4.539146e-006:6 
#C 5.170612e-009 6
0.000000e+000:1 4.539147e-006:2 4.539146e-006:3 4.539147e-006:4 4.539147e-006:5 4.539146e-006:6 
#C 5.210612e-009 6
0.000000e+000:1 4.539147e-006:2 4.539146e-006:3 4.539147e-006:4 4.539147e-006:5 4.539146e-006:6 
#C 5.250612e-009 6
0.000000e+000:1 4.539147e-006:2 4.539146e-006:3 4.539147e-006:4 4.539147e-006:5 4.539146e-006:6 
#C 5.290612e-009 6
0.000000e+000:1 4.539147e-006:2 4.539146e-006:3 4.539147e-006:4 4.539147e-006:5 4.539146e-006:6 
#C 5.330612e-009 6
0.000000e+000:1 4.539147e-006:2 4.539146e-006:3 4.539147e-006:4 4.539147e-006:5 4.539146e-006:6 
#C 5.370612e-009 6
0.000000e+000:1 4.539147e-006:2 4.539146e-006:3 4.539147e-006:4 4.539147e-006:5 4.539146e-006:6 
#C 5.410612e-009 6
0.000000e+000:1 4.539147e-006:2 4.539146e-006:3 4.539147e-006:4 4.539147e-006:5 4.539146e-006:6 
#C 5.450612e-009 6
0.000000e+000:1 4.539147e-006:2 4.539146e-006:3 4.539147e-006:4 4.539147e-006:5 4.539146e-006:6 
#C 5.490612e-009 6
0.000000e+000:1 4.539147e-006:2 4.539146e-006:3 4.539147e-006:4 4.539147e-006:5 4.539146e-006:6 
#C 5.530612e-009 6
0.000000e+000:1 4.539147e-006:2 4.539146e-006:3 4.539147e-006:4 4.539147e-006:5 4.539146e-006:6 
#C 5.570612e-009 6
0.000000e+000:1 4.539147e-006:2 4.539146e-006:3 4.539147e-006:4 4.539147e-006:5 4.539146e-006:6 
#C 5.610612e-009 6
0.000000e+000:1 4.539147e-006:2 4.539146e-006:3 4.539147e-006:4 4.539147e-006:5 4.539146e-006:6 
#C 5.650612e-009 6
0.000000e+000:1 4.539147e-006:2 4.539146e-006:3 4.539147e-006:4 4.539147e-006:5 4.539146e-006:6 
#C 5.690612e-009 6
0.000000e+000:1 4.539147e-006:2 4.539146e-006:3 4.539147e-006:4 4.539147e-006:5 4.539146e-006:6 
#C 5.730612e-009 6
0.000000e+000:1 4.539147e-006:2 4.539146e-006:3 4.539147e-006:4 4.539147e-006:5 4.539146e-006:6 
#C 5.770612e-009 6
0.000000e+000:1 4.539147e-006:2 4.539146e-006:3 4.539147e-006:4 4.539147e-006:5 4.539146e-006:6 
#C 5.810612e-009 6
0.000000e+000:1 4.539147e-006:2 4.539146e-006:3 4.539147e-006:4 4.539147e-006:5 4.539146e-006:6 
#C 5.850612e-009 6
0.000000e+000:1 4.539147e-006:2 4.539146e-006:3 4.539147e-006:4 4.539147e-006:5 4.539146e-006:6 
#C 5.890612e-009 6
0.000000e+000:1 4.539147e-006:2 4.539146e-006:3 4.539147e-006:4 4.539147e-006:5 4.539146e-006:6 
#C 5.930612e-009 6
0.000000e+000:1 4.539147e-006:2 4.539146e-006:3 4.539147e-006:4 4.539147e-006:5 4.539146e-006:6 
#C 5.970612e-009 6
0.000000e+000:1 4.539147e-006:2 4.539146e-006:3 4.539147e-006:4 4.539147e-006:5 4.539146e-006:6 
#C 6.000000e-009 6
0.000000e+000:1 4.539147e-006:2 4.539146e-006:3 4.539147e-006:4 4.539147e-006:5 4.539146e-006:6 
#C 6.031018e-009 6
3.101832e-001:1 4.539147e-006:2 4.539146e-006:3 4.539147e-006:4 4.539147e-006:5 4.539146e-006:6 
#C 6.051100e-009 6
5.110000e-001:1 4.529499e-006:2 4.539139e-006:3 4.529497e-006:4 1.093665e-006:5 4.539139e-006:6 
#C 6.085704e-009 6
8.600817e-001:1 -3.077682e-006:2 4.025497e-006:3 -3.077724e-006:4 -2.837278e-004:5 4.025495e-006:6 
#C 6.107085e-009 6
1.000000e+000:1 -1.474208e-005:2 2.477608e-006:3 -1.474215e-005:4 -4.341229e-004:5 2.477603e-006:6 
#C 6.135424e-009 6
1.000000e+000:1 -3.802508e-005:2 -2.156047e-006:3 -3.802517e-005:4 -6.047627e-004:5 -2.156059e-006:6 
#C 6.168640e-009 6
1.000000e+000:1 -7.633579e-005:2 -1.263726e-005:3 -7.633592e-005:4 -7.703901e-004:5 -1.263728e-005:6 
#C 6.190925e-009 6
1.000000e+000:1 -1.084594e-004:2 -2.341095e-005:3 -1.084595e-004:4 -8.649219e-004:5 -2.341098e-005:6 
#C 6.215755e-009 6
1.000000e+000:1 -1.514479e-004:2 -3.943939e-005:3 -1.514481e-004:4 -1.084097e-003:5 -3.943943e-005:6 
#C 6.240585e-009 6
1.000000e+000:1 -2.153288e-004:2 -6.110533e-005:3 -2.153292e-004:4 -1.792523e-003:5 -6.110538e-005:6 
#C 6.261264e-009 6
1.000000e+000:1 -2.882982e-004:2 -8.557922e-005:3 -2.882986e-004:4 -2.229673e-003:5 -8.557929e-005:6 
#C 6.301997e-009 6
1.000000e+000:1 -4.756634e-004:2 -1.563743e-004:3 -4.756639e-004:4 -2.856184e-003:5 -1.563744e-004:6 
#C 6.326827e-009 6
1.000000e+000:1 -6.193785e-004:2 -2.169733e-004:3 -6.193792e-004:4 -3.326703e-003:5 -2.169734e-004:6 
#C 6.351658e-009 6
1.000000e+000:1 -7.902148e-004:2 -2.933853e-004:3 -7.902155e-004:4 -3.879664e-003:5 -2.933855e-004:6 
#C 6.376488e-009 6
1.000000e+000:1 -9.950921e-004:2 -3.877699e-004:3 -9.950930e-004:4 -4.820523e-003:5 -3.877701e-004:6 
#C 6.401318e-009 6
1.000000e+000:1 -1.260171e-003:2 -5.050467e-004:3 -1.260173e-003:4 -6.578432e-003:5 -5.050470e-004:6 
#C 6.421997e-009 6
1.000000e+000:1 -1.520000e-003:2 -6.249564e-004:3 -1.520001e-003:4 -7.010801e-003:5 -6.249567e-004:6 
#C 6.459282e-009 6
1.000000e+000:1 -2.041874e-003:2 -8.971650e-004:3 -2.041876e-003:4 -7.472633e-003:5 -8.971654e-004:6 
#C 6.495833e-009 6
1.000000e+000:1 -2.617907e-003:2 -1.235803e-003:3 -2.617909e-003:4 -7.967402e-003:5 -1.235803e-003:6 
#C 6.517557e-009 6
1.000000e+000:1 -2.991998e-003:2 -1.471636e-003:3 -2.991999e-003:4 -8.578374e-003:5 -1.471636e-003:6 
#C 6.542388e-009 6
1.000000e+000:1 -3.452937e-003:2 -1.774683e-003:3 -3.452939e-003:4 -9.793843e-003:5 -1.774684e-003:6 
#C 6.567218e-009 6
1.000000e+000:1 -3.949781e-003:2 -2.117394e-003:3 -3.949784e-003:4 -1.066675e-002:5 -2.117394e-003:6 
#C 6.587897e-009 6
1.000000e+000:1 -4.386115e-003:2 -2.435091e-003:3 -4.386117e-003:4 -1.114634e-002:5 -2.435092e-003:6 
#C 6.625181e-009 6
1.000000e+000:1 -5.241218e-003:2 -3.085648e-003:3 -5.241220e-003:4 -1.300283e-002:5 -3.085649e-003:6 
#C 6.661733e-009 6
1.000000e+000:1 -6.149961e-003:2 -3.827243e-003:3 -6.149963e-003:4 -1.149523e-002:5 -3.827244e-003:6 
#C 6.698285e-009 6
1.000000e+000:1 -7.017489e-003:2 -4.646288e-003:3 -7.017492e-003:4 -6.898674e-003:5 -4.646290e-003:6 
#C 6.720009e-009 6
1.000000e+000:1 -7.507274e-003:2 -5.147332e-003:3 -7.507276e-003:4 -4.963298e-003:5 -5.147333e-003:6 
#C 6.744839e-009 6
1.000000e+000:1 -8.044003e-003:2 -5.718967e-003:3 -8.044005e-003:4 -3.386719e-003:5 -5.718968e-003:6 
