#H
SOURCE='IsSpice4'	VERSION='ver. 8.11-SI-1.0.3   10/6/2010'
TITLE='* Thu Nov 05 20:24:49 2015, Generated by: 010328058, Server: None, Windows, INSTALLED_SOFTWARE_VERSION: 2015.07 Build 6, Engine: 2015.07rc1, GUI: 2015.07rc1'
SUBTITLE='pc'
TIME='20:25:31' DATE='Nov 05, 2015' TEMPERATURE='273.15'
ANALYSIS='Trans'	SERIALNO='01234567'
ALLVALUES='NO' COMPLEXVALUES='NO' NODES='8'
SWEEPVAR='time' SWEEPMODE='VAR_STEP' DGTLDATA='NO'
XBEGIN='0.000000e+000' XEND='1.740000e-007'
FORMAT='0 VOLTSorAMPS;EFLOAT : NODEorBRANCH;NODE'
#N
'V(v_stimulus)'
'V(designator1_pad)'
'V(designator2_pad)'
'V(designator3_pad)'
'V(designator1_pin)'
'V(designator2_pin)'
'V(designator3_pin)'
'V(designator2_z)'
#U
'Volts'
'Volts'
'Volts'
'Volts'
'Volts'
'Volts'
'Volts'
'Volts'
#C 0.000000e+000 8
0.000000e+000:1 7.099266e-005:2 7.099265e-005:3 7.099265e-005:4 7.099266e-005:5 7.099265e-005:6 
7.099265e-005:7 0.000000e+000:8 
#C 2.560000e-011 8
0.000000e+000:1 7.099266e-005:2 7.099265e-005:3 7.099265e-005:4 7.099266e-005:5 7.099265e-005:6 
7.099265e-005:7 0.000000e+000:8 
#C 5.440000e-011 8
0.000000e+000:1 7.099266e-005:2 7.099265e-005:3 7.099265e-005:4 7.099266e-005:5 7.099265e-005:6 
7.099265e-005:7 0.000000e+000:8 
#C 8.320000e-011 8
0.000000e+000:1 7.099266e-005:2 7.099265e-005:3 7.099265e-005:4 7.099266e-005:5 7.099265e-005:6 
7.099265e-005:7 0.000000e+000:8 
#C 1.088000e-010 8
0.000000e+000:1 7.099266e-005:2 7.099265e-005:3 7.099265e-005:4 7.099266e-005:5 7.099265e-005:6 
7.099265e-005:7 0.000000e+000:8 
#C 1.600000e-010 8
0.000000e+000:1 7.099266e-005:2 7.099265e-005:3 7.099265e-005:4 7.099266e-005:5 7.099265e-005:6 
7.099265e-005:7 0.000000e+000:8 
#C 2.289426e-010 8
0.000000e+000:1 7.099266e-005:2 7.099265e-005:3 7.099265e-005:4 7.099266e-005:5 7.099265e-005:6 
7.099265e-005:7 0.000000e+000:8 
#C 2.978851e-010 8
0.000000e+000:1 7.099266e-005:2 7.099265e-005:3 7.099265e-005:4 7.099266e-005:5 7.099265e-005:6 
7.099265e-005:7 0.000000e+000:8 
#C 3.668277e-010 8
0.000000e+000:1 7.099266e-005:2 7.099265e-005:3 7.099265e-005:4 7.099266e-005:5 7.099265e-005:6 
7.099265e-005:7 0.000000e+000:8 
#C 4.357702e-010 8
0.000000e+000:1 7.099266e-005:2 7.099265e-005:3 7.099265e-005:4 7.099266e-005:5 7.099265e-005:6 
7.099265e-005:7 0.000000e+000:8 
#C 5.047128e-010 8
0.000000e+000:1 7.099266e-005:2 7.099265e-005:3 7.099265e-005:4 7.099266e-005:5 7.099265e-005:6 
7.099265e-005:7 0.000000e+000:8 
#C 5.736553e-010 8
0.000000e+000:1 7.099266e-005:2 7.099265e-005:3 7.099265e-005:4 7.099266e-005:5 7.099265e-005:6 
7.099265e-005:7 0.000000e+000:8 
#C 6.425979e-010 8
0.000000e+000:1 7.099266e-005:2 7.099265e-005:3 7.099265e-005:4 7.099266e-005:5 7.099265e-005:6 
7.099265e-005:7 0.000000e+000:8 
#C 7.115404e-010 8
0.000000e+000:1 7.099266e-005:2 7.099265e-005:3 7.099265e-005:4 7.099266e-005:5 7.099265e-005:6 
7.099265e-005:7 0.000000e+000:8 
#C 7.804830e-010 8
0.000000e+000:1 7.099266e-005:2 7.099265e-005:3 7.099265e-005:4 7.099266e-005:5 7.099265e-005:6 
7.099265e-005:7 0.000000e+000:8 
#C 8.096753e-010 8
0.000000e+000:1 7.099266e-005:2 7.099265e-005:3 7.099265e-005:4 7.099266e-005:5 7.099265e-005:6 
7.099265e-005:7 0.000000e+000:8 
#C 8.388677e-010 8
0.000000e+000:1 7.099266e-005:2 7.099265e-005:3 7.099265e-005:4 7.099266e-005:5 7.099265e-005:6 
7.099265e-005:7 0.000000e+000:8 
#C 8.680600e-010 8
0.000000e+000:1 7.099266e-005:2 7.099265e-005:3 7.099265e-005:4 7.099266e-005:5 7.099265e-005:6 
7.099265e-005:7 0.000000e+000:8 
#C 8.972524e-010 8
0.000000e+000:1 7.099266e-005:2 7.099265e-005:3 7.099265e-005:4 7.099266e-005:5 7.099265e-005:6 
7.099265e-005:7 0.000000e+000:8 
#C 9.264447e-010 8
0.000000e+000:1 7.099266e-005:2 7.099265e-005:3 7.099265e-005:4 7.099266e-005:5 7.099265e-005:6 
7.099265e-005:7 0.000000e+000:8 
#C 9.556371e-010 8
0.000000e+000:1 7.099266e-005:2 7.099265e-005:3 7.099265e-005:4 7.099266e-005:5 7.099265e-005:6 
7.099265e-005:7 0.000000e+000:8 
#C 1.014022e-009 8
0.000000e+000:1 7.099266e-005:2 7.099265e-005:3 7.099265e-005:4 7.099266e-005:5 7.099265e-005:6 
7.099265e-005:7 0.000000e+000:8 
#C 1.082964e-009 8
0.000000e+000:1 7.099266e-005:2 7.099265e-005:3 7.099265e-005:4 7.099266e-005:5 7.099265e-005:6 
7.099265e-005:7 0.000000e+000:8 
#C 1.112157e-009 8
0.000000e+000:1 7.099266e-005:2 7.099265e-005:3 7.099265e-005:4 7.099266e-005:5 7.099265e-005:6 
7.099265e-005:7 0.000000e+000:8 
#C 1.152157e-009 8
0.000000e+000:1 7.099266e-005:2 7.099265e-005:3 7.099265e-005:4 7.099266e-005:5 7.099265e-005:6 
7.099265e-005:7 0.000000e+000:8 
#C 1.181349e-009 8
0.000000e+000:1 7.099266e-005:2 7.099265e-005:3 7.099265e-005:4 7.099266e-005:5 7.099265e-005:6 
7.099265e-005:7 0.000000e+000:8 
#C 1.210541e-009 8
0.000000e+000:1 7.099266e-005:2 7.099265e-005:3 7.099265e-005:4 7.099266e-005:5 7.099265e-005:6 
7.099265e-005:7 0.000000e+000:8 
#C 1.247311e-009 8
0.000000e+000:1 7.099266e-005:2 7.099265e-005:3 7.099265e-005:4 7.099266e-005:5 7.099265e-005:6 
7.099265e-005:7 0.000000e+000:8 
#C 1.284080e-009 8
0.000000e+000:1 7.099266e-005:2 7.099265e-005:3 7.099265e-005:4 7.099266e-005:5 7.099265e-005:6 
7.099265e-005:7 0.000000e+000:8 
#C 1.320850e-009 8
0.000000e+000:1 7.099266e-005:2 7.099265e-005:3 7.099265e-005:4 7.099266e-005:5 7.099265e-005:6 
7.099265e-005:7 0.000000e+000:8 
#C 1.357619e-009 8
0.000000e+000:1 7.099266e-005:2 7.099265e-005:3 7.099265e-005:4 7.099266e-005:5 7.099265e-005:6 
7.099265e-005:7 0.000000e+000:8 
#C 1.394389e-009 8
0.000000e+000:1 7.099266e-005:2 7.099265e-005:3 7.099265e-005:4 7.099266e-005:5 7.099265e-005:6 
7.099265e-005:7 0.000000e+000:8 
#C 1.449543e-009 8
0.000000e+000:1 7.099266e-005:2 7.099265e-005:3 7.099265e-005:4 7.099266e-005:5 7.099265e-005:6 
7.099265e-005:7 0.000000e+000:8 
#C 1.518485e-009 8
0.000000e+000:1 7.099266e-005:2 7.099265e-005:3 7.099265e-005:4 7.099266e-005:5 7.099265e-005:6 
7.099265e-005:7 0.000000e+000:8 
#C 1.587428e-009 8
0.000000e+000:1 7.099266e-005:2 7.099265e-005:3 7.099265e-005:4 7.099266e-005:5 7.099265e-005:6 
7.099265e-005:7 0.000000e+000:8 
#C 1.656370e-009 8
0.000000e+000:1 7.099266e-005:2 7.099265e-005:3 7.099265e-005:4 7.099266e-005:5 7.099265e-005:6 
7.099265e-005:7 0.000000e+000:8 
#C 1.725313e-009 8
0.000000e+000:1 7.099266e-005:2 7.099265e-005:3 7.099265e-005:4 7.099266e-005:5 7.099265e-005:6 
7.099265e-005:7 0.000000e+000:8 
#C 1.794255e-009 8
0.000000e+000:1 7.099266e-005:2 7.099265e-005:3 7.099265e-005:4 7.099266e-005:5 7.099265e-005:6 
7.099265e-005:7 0.000000e+000:8 
#C 1.823448e-009 8
0.000000e+000:1 7.099266e-005:2 7.099265e-005:3 7.099265e-005:4 7.099266e-005:5 7.099265e-005:6 
7.099265e-005:7 0.000000e+000:8 
#C 1.852640e-009 8
0.000000e+000:1 7.099266e-005:2 7.099265e-005:3 7.099265e-005:4 7.099266e-005:5 7.099265e-005:6 
7.099265e-005:7 0.000000e+000:8 
#C 1.874255e-009 8
0.000000e+000:1 7.099266e-005:2 7.099265e-005:3 7.099265e-005:4 7.099266e-005:5 7.099265e-005:6 
7.099265e-005:7 0.000000e+000:8 
#C 1.903448e-009 8
0.000000e+000:1 7.099266e-005:2 7.099265e-005:3 7.099265e-005:4 7.099266e-005:5 7.099265e-005:6 
7.099265e-005:7 0.000000e+000:8 
#C 1.932640e-009 8
0.000000e+000:1 7.099266e-005:2 7.099265e-005:3 7.099265e-005:4 7.099266e-005:5 7.099265e-005:6 
7.099265e-005:7 0.000000e+000:8 
#C 1.954255e-009 8
0.000000e+000:1 7.099266e-005:2 7.099265e-005:3 7.099265e-005:4 7.099266e-005:5 7.099265e-005:6 
7.099265e-005:7 0.000000e+000:8 
#C 1.983448e-009 8
0.000000e+000:1 7.099266e-005:2 7.099265e-005:3 7.099265e-005:4 7.099266e-005:5 7.099265e-005:6 
7.099265e-005:7 0.000000e+000:8 
#C 2.012640e-009 8
0.000000e+000:1 7.099266e-005:2 7.099265e-005:3 7.099265e-005:4 7.099266e-005:5 7.099265e-005:6 
7.099265e-005:7 0.000000e+000:8 
#C 2.034255e-009 8
0.000000e+000:1 7.099266e-005:2 7.099265e-005:3 7.099265e-005:4 7.099266e-005:5 7.099265e-005:6 
7.099265e-005:7 0.000000e+000:8 
#C 2.063448e-009 8
0.000000e+000:1 7.099266e-005:2 7.099265e-005:3 7.099265e-005:4 7.099266e-005:5 7.099265e-005:6 
7.099265e-005:7 0.000000e+000:8 
#C 2.092640e-009 8
0.000000e+000:1 7.099266e-005:2 7.099265e-005:3 7.099265e-005:4 7.099266e-005:5 7.099265e-005:6 
7.099265e-005:7 0.000000e+000:8 
#C 2.114255e-009 8
0.000000e+000:1 7.099266e-005:2 7.099265e-005:3 7.099265e-005:4 7.099266e-005:5 7.099265e-005:6 
7.099265e-005:7 0.000000e+000:8 
#C 2.143448e-009 8
0.000000e+000:1 7.099266e-005:2 7.099265e-005:3 7.099265e-005:4 7.099266e-005:5 7.099265e-005:6 
7.099265e-005:7 0.000000e+000:8 
#C 2.172640e-009 8
0.000000e+000:1 7.099266e-005:2 7.099265e-005:3 7.099265e-005:4 7.099266e-005:5 7.099265e-005:6 
7.099265e-005:7 0.000000e+000:8 
#C 2.194255e-009 8
0.000000e+000:1 7.099266e-005:2 7.099265e-005:3 7.099265e-005:4 7.099266e-005:5 7.099265e-005:6 
7.099265e-005:7 0.000000e+000:8 
#C 2.223448e-009 8
0.000000e+000:1 7.099266e-005:2 7.099265e-005:3 7.099265e-005:4 7.099266e-005:5 7.099265e-005:6 
7.099265e-005:7 0.000000e+000:8 
#C 2.252640e-009 8
0.000000e+000:1 7.099266e-005:2 7.099265e-005:3 7.099265e-005:4 7.099266e-005:5 7.099265e-005:6 
7.099265e-005:7 0.000000e+000:8 
#C 2.274255e-009 8
0.000000e+000:1 7.099266e-005:2 7.099265e-005:3 7.099265e-005:4 7.099266e-005:5 7.099265e-005:6 
7.099265e-005:7 0.000000e+000:8 
#C 2.303448e-009 8
0.000000e+000:1 7.099266e-005:2 7.099265e-005:3 7.099265e-005:4 7.099266e-005:5 7.099265e-005:6 
7.099265e-005:7 0.000000e+000:8 
#C 2.332640e-009 8
0.000000e+000:1 7.099266e-005:2 7.099265e-005:3 7.099265e-005:4 7.099266e-005:5 7.099265e-005:6 
7.099265e-005:7 0.000000e+000:8 
#C 2.354255e-009 8
0.000000e+000:1 7.099266e-005:2 7.099265e-005:3 7.099265e-005:4 7.099266e-005:5 7.099265e-005:6 
7.099265e-005:7 0.000000e+000:8 
#C 2.383448e-009 8
0.000000e+000:1 7.099266e-005:2 7.099265e-005:3 7.099265e-005:4 7.099266e-005:5 7.099265e-005:6 
7.099265e-005:7 0.000000e+000:8 
#C 2.412640e-009 8
0.000000e+000:1 7.099266e-005:2 7.099265e-005:3 7.099265e-005:4 7.099266e-005:5 7.099265e-005:6 
7.099265e-005:7 0.000000e+000:8 
#C 2.449410e-009 8
0.000000e+000:1 7.099266e-005:2 7.099265e-005:3 7.099265e-005:4 7.099266e-005:5 7.099265e-005:6 
7.099265e-005:7 0.000000e+000:8 
#C 2.486179e-009 8
0.000000e+000:1 7.099266e-005:2 7.099265e-005:3 7.099265e-005:4 7.099266e-005:5 7.099265e-005:6 
7.099265e-005:7 0.000000e+000:8 
#C 2.508793e-009 8
0.000000e+000:1 7.099266e-005:2 7.099265e-005:3 7.099265e-005:4 7.099266e-005:5 7.099265e-005:6 
7.099265e-005:7 0.000000e+000:8 
#C 2.534638e-009 8
0.000000e+000:1 7.099266e-005:2 7.099265e-005:3 7.099265e-005:4 7.099266e-005:5 7.099265e-005:6 
7.099265e-005:7 0.000000e+000:8 
#C 2.567881e-009 8
0.000000e+000:1 7.099266e-005:2 7.099265e-005:3 7.099265e-005:4 7.099266e-005:5 7.099265e-005:6 
7.099265e-005:7 0.000000e+000:8 
#C 2.607881e-009 8
0.000000e+000:1 7.099266e-005:2 7.099265e-005:3 7.099265e-005:4 7.099266e-005:5 7.099265e-005:6 
7.099265e-005:7 0.000000e+000:8 
#C 2.637073e-009 8
0.000000e+000:1 7.099266e-005:2 7.099265e-005:3 7.099265e-005:4 7.099266e-005:5 7.099265e-005:6 
7.099265e-005:7 0.000000e+000:8 
#C 2.666265e-009 8
0.000000e+000:1 7.099266e-005:2 7.099265e-005:3 7.099265e-005:4 7.099266e-005:5 7.099265e-005:6 
7.099265e-005:7 0.000000e+000:8 
#C 2.687881e-009 8
0.000000e+000:1 7.099266e-005:2 7.099265e-005:3 7.099265e-005:4 7.099266e-005:5 7.099265e-005:6 
7.099265e-005:7 0.000000e+000:8 
#C 2.717073e-009 8
0.000000e+000:1 7.099266e-005:2 7.099265e-005:3 7.099265e-005:4 7.099266e-005:5 7.099265e-005:6 
7.099265e-005:7 0.000000e+000:8 
#C 2.746265e-009 8
0.000000e+000:1 7.099266e-005:2 7.099265e-005:3 7.099265e-005:4 7.099266e-005:5 7.099265e-005:6 
7.099265e-005:7 0.000000e+000:8 
#C 2.767881e-009 8
0.000000e+000:1 7.099266e-005:2 7.099265e-005:3 7.099265e-005:4 7.099266e-005:5 7.099265e-005:6 
7.099265e-005:7 0.000000e+000:8 
#C 2.797073e-009 8
0.000000e+000:1 7.099266e-005:2 7.099265e-005:3 7.099265e-005:4 7.099266e-005:5 7.099265e-005:6 
7.099265e-005:7 0.000000e+000:8 
#C 2.826265e-009 8
0.000000e+000:1 7.099266e-005:2 7.099265e-005:3 7.099265e-005:4 7.099266e-005:5 7.099265e-005:6 
7.099265e-005:7 0.000000e+000:8 
#C 2.847881e-009 8
0.000000e+000:1 7.099266e-005:2 7.099265e-005:3 7.099265e-005:4 7.099266e-005:5 7.099265e-005:6 
7.099265e-005:7 0.000000e+000:8 
#C 2.877073e-009 8
0.000000e+000:1 7.099266e-005:2 7.099265e-005:3 7.099265e-005:4 7.099266e-005:5 7.099265e-005:6 
7.099265e-005:7 0.000000e+000:8 
#C 2.906265e-009 8
0.000000e+000:1 7.099266e-005:2 7.099265e-005:3 7.099265e-005:4 7.099266e-005:5 7.099265e-005:6 
7.099265e-005:7 0.000000e+000:8 
#C 2.927881e-009 8
0.000000e+000:1 7.099266e-005:2 7.099265e-005:3 7.099265e-005:4 7.099266e-005:5 7.099265e-005:6 
7.099265e-005:7 0.000000e+000:8 
#C 2.957073e-009 8
0.000000e+000:1 7.099266e-005:2 7.099265e-005:3 7.099265e-005:4 7.099266e-005:5 7.099265e-005:6 
7.099265e-005:7 0.000000e+000:8 
#C 2.986265e-009 8
0.000000e+000:1 7.099266e-005:2 7.099265e-005:3 7.099265e-005:4 7.099266e-005:5 7.099265e-005:6 
7.099265e-005:7 0.000000e+000:8 
#C 3.007881e-009 8
0.000000e+000:1 7.099266e-005:2 7.099265e-005:3 7.099265e-005:4 7.099266e-005:5 7.099265e-005:6 
7.099265e-005:7 0.000000e+000:8 
#C 3.037073e-009 8
0.000000e+000:1 7.099266e-005:2 7.099265e-005:3 7.099265e-005:4 7.099266e-005:5 7.099265e-005:6 
7.099265e-005:7 0.000000e+000:8 
#C 3.066265e-009 8
0.000000e+000:1 7.099266e-005:2 7.099265e-005:3 7.099265e-005:4 7.099266e-005:5 7.099265e-005:6 
7.099265e-005:7 0.000000e+000:8 
#C 3.103035e-009 8
0.000000e+000:1 7.099266e-005:2 7.099265e-005:3 7.099265e-005:4 7.099266e-005:5 7.099265e-005:6 
7.099265e-005:7 0.000000e+000:8 
#C 3.139804e-009 8
0.000000e+000:1 7.099266e-005:2 7.099265e-005:3 7.099265e-005:4 7.099266e-005:5 7.099265e-005:6 
7.099265e-005:7 0.000000e+000:8 
#C 3.179804e-009 8
0.000000e+000:1 7.099266e-005:2 7.099265e-005:3 7.099265e-005:4 7.099266e-005:5 7.099265e-005:6 
7.099265e-005:7 0.000000e+000:8 
#C 3.208997e-009 8
0.000000e+000:1 7.099266e-005:2 7.099265e-005:3 7.099265e-005:4 7.099266e-005:5 7.099265e-005:6 
7.099265e-005:7 0.000000e+000:8 
#C 3.238189e-009 8
0.000000e+000:1 7.099266e-005:2 7.099265e-005:3 7.099265e-005:4 7.099266e-005:5 7.099265e-005:6 
7.099265e-005:7 0.000000e+000:8 
#C 3.259804e-009 8
0.000000e+000:1 7.099266e-005:2 7.099265e-005:3 7.099265e-005:4 7.099266e-005:5 7.099265e-005:6 
7.099265e-005:7 0.000000e+000:8 
#C 3.288997e-009 8
0.000000e+000:1 7.099266e-005:2 7.099265e-005:3 7.099265e-005:4 7.099266e-005:5 7.099265e-005:6 
7.099265e-005:7 0.000000e+000:8 
#C 3.318189e-009 8
0.000000e+000:1 7.099266e-005:2 7.099265e-005:3 7.099265e-005:4 7.099266e-005:5 7.099265e-005:6 
7.099265e-005:7 0.000000e+000:8 
#C 3.339804e-009 8
0.000000e+000:1 7.099266e-005:2 7.099265e-005:3 7.099265e-005:4 7.099266e-005:5 7.099265e-005:6 
7.099265e-005:7 0.000000e+000:8 
#C 3.368997e-009 8
0.000000e+000:1 7.099266e-005:2 7.099265e-005:3 7.099265e-005:4 7.099266e-005:5 7.099265e-005:6 
7.099265e-005:7 0.000000e+000:8 
#C 3.398189e-009 8
0.000000e+000:1 7.099266e-005:2 7.099265e-005:3 7.099265e-005:4 7.099266e-005:5 7.099265e-005:6 
7.099265e-005:7 0.000000e+000:8 
#C 3.419804e-009 8
0.000000e+000:1 7.099266e-005:2 7.099265e-005:3 7.099265e-005:4 7.099266e-005:5 7.099265e-005:6 
7.099265e-005:7 0.000000e+000:8 
#C 3.448997e-009 8
0.000000e+000:1 7.099266e-005:2 7.099265e-005:3 7.099265e-005:4 7.099266e-005:5 7.099265e-005:6 
7.099265e-005:7 0.000000e+000:8 
#C 3.478189e-009 8
0.000000e+000:1 7.099266e-005:2 7.099265e-005:3 7.099265e-005:4 7.099266e-005:5 7.099265e-005:6 
7.099265e-005:7 0.000000e+000:8 
#C 3.499804e-009 8
0.000000e+000:1 7.099266e-005:2 7.099265e-005:3 7.099265e-005:4 7.099266e-005:5 7.099265e-005:6 
7.099265e-005:7 0.000000e+000:8 
#C 3.528997e-009 8
0.000000e+000:1 7.099266e-005:2 7.099265e-005:3 7.099265e-005:4 7.099266e-005:5 7.099265e-005:6 
7.099265e-005:7 0.000000e+000:8 
#C 3.558189e-009 8
0.000000e+000:1 7.099266e-005:2 7.099265e-005:3 7.099265e-005:4 7.099266e-005:5 7.099265e-005:6 
7.099265e-005:7 0.000000e+000:8 
#C 3.594958e-009 8
0.000000e+000:1 7.099266e-005:2 7.099265e-005:3 7.099265e-005:4 7.099266e-005:5 7.099265e-005:6 
7.099265e-005:7 0.000000e+000:8 
#C 3.631728e-009 8
0.000000e+000:1 7.099266e-005:2 7.099265e-005:3 7.099265e-005:4 7.099266e-005:5 7.099265e-005:6 
7.099265e-005:7 0.000000e+000:8 
#C 3.668497e-009 8
0.000000e+000:1 7.099266e-005:2 7.099265e-005:3 7.099265e-005:4 7.099266e-005:5 7.099265e-005:6 
7.099265e-005:7 0.000000e+000:8 
#C 3.691111e-009 8
0.000000e+000:1 7.099266e-005:2 7.099265e-005:3 7.099265e-005:4 7.099266e-005:5 7.099265e-005:6 
7.099265e-005:7 0.000000e+000:8 
#C 3.716956e-009 8
0.000000e+000:1 7.099266e-005:2 7.099265e-005:3 7.099265e-005:4 7.099266e-005:5 7.099265e-005:6 
7.099265e-005:7 0.000000e+000:8 
#C 3.750199e-009 8
0.000000e+000:1 7.099266e-005:2 7.099265e-005:3 7.099265e-005:4 7.099266e-005:5 7.099265e-005:6 
7.099265e-005:7 0.000000e+000:8 
#C 3.790199e-009 8
0.000000e+000:1 7.099266e-005:2 7.099265e-005:3 7.099265e-005:4 7.099266e-005:5 7.099265e-005:6 
7.099265e-005:7 0.000000e+000:8 
#C 3.819391e-009 8
0.000000e+000:1 7.099266e-005:2 7.099265e-005:3 7.099265e-005:4 7.099266e-005:5 7.099265e-005:6 
7.099265e-005:7 0.000000e+000:8 
#C 3.848584e-009 8
0.000000e+000:1 7.099266e-005:2 7.099265e-005:3 7.099265e-005:4 7.099266e-005:5 7.099265e-005:6 
7.099265e-005:7 0.000000e+000:8 
#C 3.870199e-009 8
0.000000e+000:1 7.099266e-005:2 7.099265e-005:3 7.099265e-005:4 7.099266e-005:5 7.099265e-005:6 
7.099265e-005:7 0.000000e+000:8 
#C 3.899391e-009 8
0.000000e+000:1 7.099266e-005:2 7.099265e-005:3 7.099265e-005:4 7.099266e-005:5 7.099265e-005:6 
7.099265e-005:7 0.000000e+000:8 
#C 3.928584e-009 8
0.000000e+000:1 7.099266e-005:2 7.099265e-005:3 7.099265e-005:4 7.099266e-005:5 7.099265e-005:6 
7.099265e-005:7 0.000000e+000:8 
#C 3.965353e-009 8
0.000000e+000:1 7.099266e-005:2 7.099265e-005:3 7.099265e-005:4 7.099266e-005:5 7.099265e-005:6 
7.099265e-005:7 0.000000e+000:8 
#C 4.002123e-009 8
0.000000e+000:1 7.099266e-005:2 7.099265e-005:3 7.099265e-005:4 7.099266e-005:5 7.099265e-005:6 
7.099265e-005:7 0.000000e+000:8 
#C 4.038892e-009 8
0.000000e+000:1 7.099266e-005:2 7.099265e-005:3 7.099265e-005:4 7.099266e-005:5 7.099265e-005:6 
7.099265e-005:7 0.000000e+000:8 
#C 4.075661e-009 8
0.000000e+000:1 7.099266e-005:2 7.099265e-005:3 7.099265e-005:4 7.099266e-005:5 7.099265e-005:6 
7.099265e-005:7 0.000000e+000:8 
#C 4.112431e-009 8
0.000000e+000:1 7.099266e-005:2 7.099265e-005:3 7.099265e-005:4 7.099266e-005:5 7.099265e-005:6 
7.099265e-005:7 0.000000e+000:8 
#C 4.149200e-009 8
0.000000e+000:1 7.099266e-005:2 7.099265e-005:3 7.099265e-005:4 7.099266e-005:5 7.099265e-005:6 
7.099265e-005:7 0.000000e+000:8 
#C 4.185970e-009 8
0.000000e+000:1 7.099266e-005:2 7.099265e-005:3 7.099265e-005:4 7.099266e-005:5 7.099265e-005:6 
7.099265e-005:7 0.000000e+000:8 
#C 4.222739e-009 8
0.000000e+000:1 7.099266e-005:2 7.099265e-005:3 7.099265e-005:4 7.099266e-005:5 7.099265e-005:6 
7.099265e-005:7 0.000000e+000:8 
#C 4.259508e-009 8
0.000000e+000:1 7.099266e-005:2 7.099265e-005:3 7.099265e-005:4 7.099266e-005:5 7.099265e-005:6 
7.099265e-005:7 0.000000e+000:8 
#C 4.328451e-009 8
0.000000e+000:1 7.099266e-005:2 7.099265e-005:3 7.099265e-005:4 7.099266e-005:5 7.099265e-005:6 
7.099265e-005:7 0.000000e+000:8 
#C 4.357643e-009 8
0.000000e+000:1 7.099266e-005:2 7.099265e-005:3 7.099265e-005:4 7.099266e-005:5 7.099265e-005:6 
7.099265e-005:7 0.000000e+000:8 
#C 4.386836e-009 8
0.000000e+000:1 7.099266e-005:2 7.099265e-005:3 7.099265e-005:4 7.099266e-005:5 7.099265e-005:6 
7.099265e-005:7 0.000000e+000:8 
#C 4.423605e-009 8
0.000000e+000:1 7.099266e-005:2 7.099265e-005:3 7.099265e-005:4 7.099266e-005:5 7.099265e-005:6 
7.099265e-005:7 0.000000e+000:8 
#C 4.445220e-009 8
0.000000e+000:1 7.099266e-005:2 7.099265e-005:3 7.099265e-005:4 7.099266e-005:5 7.099265e-005:6 
7.099265e-005:7 0.000000e+000:8 
#C 4.478759e-009 8
0.000000e+000:1 7.099266e-005:2 7.099265e-005:3 7.099265e-005:4 7.099266e-005:5 7.099265e-005:6 
7.099265e-005:7 0.000000e+000:8 
#C 4.507070e-009 8
0.000000e+000:1 7.099266e-005:2 7.099265e-005:3 7.099265e-005:4 7.099266e-005:5 7.099265e-005:6 
7.099265e-005:7 0.000000e+000:8 
#C 4.540313e-009 8
