#H
SOURCE='IsSpice4'	VERSION='ver. 8.11-SI-1.0.3   10/6/2010'
TITLE='* Thu Oct 01 20:45:45 2015, Generated by: 010328058, Server: None, Windows, INSTALLED_SOFTWARE_VERSION: 2015.07 Build 6, Engine: 2015.07rc1, GUI: 2015.07rc1'
SUBTITLE='pc'
TIME='20:45:48' DATE='Oct 01, 2015' TEMPERATURE='298.15'
ANALYSIS='Trans'	SERIALNO='01234567'
ALLVALUES='NO' COMPLEXVALUES='NO' NODES='6'
SWEEPVAR='time' SWEEPMODE='VAR_STEP' DGTLDATA='NO'
XBEGIN='0.000000e+000' XEND='7.900000e-008'
FORMAT='0 VOLTSorAMPS;EFLOAT : NODEorBRANCH;NODE'
#N
'V(v_stimulus)'
'V(designator1_pad)'
'V(designator2_pad)'
'V(designator1_pin)'
'V(designator2_pin)'
'V(designator2_z)'
#U
'Volts'
'Volts'
'Volts'
'Volts'
'Volts'
'Volts'
#C 0.000000e+000 6
0.000000e+000:1 8.455034e-003:2 8.455034e-003:3 8.455034e-003:4 8.455034e-003:5 0.000000e+000:6 
#C 2.560000e-011 6
0.000000e+000:1 8.455034e-003:2 8.455034e-003:3 8.455034e-003:4 8.455034e-003:5 0.000000e+000:6 
#C 5.440000e-011 6
0.000000e+000:1 8.455034e-003:2 8.455034e-003:3 8.455034e-003:4 8.455034e-003:5 0.000000e+000:6 
#C 8.320000e-011 6
0.000000e+000:1 8.455034e-003:2 8.455034e-003:3 8.455034e-003:4 8.455034e-003:5 0.000000e+000:6 
#C 1.088000e-010 6
0.000000e+000:1 8.455034e-003:2 8.455034e-003:3 8.455034e-003:4 8.455034e-003:5 0.000000e+000:6 
#C 1.600000e-010 6
0.000000e+000:1 8.455034e-003:2 8.455034e-003:3 8.455034e-003:4 8.455034e-003:5 0.000000e+000:6 
#C 2.600000e-010 6
0.000000e+000:1 8.455034e-003:2 8.455034e-003:3 8.455034e-003:4 8.455034e-003:5 0.000000e+000:6 
#C 3.600000e-010 6
0.000000e+000:1 8.455034e-003:2 8.455034e-003:3 8.455034e-003:4 8.455034e-003:5 0.000000e+000:6 
#C 4.600000e-010 6
0.000000e+000:1 8.455034e-003:2 8.455034e-003:3 8.455034e-003:4 8.455034e-003:5 0.000000e+000:6 
#C 5.600000e-010 6
0.000000e+000:1 8.455034e-003:2 8.455034e-003:3 8.455034e-003:4 8.455034e-003:5 0.000000e+000:6 
#C 6.600000e-010 6
0.000000e+000:1 8.455034e-003:2 8.455034e-003:3 8.455034e-003:4 8.455034e-003:5 0.000000e+000:6 
#C 7.600000e-010 6
0.000000e+000:1 8.455034e-003:2 8.455034e-003:3 8.455034e-003:4 8.455034e-003:5 0.000000e+000:6 
#C 8.600000e-010 6
0.000000e+000:1 8.455034e-003:2 8.455034e-003:3 8.455034e-003:4 8.455034e-003:5 0.000000e+000:6 
#C 9.600000e-010 6
0.000000e+000:1 8.455034e-003:2 8.455034e-003:3 8.455034e-003:4 8.455034e-003:5 0.000000e+000:6 
#C 9.865080e-010 6
0.000000e+000:1 8.455034e-003:2 8.455034e-003:3 8.455034e-003:4 8.455034e-003:5 0.000000e+000:6 
#C 1.013016e-009 6
0.000000e+000:1 8.455034e-003:2 8.455034e-003:3 8.455034e-003:4 8.455034e-003:5 0.000000e+000:6 
#C 1.040952e-009 6
0.000000e+000:1 8.455034e-003:2 8.455034e-003:3 8.455034e-003:4 8.455034e-003:5 0.000000e+000:6 
#C 1.068888e-009 6
0.000000e+000:1 8.455034e-003:2 8.455034e-003:3 8.455034e-003:4 8.455034e-003:5 0.000000e+000:6 
#C 1.093016e-009 6
0.000000e+000:1 8.455034e-003:2 8.455034e-003:3 8.455034e-003:4 8.455034e-003:5 0.000000e+000:6 
#C 1.126040e-009 6
0.000000e+000:1 8.455034e-003:2 8.455034e-003:3 8.455034e-003:4 8.455034e-003:5 0.000000e+000:6 
#C 1.146968e-009 6
0.000000e+000:1 8.455034e-003:2 8.455034e-003:3 8.455034e-003:4 8.455034e-003:5 0.000000e+000:6 
#C 1.174871e-009 6
0.000000e+000:1 8.455034e-003:2 8.455034e-003:3 8.455034e-003:4 8.455034e-003:5 0.000000e+000:6 
#C 1.206484e-009 6
0.000000e+000:1 8.455034e-003:2 8.455034e-003:3 8.455034e-003:4 8.455034e-003:5 0.000000e+000:6 
#C 1.230678e-009 6
0.000000e+000:1 8.455034e-003:2 8.455034e-003:3 8.455034e-003:4 8.455034e-003:5 0.000000e+000:6 
#C 1.257186e-009 6
0.000000e+000:1 8.455034e-003:2 8.455034e-003:3 8.455034e-003:4 8.455034e-003:5 0.000000e+000:6 
#C 1.283694e-009 6
0.000000e+000:1 8.455034e-003:2 8.455034e-003:3 8.455034e-003:4 8.455034e-003:5 0.000000e+000:6 
#C 1.309726e-009 6
0.000000e+000:1 8.455034e-003:2 8.455034e-003:3 8.455034e-003:4 8.455034e-003:5 0.000000e+000:6 
#C 1.336234e-009 6
0.000000e+000:1 8.455034e-003:2 8.455034e-003:3 8.455034e-003:4 8.455034e-003:5 0.000000e+000:6 
#C 1.362742e-009 6
0.000000e+000:1 8.455034e-003:2 8.455034e-003:3 8.455034e-003:4 8.455034e-003:5 0.000000e+000:6 
#C 1.388774e-009 6
0.000000e+000:1 8.455034e-003:2 8.455034e-003:3 8.455034e-003:4 8.455034e-003:5 0.000000e+000:6 
#C 1.420518e-009 6
0.000000e+000:1 8.455034e-003:2 8.455034e-003:3 8.455034e-003:4 8.455034e-003:5 0.000000e+000:6 
#C 1.444646e-009 6
0.000000e+000:1 8.455034e-003:2 8.455034e-003:3 8.455034e-003:4 8.455034e-003:5 0.000000e+000:6 
#C 1.468134e-009 6
0.000000e+000:1 8.455034e-003:2 8.455034e-003:3 8.455034e-003:4 8.455034e-003:5 0.000000e+000:6 
#C 1.496037e-009 6
0.000000e+000:1 8.455034e-003:2 8.455034e-003:3 8.455034e-003:4 8.455034e-003:5 0.000000e+000:6 
#C 1.522085e-009 6
0.000000e+000:1 8.455034e-003:2 8.455034e-003:3 8.455034e-003:4 8.455034e-003:5 0.000000e+000:6 
#C 1.553699e-009 6
0.000000e+000:1 8.455034e-003:2 8.455034e-003:3 8.455034e-003:4 8.455034e-003:5 0.000000e+000:6 
#C 1.578859e-009 6
0.000000e+000:1 8.455034e-003:2 8.455034e-003:3 8.455034e-003:4 8.455034e-003:5 0.000000e+000:6 
#C 1.612405e-009 6
0.000000e+000:1 8.455034e-003:2 8.455034e-003:3 8.455034e-003:4 8.455034e-003:5 0.000000e+000:6 
#C 1.635632e-009 6
0.000000e+000:1 8.455034e-003:2 8.455034e-003:3 8.455034e-003:4 8.455034e-003:5 0.000000e+000:6 
#C 1.662140e-009 6
0.000000e+000:1 8.455034e-003:2 8.455034e-003:3 8.455034e-003:4 8.455034e-003:5 0.000000e+000:6 
#C 1.688648e-009 6
0.000000e+000:1 8.455034e-003:2 8.455034e-003:3 8.455034e-003:4 8.455034e-003:5 0.000000e+000:6 
#C 1.716584e-009 6
0.000000e+000:1 8.455034e-003:2 8.455034e-003:3 8.455034e-003:4 8.455034e-003:5 0.000000e+000:6 
#C 1.744520e-009 6
0.000000e+000:1 8.455034e-003:2 8.455034e-003:3 8.455034e-003:4 8.455034e-003:5 0.000000e+000:6 
#C 1.776264e-009 6
0.000000e+000:1 8.455034e-003:2 8.455034e-003:3 8.455034e-003:4 8.455034e-003:5 0.000000e+000:6 
#C 1.800392e-009 6
0.000000e+000:1 8.455034e-003:2 8.455034e-003:3 8.455034e-003:4 8.455034e-003:5 0.000000e+000:6 
#C 1.826900e-009 6
0.000000e+000:1 8.455034e-003:2 8.455034e-003:3 8.455034e-003:4 8.455034e-003:5 0.000000e+000:6 
#C 1.853408e-009 6
0.000000e+000:1 8.455034e-003:2 8.455034e-003:3 8.455034e-003:4 8.455034e-003:5 0.000000e+000:6 
#C 1.879440e-009 6
0.000000e+000:1 8.455034e-003:2 8.455034e-003:3 8.455034e-003:4 8.455034e-003:5 0.000000e+000:6 
#C 1.905948e-009 6
0.000000e+000:1 8.455034e-003:2 8.455034e-003:3 8.455034e-003:4 8.455034e-003:5 0.000000e+000:6 
#C 1.932456e-009 6
0.000000e+000:1 8.455034e-003:2 8.455034e-003:3 8.455034e-003:4 8.455034e-003:5 0.000000e+000:6 
#C 1.960392e-009 6
0.000000e+000:1 8.455034e-003:2 8.455034e-003:3 8.455034e-003:4 8.455034e-003:5 0.000000e+000:6 
#C 1.988328e-009 6
0.000000e+000:1 8.455034e-003:2 8.455034e-003:3 8.455034e-003:4 8.455034e-003:5 0.000000e+000:6 
#C 2.020072e-009 6
0.000000e+000:1 8.455034e-003:2 8.455034e-003:3 8.455034e-003:4 8.455034e-003:5 0.000000e+000:6 
#C 2.044200e-009 6
0.000000e+000:1 8.455034e-003:2 8.455034e-003:3 8.455034e-003:4 8.455034e-003:5 0.000000e+000:6 
#C 2.070708e-009 6
0.000000e+000:1 8.455034e-003:2 8.455034e-003:3 8.455034e-003:4 8.455034e-003:5 0.000000e+000:6 
#C 2.097216e-009 6
0.000000e+000:1 8.455034e-003:2 8.455034e-003:3 8.455034e-003:4 8.455034e-003:5 0.000000e+000:6 
#C 2.123248e-009 6
0.000000e+000:1 8.455034e-003:2 8.455034e-003:3 8.455034e-003:4 8.455034e-003:5 0.000000e+000:6 
#C 2.149756e-009 6
0.000000e+000:1 8.455034e-003:2 8.455034e-003:3 8.455034e-003:4 8.455034e-003:5 0.000000e+000:6 
#C 2.176264e-009 6
0.000000e+000:1 8.455034e-003:2 8.455034e-003:3 8.455034e-003:4 8.455034e-003:5 0.000000e+000:6 
#C 2.204200e-009 6
0.000000e+000:1 8.455034e-003:2 8.455034e-003:3 8.455034e-003:4 8.455034e-003:5 0.000000e+000:6 
#C 2.232136e-009 6
0.000000e+000:1 8.455034e-003:2 8.455034e-003:3 8.455034e-003:4 8.455034e-003:5 0.000000e+000:6 
#C 2.263880e-009 6
0.000000e+000:1 8.455034e-003:2 8.455034e-003:3 8.455034e-003:4 8.455034e-003:5 0.000000e+000:6 
#C 2.288008e-009 6
0.000000e+000:1 8.455034e-003:2 8.455034e-003:3 8.455034e-003:4 8.455034e-003:5 0.000000e+000:6 
#C 2.314516e-009 6
0.000000e+000:1 8.455034e-003:2 8.455034e-003:3 8.455034e-003:4 8.455034e-003:5 0.000000e+000:6 
#C 2.341500e-009 6
0.000000e+000:1 8.455034e-003:2 8.455034e-003:3 8.455034e-003:4 8.455034e-003:5 0.000000e+000:6 
#C 2.368008e-009 6
0.000000e+000:1 8.455034e-003:2 8.455034e-003:3 8.455034e-003:4 8.455034e-003:5 0.000000e+000:6 
#C 2.394516e-009 6
0.000000e+000:1 8.455034e-003:2 8.455034e-003:3 8.455034e-003:4 8.455034e-003:5 0.000000e+000:6 
#C 2.421024e-009 6
0.000000e+000:1 8.455034e-003:2 8.455034e-003:3 8.455034e-003:4 8.455034e-003:5 0.000000e+000:6 
#C 2.448960e-009 6
0.000000e+000:1 8.455034e-003:2 8.455034e-003:3 8.455034e-003:4 8.455034e-003:5 0.000000e+000:6 
#C 2.485152e-009 6
0.000000e+000:1 8.455034e-003:2 8.455034e-003:3 8.455034e-003:4 8.455034e-003:5 0.000000e+000:6 
#C 2.511660e-009 6
0.000000e+000:1 8.455034e-003:2 8.455034e-003:3 8.455034e-003:4 8.455034e-003:5 0.000000e+000:6 
#C 2.538168e-009 6
0.000000e+000:1 8.455034e-003:2 8.455034e-003:3 8.455034e-003:4 8.455034e-003:5 0.000000e+000:6 
#C 2.566104e-009 6
0.000000e+000:1 8.455034e-003:2 8.455034e-003:3 8.455034e-003:4 8.455034e-003:5 0.000000e+000:6 
#C 2.594040e-009 6
0.000000e+000:1 8.455034e-003:2 8.455034e-003:3 8.455034e-003:4 8.455034e-003:5 0.000000e+000:6 
#C 2.625784e-009 6
0.000000e+000:1 8.455034e-003:2 8.455034e-003:3 8.455034e-003:4 8.455034e-003:5 0.000000e+000:6 
#C 2.657528e-009 6
0.000000e+000:1 8.455034e-003:2 8.455034e-003:3 8.455034e-003:4 8.455034e-003:5 0.000000e+000:6 
#C 2.721016e-009 6
0.000000e+000:1 8.455034e-003:2 8.455034e-003:3 8.455034e-003:4 8.455034e-003:5 0.000000e+000:6 
#C 2.747524e-009 6
0.000000e+000:1 8.455034e-003:2 8.455034e-003:3 8.455034e-003:4 8.455034e-003:5 0.000000e+000:6 
#C 2.774032e-009 6
0.000000e+000:1 8.455034e-003:2 8.455034e-003:3 8.455034e-003:4 8.455034e-003:5 0.000000e+000:6 
#C 2.800064e-009 6
0.000000e+000:1 8.455034e-003:2 8.455034e-003:3 8.455034e-003:4 8.455034e-003:5 0.000000e+000:6 
#C 2.826572e-009 6
0.000000e+000:1 8.455034e-003:2 8.455034e-003:3 8.455034e-003:4 8.455034e-003:5 0.000000e+000:6 
#C 2.853556e-009 6
0.000000e+000:1 8.455034e-003:2 8.455034e-003:3 8.455034e-003:4 8.455034e-003:5 0.000000e+000:6 
#C 2.880064e-009 6
0.000000e+000:1 8.455034e-003:2 8.455034e-003:3 8.455034e-003:4 8.455034e-003:5 0.000000e+000:6 
#C 2.906572e-009 6
0.000000e+000:1 8.455034e-003:2 8.455034e-003:3 8.455034e-003:4 8.455034e-003:5 0.000000e+000:6 
#C 2.933080e-009 6
0.000000e+000:1 8.455034e-003:2 8.455034e-003:3 8.455034e-003:4 8.455034e-003:5 0.000000e+000:6 
#C 2.959112e-009 6
0.000000e+000:1 8.455034e-003:2 8.455034e-003:3 8.455034e-003:4 8.455034e-003:5 0.000000e+000:6 
#C 2.985620e-009 6
0.000000e+000:1 8.455034e-003:2 8.455034e-003:3 8.455034e-003:4 8.455034e-003:5 0.000000e+000:6 
#C 3.007952e-009 6
7.952400e-002:1 8.455034e-003:2 8.455034e-003:3 8.455034e-003:4 8.455034e-003:5 0.000000e+000:6 
#C 3.039762e-009 6
3.976200e-001:1 8.455034e-003:2 8.455034e-003:3 8.455034e-003:4 8.455034e-003:5 0.000000e+000:6 
#C 3.061128e-009 6
6.195506e-001:1 7.738446e-002:2 8.455034e-003:3 1.154991e-002:4 8.455034e-003:5 0.000000e+000:6 
#C 3.085704e-009 6
8.600817e-001:1 2.159368e-001:2 8.455034e-003:3 6.806569e-002:4 8.455034e-003:5 0.000000e+000:6 
#C 3.107085e-009 6
1.000000e+000:1 3.244530e-001:2 8.455034e-003:3 1.682826e-001:4 8.455034e-003:5 0.000000e+000:6 
#C 3.135424e-009 6
1.000000e+000:1 4.569834e-001:2 8.455034e-003:3 3.214420e-001:4 8.455034e-003:5 0.000000e+000:6 
#C 3.173210e-009 6
1.000000e+000:1 6.248465e-001:2 8.455034e-003:3 5.082257e-001:4 8.455034e-003:5 0.000000e+000:6 
#C 3.248781e-009 6
1.000000e+000:1 9.528277e-001:2 8.455034e-003:3 8.373098e-001:4 8.455034e-003:5 0.000000e+000:6 
#C 3.275289e-009 6
1.000000e+000:1 1.067557e+000:2 8.455034e-003:3 9.493123e-001:4 8.455034e-003:5 0.000000e+000:6 
#C 3.301797e-009 6
1.000000e+000:1 1.184586e+000:2 8.455034e-003:3 1.064251e+000:4 8.455034e-003:5 0.000000e+000:6 
#C 3.354813e-009 6
1.000000e+000:1 1.420928e+000:2 8.455034e-003:3 1.298869e+000:4 8.455034e-003:5 0.000000e+000:6 
#C 3.454813e-009 6
1.000000e+000:1 1.869369e+000:2 8.455034e-003:3 1.746860e+000:4 8.455034e-003:5 0.000000e+000:6 
#C 3.481321e-009 6
1.000000e+000:1 1.989088e+000:2 8.455034e-003:3 1.865948e+000:4 8.455034e-003:5 0.000000e+000:6 
#C 3.507829e-009 6
1.000000e+000:1 2.107847e+000:2 8.455034e-003:3 1.985201e+000:4 8.455034e-003:5 0.000000e+000:6 
#C 3.535765e-009 6
1.000000e+000:1 2.232368e+000:2 8.455034e-003:3 2.110440e+000:4 8.455034e-003:5 0.000000e+000:6 
#C 3.563701e-009 6
1.000000e+000:1 2.356304e+000:2 8.455034e-003:3 2.234942e+000:4 8.455034e-003:5 0.000000e+000:6 
#C 3.587829e-009 6
1.000000e+000:1 2.462981e+000:2 8.455034e-003:3 2.341929e+000:4 8.455034e-003:5 0.000000e+000:6 
#C 3.620853e-009 6
1.000000e+000:1 2.605752e+000:2 8.455034e-003:3 2.487551e+000:4 8.455034e-003:5 0.000000e+000:6 
#C 3.641780e-009 6
1.000000e+000:1 2.634360e+000:2 8.455034e-003:3 2.571799e+000:4 8.455034e-003:5 0.000000e+000:6 
#C 3.669684e-009 6
1.000000e+000:1 2.638502e+000:2 8.455034e-003:3 2.635093e+000:4 8.455034e-003:5 0.000000e+000:6 
#C 3.701297e-009 6
1.000000e+000:1 2.641205e+000:2 8.455034e-003:3 2.646791e+000:4 8.455034e-003:5 0.000000e+000:6 
#C 3.725491e-009 6
1.000000e+000:1 2.643099e+000:2 8.455034e-003:3 2.643349e+000:4 8.455034e-003:5 0.000000e+000:6 
#C 3.751999e-009 6
1.000000e+000:1 2.644805e+000:2 8.455034e-003:3 2.641218e+000:4 8.455034e-003:5 0.000000e+000:6 
#C 3.778507e-009 6
1.000000e+000:1 2.645956e+000:2 8.456014e-003:3 2.642260e+000:4 8.697369e-003:5 0.000000e+000:6 
#C 3.808579e-009 6
1.000000e+000:1 2.646743e+000:2 8.673101e-003:3 2.644090e+000:4 2.901731e-002:5 0.000000e+000:6 
#C 3.846935e-009 6
1.000000e+000:1 2.647305e+000:2 1.356778e-002:3 2.645327e+000:4 1.503659e-001:5 0.000000e+000:6 
#C 3.873997e-009 6
1.000000e+000:1 2.647545e+000:2 2.776533e-002:3 2.645652e+000:4 2.860243e-001:5 0.000000e+000:6 
#C 3.895956e-009 6
1.000000e+000:1 2.647682e+000:2 5.215280e-002:3 2.645808e+000:4 4.015230e-001:5 0.000000e+000:6 
#C 3.919462e-009 6
1.000000e+000:1 2.647786e+000:2 9.597574e-002:3 2.645939e+000:4 5.181748e-001:5 0.000000e+000:6 
#C 3.945439e-009 6
1.000000e+000:1 2.647865e+000:2 1.701699e-001:3 2.646053e+000:4 6.319204e-001:5 0.000000e+000:6 
#C 3.980076e-009 6
1.000000e+000:1 2.647932e+000:2 3.147497e-001:3 2.646156e+000:4 7.574459e-001:5 0.000000e+000:6 
#C 4.014713e-009 6
1.000000e+000:1 2.647970e+000:2 5.091190e-001:3 2.646215e+000:4 8.691983e-001:5 0.000000e+000:6 
#C 4.052256e-009 6
1.000000e+000:1 2.647995e+000:2 7.653547e-001:3 2.646251e+000:4 1.000227e+000:5 0.000000e+000:6 
#C 4.078764e-009 6
1.000000e+000:1 2.648005e+000:2 9.663215e-001:3 2.646266e+000:4 1.109124e+000:5 0.000000e+000:6 
#C 4.105272e-009 6
1.000000e+000:1 2.648012e+000:2 1.176734e+000:3 2.646276e+000:4 1.236126e+000:5 0.000000e+000:6 
#C 4.133208e-009 6
1.000000e+000:1 2.648017e+000:2 1.402637e+000:3 2.646283e+000:4 1.390827e+000:5 1.000000e+000:6 
#C 4.161144e-009 6
1.000000e+000:1 2.648020e+000:2 1.627639e+000:3 2.646288e+000:4 1.566289e+000:5 1.000000e+000:6 
#C 4.185272e-009 6
1.000000e+000:1 2.648022e+000:2 1.818370e+000:3 2.646290e+000:4 1.732562e+000:5 1.000000e+000:6 
#C 4.208759e-009 6
1.000000e+000:1 2.648023e+000:2 1.999411e+000:3 2.646292e+000:4 1.904791e+000:5 1.000000e+000:6 
#C 4.236663e-009 6
1.000000e+000:1 2.648024e+000:2 2.207923e+000:3 2.646294e+000:4 2.118915e+000:5 1.000000e+000:6 
#C 4.262711e-009 6
1.000000e+000:1 2.648025e+000:2 2.396478e+000:3 2.646295e+000:4 2.324130e+000:5 1.000000e+000:6 
#C 4.294325e-009 6
1.000000e+000:1 2.648025e+000:2 2.618991e+000:3 2.646295e+000:4 2.574722e+000:5 1.000000e+000:6 
#C 4.319484e-009 6
1.000000e+000:1 2.648026e+000:2 2.792746e+000:3 2.646296e+000:4 2.772286e+000:5 1.000000e+000:6 
#C 4.342711e-009 6
1.000000e+000:1 2.648026e+000:2 2.951868e+000:3 2.646296e+000:4 2.951570e+000:5 1.000000e+000:6 
#C 4.381432e-009 6
1.000000e+000:1 2.648026e+000:2 3.216998e+000:3 2.646296e+000:4 3.228559e+000:5 1.000000e+000:6 
#C 4.407940e-009 6
1.000000e+000:1 2.648026e+000:2 3.398854e+000:3 2.646296e+000:4 3.375488e+000:5 1.000000e+000:6 
#C 4.434924e-009 6
1.000000e+000:1 2.648026e+000:2 3.581763e+000:3 2.646296e+000:4 3.478098e+000:5 1.000000e+000:6 
#C 4.461432e-009 6
1.000000e+000:1 2.648026e+000:2 3.753685e+000:3 2.646296e+000:4 3.551397e+000:5 1.000000e+000:6 
#C 4.487940e-009 6
1.000000e+000:1 2.648026e+000:2 3.912304e+000:3 2.646232e+000:4 3.614932e+000:5 1.000000e+000:6 
#C 4.514924e-009 6
1.000000e+000:1 2.647940e+000:2 4.053182e+000:3 2.635712e+000:4 3.685190e+000:5 1.000000e+000:6 
#C 4.541432e-009 6
1.000000e+000:1 2.646572e+000:2 4.166557e+000:3 2.593939e+000:4 3.764026e+000:5 1.000000e+000:6 
#C 4.567940e-009 6
1.000000e+000:1 2.642072e+000:2 4.252149e+000:3 2.575754e+000:4 3.851956e+000:5 1.000000e+000:6 
#C 4.594924e-009 6
1.000000e+000:1 2.634588e+000:2 4.308716e+000:3 2.628959e+000:4 3.946679e+000:5 1.000000e+000:6 
#C 4.621432e-009 6
1.000000e+000:1 2.629126e+000:2 4.337049e+000:3 2.687040e+000:4 4.038930e+000:5 1.000000e+000:6 
#C 4.647940e-009 6
1.000000e+000:1 2.628843e+000:2 4.343407e+000:3 2.703507e+000:4 4.125310e+000:5 1.000000e+000:6 
#C 4.674448e-009 6
1.000000e+000:1 2.633887e+000:2 4.335289e+000:3 2.684776e+000:4 4.200267e+000:5 1.000000e+000:6 
#C 4.700480e-009 6
1.000000e+000:1 2.641051e+000:2 4.319838e+000:3 2.658615e+000:4 4.259371e+000:5 1.000000e+000:6 
#C 4.726988e-009 6
1.000000e+000:1 2.647990e+000:2 4.301151e+000:3 2.635322e+000:4 4.303373e+000:5 1.000000e+000:6 
#C 4.753496e-009 6
1.000000e+000:1 2.652418e+000:2 4.283922e+000:3 2.627628e+000:4 4.331148e+000:5 1.000000e+000:6 
#C 4.781432e-009 6
1.000000e+000:1 2.654252e+000:2 4.270189e+000:3 2.641599e+000:4 4.344850e+000:5 1.000000e+000:6 
#C 4.821432e-009 6
1.000000e+000:1 2.655579e+000:2 4.261181e+000:3 2.687068e+000:4 4.343550e+000:5 1.000000e+000:6 
#C 4.847940e-009 6
1.000000e+000:1 2.658750e+000:2 4.262218e+000:3 2.726868e+000:4 4.333876e+000:5 1.000000e+000:6 
#C 4.874448e-009 6
1.000000e+000:1 2.666273e+000:2 4.267812e+000:3 2.769610e+000:4 4.321207e+000:5 1.000000e+000:6 
#C 4.902384e-009 6
1.000000e+000:1 2.680441e+000:2 4.277076e+000:3 2.816293e+000:4 4.307639e+000:5 1.000000e+000:6 
#C 4.938576e-009 6
1.000000e+000:1 2.709488e+000:2 4.291173e+000:3 2.877687e+000:4 4.293471e+000:5 1.000000e+000:6 
#C 4.965084e-009 6
1.000000e+000:1 2.738159e+000:2 4.301106e+000:3 2.921145e+000:4 4.286985e+000:5 1.000000e+000:6 
#C 4.991592e-009 6
1.000000e+000:1 2.772275e+000:2 4.309401e+000:3 2.962773e+000:4 4.284186e+000:5 1.000000e+000:6 
#C 5.019528e-009 6
1.000000e+000:1 2.812986e+000:2 4.315690e+000:3 3.004363e+000:4 4.284847e+000:5 1.000000e+000:6 
#C 5.047464e-009 6
1.000000e+000:1 2.856762e+000:2 4.319280e+000:3 3.043513e+000:4 4.288372e+000:5 1.000000e+000:6 
#C 5.079208e-009 6
1.000000e+000:1 2.908347e+000:2 4.320371e+000:3 3.088212e+000:4 4.294467e+000:5 1.000000e+000:6 
#C 5.110952e-009 6
1.000000e+000:1 2.960511e+000:2 4.319068e+000:3 3.154373e+000:4 4.301193e+000:5 1.000000e+000:6 
#C 5.174440e-009 6
1.000000e+000:1 3.064276e+000:2 4.313203e+000:3 3.240085e+000:4 4.311979e+000:5 1.000000e+000:6 
#C 5.200948e-009 6
1.000000e+000:1 3.105999e+000:2 4.310371e+000:3 3.229863e+000:4 4.314669e+000:5 1.000000e+000:6 
#C 5.227456e-009 6
1.000000e+000:1 3.143171e+000:2 4.308029e+000:3 3.236605e+000:4 4.316160e+000:5 1.000000e+000:6 
#C 5.253488e-009 6
1.000000e+000:1 3.174760e+000:2 4.306390e+000:3 3.275104e+000:4 4.315490e+000:5 1.000000e+000:6 
#C 5.279996e-009 6
1.000000e+000:1 3.203668e+000:2 4.305373e+000:3 3.331142e+000:4 4.308860e+000:5 1.000000e+000:6 
#C 5.306980e-009 6
1.000000e+000:1 3.232456e+000:2 4.304696e+000:3 3.383831e+000:4 4.308941e+000:5 1.000000e+000:6 
#C 5.333488e-009 6
1.000000e+000:1 3.261711e+000:2 4.304621e+000:3 3.423392e+000:4 4.328409e+000:5 1.000000e+000:6 
#C 5.354499e-009 6
1.000000e+000:1 3.285855e+000:2 4.305573e+000:3 3.445699e+000:4 4.349532e+000:5 1.000000e+000:6 
#C 5.376187e-009 6
