#H
SOURCE='IsSpice4'	VERSION='ver. 8.11-SI-1.0.3   10/6/2010'
TITLE='* Thu Oct 29 20:49:59 2015, Generated by: 010328058, Server: None, Windows, INSTALLED_SOFTWARE_VERSION: 2015.07 Build 6, Engine: 2015.07rc1, GUI: 2015.07rc1'
SUBTITLE='pc'
TIME='20:50:51' DATE='Oct 29, 2015' TEMPERATURE='273.15'
ANALYSIS='Trans'	SERIALNO='01234567'
ALLVALUES='NO' COMPLEXVALUES='NO' NODES='9'
SWEEPVAR='time' SWEEPMODE='VAR_STEP' DGTLDATA='NO'
XBEGIN='0.000000e+000' XEND='2.590000e-007'
FORMAT='0 VOLTSorAMPS;EFLOAT : NODEorBRANCH;NODE'
#N
'V(v_stimulus)'
'V(controller_pad)'
'V(io0_pad)'
'V(io1_pad)'
'V(controller_pin)'
'V(io0_pin)'
'V(io1_pin)'
'V(io0_z)'
'V(io1_z)'
#U
'Volts'
'Volts'
'Volts'
'Volts'
'Volts'
'Volts'
'Volts'
'Volts'
'Volts'
#C 0.000000e+000 9
0.000000e+000:1 1.035774e-004:2 1.035765e-004:3 1.035765e-004:4 1.035768e-004:5 1.035768e-004:6 
1.035768e-004:7 0.000000e+000:8 0.000000e+000:9 
#C 2.560000e-011 9
0.000000e+000:1 1.035774e-004:2 1.035765e-004:3 1.035765e-004:4 1.035768e-004:5 1.035768e-004:6 
1.035768e-004:7 0.000000e+000:8 0.000000e+000:9 
#C 5.440000e-011 9
0.000000e+000:1 1.035774e-004:2 1.035765e-004:3 1.035765e-004:4 1.035768e-004:5 1.035768e-004:6 
1.035768e-004:7 0.000000e+000:8 0.000000e+000:9 
#C 8.320000e-011 9
0.000000e+000:1 1.035774e-004:2 1.035765e-004:3 1.035765e-004:4 1.035768e-004:5 1.035768e-004:6 
1.035768e-004:7 0.000000e+000:8 0.000000e+000:9 
#C 1.088000e-010 9
0.000000e+000:1 1.035774e-004:2 1.035765e-004:3 1.035765e-004:4 1.035768e-004:5 1.035768e-004:6 
1.035768e-004:7 0.000000e+000:8 0.000000e+000:9 
#C 1.600000e-010 9
0.000000e+000:1 1.035774e-004:2 1.035765e-004:3 1.035765e-004:4 1.035768e-004:5 1.035768e-004:6 
1.035768e-004:7 0.000000e+000:8 0.000000e+000:9 
#C 2.117046e-010 9
0.000000e+000:1 1.035774e-004:2 1.035765e-004:3 1.035765e-004:4 1.035768e-004:5 1.035768e-004:6 
1.035768e-004:7 0.000000e+000:8 0.000000e+000:9 
#C 2.634093e-010 9
0.000000e+000:1 1.035774e-004:2 1.035765e-004:3 1.035765e-004:4 1.035768e-004:5 1.035768e-004:6 
1.035768e-004:7 0.000000e+000:8 0.000000e+000:9 
#C 3.151139e-010 9
0.000000e+000:1 1.035774e-004:2 1.035765e-004:3 1.035765e-004:4 1.035768e-004:5 1.035768e-004:6 
1.035768e-004:7 0.000000e+000:8 0.000000e+000:9 
#C 3.668186e-010 9
0.000000e+000:1 1.035774e-004:2 1.035765e-004:3 1.035765e-004:4 1.035768e-004:5 1.035768e-004:6 
1.035768e-004:7 0.000000e+000:8 0.000000e+000:9 
#C 4.185232e-010 9
0.000000e+000:1 1.035774e-004:2 1.035765e-004:3 1.035765e-004:4 1.035768e-004:5 1.035768e-004:6 
1.035768e-004:7 0.000000e+000:8 0.000000e+000:9 
#C 4.702278e-010 9
0.000000e+000:1 1.035774e-004:2 1.035765e-004:3 1.035765e-004:4 1.035768e-004:5 1.035768e-004:6 
1.035768e-004:7 0.000000e+000:8 0.000000e+000:9 
#C 5.219325e-010 9
0.000000e+000:1 1.035774e-004:2 1.035765e-004:3 1.035765e-004:4 1.035768e-004:5 1.035768e-004:6 
1.035768e-004:7 0.000000e+000:8 0.000000e+000:9 
#C 5.736371e-010 9
0.000000e+000:1 1.035774e-004:2 1.035765e-004:3 1.035765e-004:4 1.035768e-004:5 1.035768e-004:6 
1.035768e-004:7 0.000000e+000:8 0.000000e+000:9 
#C 6.253417e-010 9
0.000000e+000:1 1.035774e-004:2 1.035765e-004:3 1.035765e-004:4 1.035768e-004:5 1.035768e-004:6 
1.035768e-004:7 0.000000e+000:8 0.000000e+000:9 
#C 6.770464e-010 9
0.000000e+000:1 1.035774e-004:2 1.035765e-004:3 1.035765e-004:4 1.035768e-004:5 1.035768e-004:6 
1.035768e-004:7 0.000000e+000:8 0.000000e+000:9 
#C 7.287510e-010 9
0.000000e+000:1 1.035774e-004:2 1.035765e-004:3 1.035765e-004:4 1.035768e-004:5 1.035768e-004:6 
1.035768e-004:7 0.000000e+000:8 0.000000e+000:9 
#C 7.804557e-010 9
0.000000e+000:1 1.035774e-004:2 1.035765e-004:3 1.035765e-004:4 1.035768e-004:5 1.035768e-004:6 
1.035768e-004:7 0.000000e+000:8 0.000000e+000:9 
#C 8.321603e-010 9
0.000000e+000:1 1.035774e-004:2 1.035765e-004:3 1.035765e-004:4 1.035768e-004:5 1.035768e-004:6 
1.035768e-004:7 0.000000e+000:8 0.000000e+000:9 
#C 8.838649e-010 9
0.000000e+000:1 1.035774e-004:2 1.035765e-004:3 1.035765e-004:4 1.035768e-004:5 1.035768e-004:6 
1.035768e-004:7 0.000000e+000:8 0.000000e+000:9 
#C 9.355696e-010 9
0.000000e+000:1 1.035774e-004:2 1.035765e-004:3 1.035765e-004:4 1.035768e-004:5 1.035768e-004:6 
1.035768e-004:7 0.000000e+000:8 0.000000e+000:9 
#C 9.572961e-010 9
0.000000e+000:1 1.035774e-004:2 1.035765e-004:3 1.035765e-004:4 1.035768e-004:5 1.035768e-004:6 
1.035768e-004:7 0.000000e+000:8 0.000000e+000:9 
#C 9.790226e-010 9
0.000000e+000:1 1.035774e-004:2 1.035765e-004:3 1.035765e-004:4 1.035768e-004:5 1.035768e-004:6 
1.035768e-004:7 0.000000e+000:8 0.000000e+000:9 
#C 1.022476e-009 9
0.000000e+000:1 1.035774e-004:2 1.035765e-004:3 1.035765e-004:4 1.035768e-004:5 1.035768e-004:6 
1.035768e-004:7 0.000000e+000:8 0.000000e+000:9 
#C 1.074180e-009 9
0.000000e+000:1 1.035774e-004:2 1.035765e-004:3 1.035765e-004:4 1.035768e-004:5 1.035768e-004:6 
1.035768e-004:7 0.000000e+000:8 0.000000e+000:9 
#C 1.095907e-009 9
0.000000e+000:1 1.035774e-004:2 1.035765e-004:3 1.035765e-004:4 1.035768e-004:5 1.035768e-004:6 
1.035768e-004:7 0.000000e+000:8 0.000000e+000:9 
#C 1.117633e-009 9
0.000000e+000:1 1.035774e-004:2 1.035765e-004:3 1.035765e-004:4 1.035768e-004:5 1.035768e-004:6 
1.035768e-004:7 0.000000e+000:8 0.000000e+000:9 
#C 1.161086e-009 9
0.000000e+000:1 1.035774e-004:2 1.035765e-004:3 1.035765e-004:4 1.035768e-004:5 1.035768e-004:6 
1.035768e-004:7 0.000000e+000:8 0.000000e+000:9 
#C 1.212791e-009 9
0.000000e+000:1 1.035774e-004:2 1.035765e-004:3 1.035765e-004:4 1.035768e-004:5 1.035768e-004:6 
1.035768e-004:7 0.000000e+000:8 0.000000e+000:9 
#C 1.264495e-009 9
0.000000e+000:1 1.035774e-004:2 1.035765e-004:3 1.035765e-004:4 1.035768e-004:5 1.035768e-004:6 
1.035768e-004:7 0.000000e+000:8 0.000000e+000:9 
#C 1.286222e-009 9
0.000000e+000:1 1.035774e-004:2 1.035765e-004:3 1.035765e-004:4 1.035768e-004:5 1.035768e-004:6 
1.035768e-004:7 0.000000e+000:8 0.000000e+000:9 
#C 1.307948e-009 9
0.000000e+000:1 1.035774e-004:2 1.035765e-004:3 1.035765e-004:4 1.035768e-004:5 1.035768e-004:6 
1.035768e-004:7 0.000000e+000:8 0.000000e+000:9 
#C 1.351401e-009 9
0.000000e+000:1 1.035774e-004:2 1.035765e-004:3 1.035765e-004:4 1.035768e-004:5 1.035768e-004:6 
1.035768e-004:7 0.000000e+000:8 0.000000e+000:9 
#C 1.403106e-009 9
0.000000e+000:1 1.035774e-004:2 1.035765e-004:3 1.035765e-004:4 1.035768e-004:5 1.035768e-004:6 
1.035768e-004:7 0.000000e+000:8 0.000000e+000:9 
#C 1.424833e-009 9
0.000000e+000:1 1.035774e-004:2 1.035765e-004:3 1.035765e-004:4 1.035768e-004:5 1.035768e-004:6 
1.035768e-004:7 0.000000e+000:8 0.000000e+000:9 
#C 1.446559e-009 9
0.000000e+000:1 1.035774e-004:2 1.035765e-004:3 1.035765e-004:4 1.035768e-004:5 1.035768e-004:6 
1.035768e-004:7 0.000000e+000:8 0.000000e+000:9 
#C 1.490012e-009 9
0.000000e+000:1 1.035774e-004:2 1.035765e-004:3 1.035765e-004:4 1.035768e-004:5 1.035768e-004:6 
1.035768e-004:7 0.000000e+000:8 0.000000e+000:9 
#C 1.541717e-009 9
0.000000e+000:1 1.035774e-004:2 1.035765e-004:3 1.035765e-004:4 1.035768e-004:5 1.035768e-004:6 
1.035768e-004:7 0.000000e+000:8 0.000000e+000:9 
#C 1.593421e-009 9
0.000000e+000:1 1.035774e-004:2 1.035765e-004:3 1.035765e-004:4 1.035768e-004:5 1.035768e-004:6 
1.035768e-004:7 0.000000e+000:8 0.000000e+000:9 
#C 1.615148e-009 9
0.000000e+000:1 1.035774e-004:2 1.035765e-004:3 1.035765e-004:4 1.035768e-004:5 1.035768e-004:6 
1.035768e-004:7 0.000000e+000:8 0.000000e+000:9 
#C 1.636874e-009 9
0.000000e+000:1 1.035774e-004:2 1.035765e-004:3 1.035765e-004:4 1.035768e-004:5 1.035768e-004:6 
1.035768e-004:7 0.000000e+000:8 0.000000e+000:9 
#C 1.680327e-009 9
0.000000e+000:1 1.035774e-004:2 1.035765e-004:3 1.035765e-004:4 1.035768e-004:5 1.035768e-004:6 
1.035768e-004:7 0.000000e+000:8 0.000000e+000:9 
#C 1.732032e-009 9
0.000000e+000:1 1.035774e-004:2 1.035765e-004:3 1.035765e-004:4 1.035768e-004:5 1.035768e-004:6 
1.035768e-004:7 0.000000e+000:8 0.000000e+000:9 
#C 1.783737e-009 9
0.000000e+000:1 1.035774e-004:2 1.035765e-004:3 1.035765e-004:4 1.035768e-004:5 1.035768e-004:6 
1.035768e-004:7 0.000000e+000:8 0.000000e+000:9 
#C 1.805463e-009 9
0.000000e+000:1 1.035774e-004:2 1.035765e-004:3 1.035765e-004:4 1.035768e-004:5 1.035768e-004:6 
1.035768e-004:7 0.000000e+000:8 0.000000e+000:9 
#C 1.827190e-009 9
0.000000e+000:1 1.035774e-004:2 1.035765e-004:3 1.035765e-004:4 1.035768e-004:5 1.035768e-004:6 
1.035768e-004:7 0.000000e+000:8 0.000000e+000:9 
#C 1.870643e-009 9
0.000000e+000:1 1.035774e-004:2 1.035765e-004:3 1.035765e-004:4 1.035768e-004:5 1.035768e-004:6 
1.035768e-004:7 0.000000e+000:8 0.000000e+000:9 
#C 1.922347e-009 9
0.000000e+000:1 1.035774e-004:2 1.035765e-004:3 1.035765e-004:4 1.035768e-004:5 1.035768e-004:6 
1.035768e-004:7 0.000000e+000:8 0.000000e+000:9 
#C 1.944074e-009 9
0.000000e+000:1 1.035774e-004:2 1.035765e-004:3 1.035765e-004:4 1.035768e-004:5 1.035768e-004:6 
1.035768e-004:7 0.000000e+000:8 0.000000e+000:9 
#C 1.965800e-009 9
0.000000e+000:1 1.035774e-004:2 1.035765e-004:3 1.035765e-004:4 1.035768e-004:5 1.035768e-004:6 
1.035768e-004:7 0.000000e+000:8 0.000000e+000:9 
#C 2.009253e-009 9
0.000000e+000:1 1.035774e-004:2 1.035765e-004:3 1.035765e-004:4 1.035768e-004:5 1.035768e-004:6 
1.035768e-004:7 0.000000e+000:8 0.000000e+000:9 
#C 2.060958e-009 9
0.000000e+000:1 1.035774e-004:2 1.035765e-004:3 1.035765e-004:4 1.035768e-004:5 1.035768e-004:6 
1.035768e-004:7 0.000000e+000:8 0.000000e+000:9 
#C 2.112662e-009 9
0.000000e+000:1 1.035774e-004:2 1.035765e-004:3 1.035765e-004:4 1.035768e-004:5 1.035768e-004:6 
1.035768e-004:7 0.000000e+000:8 0.000000e+000:9 
#C 2.134389e-009 9
0.000000e+000:1 1.035774e-004:2 1.035765e-004:3 1.035765e-004:4 1.035768e-004:5 1.035768e-004:6 
1.035768e-004:7 0.000000e+000:8 0.000000e+000:9 
#C 2.156115e-009 9
0.000000e+000:1 1.035774e-004:2 1.035765e-004:3 1.035765e-004:4 1.035768e-004:5 1.035768e-004:6 
1.035768e-004:7 0.000000e+000:8 0.000000e+000:9 
#C 2.199568e-009 9
0.000000e+000:1 1.035774e-004:2 1.035765e-004:3 1.035765e-004:4 1.035768e-004:5 1.035768e-004:6 
1.035768e-004:7 0.000000e+000:8 0.000000e+000:9 
#C 2.251273e-009 9
0.000000e+000:1 1.035774e-004:2 1.035765e-004:3 1.035765e-004:4 1.035768e-004:5 1.035768e-004:6 
1.035768e-004:7 0.000000e+000:8 0.000000e+000:9 
#C 2.302978e-009 9
0.000000e+000:1 1.035774e-004:2 1.035765e-004:3 1.035765e-004:4 1.035768e-004:5 1.035768e-004:6 
1.035768e-004:7 0.000000e+000:8 0.000000e+000:9 
#C 2.324704e-009 9
0.000000e+000:1 1.035774e-004:2 1.035765e-004:3 1.035765e-004:4 1.035768e-004:5 1.035768e-004:6 
1.035768e-004:7 0.000000e+000:8 0.000000e+000:9 
#C 2.346431e-009 9
0.000000e+000:1 1.035774e-004:2 1.035765e-004:3 1.035765e-004:4 1.035768e-004:5 1.035768e-004:6 
1.035768e-004:7 0.000000e+000:8 0.000000e+000:9 
#C 2.389884e-009 9
0.000000e+000:1 1.035774e-004:2 1.035765e-004:3 1.035765e-004:4 1.035768e-004:5 1.035768e-004:6 
1.035768e-004:7 0.000000e+000:8 0.000000e+000:9 
#C 2.441588e-009 9
0.000000e+000:1 1.035774e-004:2 1.035765e-004:3 1.035765e-004:4 1.035768e-004:5 1.035768e-004:6 
1.035768e-004:7 0.000000e+000:8 0.000000e+000:9 
#C 2.463315e-009 9
0.000000e+000:1 1.035774e-004:2 1.035765e-004:3 1.035765e-004:4 1.035768e-004:5 1.035768e-004:6 
1.035768e-004:7 0.000000e+000:8 0.000000e+000:9 
#C 2.485041e-009 9
0.000000e+000:1 1.035774e-004:2 1.035765e-004:3 1.035765e-004:4 1.035768e-004:5 1.035768e-004:6 
1.035768e-004:7 0.000000e+000:8 0.000000e+000:9 
#C 2.528494e-009 9
0.000000e+000:1 1.035774e-004:2 1.035765e-004:3 1.035765e-004:4 1.035768e-004:5 1.035768e-004:6 
1.035768e-004:7 0.000000e+000:8 0.000000e+000:9 
#C 2.580199e-009 9
0.000000e+000:1 1.035774e-004:2 1.035765e-004:3 1.035765e-004:4 1.035768e-004:5 1.035768e-004:6 
1.035768e-004:7 0.000000e+000:8 0.000000e+000:9 
#C 2.631904e-009 9
0.000000e+000:1 1.035774e-004:2 1.035765e-004:3 1.035765e-004:4 1.035768e-004:5 1.035768e-004:6 
1.035768e-004:7 0.000000e+000:8 0.000000e+000:9 
#C 2.653630e-009 9
0.000000e+000:1 1.035774e-004:2 1.035765e-004:3 1.035765e-004:4 1.035768e-004:5 1.035768e-004:6 
1.035768e-004:7 0.000000e+000:8 0.000000e+000:9 
#C 2.675357e-009 9
0.000000e+000:1 1.035774e-004:2 1.035765e-004:3 1.035765e-004:4 1.035768e-004:5 1.035768e-004:6 
1.035768e-004:7 0.000000e+000:8 0.000000e+000:9 
#C 2.718810e-009 9
0.000000e+000:1 1.035774e-004:2 1.035765e-004:3 1.035765e-004:4 1.035768e-004:5 1.035768e-004:6 
1.035768e-004:7 0.000000e+000:8 0.000000e+000:9 
#C 2.770514e-009 9
0.000000e+000:1 1.035774e-004:2 1.035765e-004:3 1.035765e-004:4 1.035768e-004:5 1.035768e-004:6 
1.035768e-004:7 0.000000e+000:8 0.000000e+000:9 
#C 2.822219e-009 9
0.000000e+000:1 1.035774e-004:2 1.035765e-004:3 1.035765e-004:4 1.035768e-004:5 1.035768e-004:6 
1.035768e-004:7 0.000000e+000:8 0.000000e+000:9 
#C 2.843945e-009 9
0.000000e+000:1 1.035774e-004:2 1.035765e-004:3 1.035765e-004:4 1.035768e-004:5 1.035768e-004:6 
1.035768e-004:7 0.000000e+000:8 0.000000e+000:9 
#C 2.865672e-009 9
0.000000e+000:1 1.035774e-004:2 1.035765e-004:3 1.035765e-004:4 1.035768e-004:5 1.035768e-004:6 
1.035768e-004:7 0.000000e+000:8 0.000000e+000:9 
#C 2.909125e-009 9
0.000000e+000:1 1.035774e-004:2 1.035765e-004:3 1.035765e-004:4 1.035768e-004:5 1.035768e-004:6 
1.035768e-004:7 0.000000e+000:8 0.000000e+000:9 
#C 2.960829e-009 9
0.000000e+000:1 1.035774e-004:2 1.035765e-004:3 1.035765e-004:4 1.035768e-004:5 1.035768e-004:6 
1.035768e-004:7 0.000000e+000:8 0.000000e+000:9 
#C 2.982556e-009 9
0.000000e+000:1 1.035774e-004:2 1.035765e-004:3 1.035765e-004:4 1.035768e-004:5 1.035768e-004:6 
1.035768e-004:7 0.000000e+000:8 0.000000e+000:9 
#C 3.004282e-009 9
0.000000e+000:1 1.035774e-004:2 1.035765e-004:3 1.035765e-004:4 1.035768e-004:5 1.035768e-004:6 
1.035768e-004:7 0.000000e+000:8 0.000000e+000:9 
#C 3.047735e-009 9
0.000000e+000:1 1.035774e-004:2 1.035765e-004:3 1.035765e-004:4 1.035768e-004:5 1.035768e-004:6 
1.035768e-004:7 0.000000e+000:8 0.000000e+000:9 
#C 3.099440e-009 9
0.000000e+000:1 1.035774e-004:2 1.035765e-004:3 1.035765e-004:4 1.035768e-004:5 1.035768e-004:6 
1.035768e-004:7 0.000000e+000:8 0.000000e+000:9 
#C 3.151145e-009 9
0.000000e+000:1 1.035774e-004:2 1.035765e-004:3 1.035765e-004:4 1.035768e-004:5 1.035768e-004:6 
1.035768e-004:7 0.000000e+000:8 0.000000e+000:9 
#C 3.172871e-009 9
0.000000e+000:1 1.035774e-004:2 1.035765e-004:3 1.035765e-004:4 1.035768e-004:5 1.035768e-004:6 
1.035768e-004:7 0.000000e+000:8 0.000000e+000:9 
#C 3.194598e-009 9
0.000000e+000:1 1.035774e-004:2 1.035765e-004:3 1.035765e-004:4 1.035768e-004:5 1.035768e-004:6 
1.035768e-004:7 0.000000e+000:8 0.000000e+000:9 
#C 3.238051e-009 9
0.000000e+000:1 1.035774e-004:2 1.035765e-004:3 1.035765e-004:4 1.035768e-004:5 1.035768e-004:6 
1.035768e-004:7 0.000000e+000:8 0.000000e+000:9 
#C 3.289755e-009 9
0.000000e+000:1 1.035774e-004:2 1.035765e-004:3 1.035765e-004:4 1.035768e-004:5 1.035768e-004:6 
1.035768e-004:7 0.000000e+000:8 0.000000e+000:9 
#C 3.341460e-009 9
0.000000e+000:1 1.035774e-004:2 1.035765e-004:3 1.035765e-004:4 1.035768e-004:5 1.035768e-004:6 
1.035768e-004:7 0.000000e+000:8 0.000000e+000:9 
#C 3.363186e-009 9
0.000000e+000:1 1.035774e-004:2 1.035765e-004:3 1.035765e-004:4 1.035768e-004:5 1.035768e-004:6 
1.035768e-004:7 0.000000e+000:8 0.000000e+000:9 
#C 3.384913e-009 9
0.000000e+000:1 1.035774e-004:2 1.035765e-004:3 1.035765e-004:4 1.035768e-004:5 1.035768e-004:6 
1.035768e-004:7 0.000000e+000:8 0.000000e+000:9 
#C 3.428366e-009 9
0.000000e+000:1 1.035774e-004:2 1.035765e-004:3 1.035765e-004:4 1.035768e-004:5 1.035768e-004:6 
1.035768e-004:7 0.000000e+000:8 0.000000e+000:9 
#C 3.480071e-009 9
0.000000e+000:1 1.035774e-004:2 1.035765e-004:3 1.035765e-004:4 1.035768e-004:5 1.035768e-004:6 
1.035768e-004:7 0.000000e+000:8 0.000000e+000:9 
#C 3.501797e-009 9
0.000000e+000:1 1.035774e-004:2 1.035765e-004:3 1.035765e-004:4 1.035768e-004:5 1.035768e-004:6 
1.035768e-004:7 0.000000e+000:8 0.000000e+000:9 
#C 3.523524e-009 9
0.000000e+000:1 1.035774e-004:2 1.035765e-004:3 1.035765e-004:4 1.035768e-004:5 1.035768e-004:6 
1.035768e-004:7 0.000000e+000:8 0.000000e+000:9 
#C 3.566976e-009 9
0.000000e+000:1 1.035774e-004:2 1.035765e-004:3 1.035765e-004:4 1.035768e-004:5 1.035768e-004:6 
1.035768e-004:7 0.000000e+000:8 0.000000e+000:9 
#C 3.618681e-009 9
0.000000e+000:1 1.035774e-004:2 1.035765e-004:3 1.035765e-004:4 1.035768e-004:5 1.035768e-004:6 
1.035768e-004:7 0.000000e+000:8 0.000000e+000:9 
#C 3.670386e-009 9
0.000000e+000:1 1.035774e-004:2 1.035765e-004:3 1.035765e-004:4 1.035768e-004:5 1.035768e-004:6 
1.035768e-004:7 0.000000e+000:8 0.000000e+000:9 
#C 3.692112e-009 9
0.000000e+000:1 1.035774e-004:2 1.035765e-004:3 1.035765e-004:4 1.035768e-004:5 1.035768e-004:6 
1.035768e-004:7 0.000000e+000:8 0.000000e+000:9 
#C 3.713839e-009 9
0.000000e+000:1 1.035774e-004:2 1.035765e-004:3 1.035765e-004:4 1.035768e-004:5 1.035768e-004:6 
1.035768e-004:7 0.000000e+000:8 0.000000e+000:9 
#C 3.757292e-009 9
0.000000e+000:1 1.035774e-004:2 1.035765e-004:3 1.035765e-004:4 1.035768e-004:5 1.035768e-004:6 
1.035768e-004:7 0.000000e+000:8 0.000000e+000:9 
#C 3.808996e-009 9
0.000000e+000:1 1.035774e-004:2 1.035765e-004:3 1.035765e-004:4 1.035768e-004:5 1.035768e-004:6 
1.035768e-004:7 0.000000e+000:8 0.000000e+000:9 
#C 3.860701e-009 9
0.000000e+000:1 1.035774e-004:2 1.035765e-004:3 1.035765e-004:4 1.035768e-004:5 1.035768e-004:6 
1.035768e-004:7 0.000000e+000:8 0.000000e+000:9 
#C 3.882428e-009 9
0.000000e+000:1 1.035774e-004:2 1.035765e-004:3 1.035765e-004:4 1.035768e-004:5 1.035768e-004:6 
1.035768e-004:7 0.000000e+000:8 0.000000e+000:9 
#C 3.904154e-009 9
0.000000e+000:1 1.035774e-004:2 1.035765e-004:3 1.035765e-004:4 1.035768e-004:5 1.035768e-004:6 
1.035768e-004:7 0.000000e+000:8 0.000000e+000:9 
#C 3.947607e-009 9
0.000000e+000:1 1.035774e-004:2 1.035765e-004:3 1.035765e-004:4 1.035768e-004:5 1.035768e-004:6 
1.035768e-004:7 0.000000e+000:8 0.000000e+000:9 
#C 3.999312e-009 9
0.000000e+000:1 1.035774e-004:2 1.035765e-004:3 1.035765e-004:4 1.035768e-004:5 1.035768e-004:6 
1.035768e-004:7 0.000000e+000:8 0.000000e+000:9 
#C 4.021038e-009 9
0.000000e+000:1 1.035774e-004:2 1.035765e-004:3 1.035765e-004:4 1.035768e-004:5 1.035768e-004:6 
1.035768e-004:7 0.000000e+000:8 0.000000e+000:9 
#C 4.042765e-009 9
0.000000e+000:1 1.035774e-004:2 1.035765e-004:3 1.035765e-004:4 1.035768e-004:5 1.035768e-004:6 
1.035768e-004:7 0.000000e+000:8 0.000000e+000:9 
#C 4.086218e-009 9
0.000000e+000:1 1.035774e-004:2 1.035765e-004:3 1.035765e-004:4 1.035768e-004:5 1.035768e-004:6 
1.035768e-004:7 0.000000e+000:8 0.000000e+000:9 
#C 4.137922e-009 9
0.000000e+000:1 1.035774e-004:2 1.035765e-004:3 1.035765e-004:4 1.035768e-004:5 1.035768e-004:6 
1.035768e-004:7 0.000000e+000:8 0.000000e+000:9 
#C 4.189627e-009 9
0.000000e+000:1 1.035774e-004:2 1.035765e-004:3 1.035765e-004:4 1.035768e-004:5 1.035768e-004:6 
1.035768e-004:7 0.000000e+000:8 0.000000e+000:9 
#C 4.211353e-009 9
0.000000e+000:1 1.035774e-004:2 1.035765e-004:3 1.035765e-004:4 1.035768e-004:5 1.035768e-004:6 
1.035768e-004:7 0.000000e+000:8 0.000000e+000:9 
#C 4.233080e-009 9
0.000000e+000:1 1.035774e-004:2 1.035765e-004:3 1.035765e-004:4 1.035768e-004:5 1.035768e-004:6 
1.035768e-004:7 0.000000e+000:8 0.000000e+000:9 
#C 4.276533e-009 9
0.000000e+000:1 1.035774e-004:2 1.035765e-004:3 1.035765e-004:4 1.035768e-004:5 1.035768e-004:6 
1.035768e-004:7 0.000000e+000:8 0.000000e+000:9 
#C 4.328237e-009 9
0.000000e+000:1 1.035774e-004:2 1.035765e-004:3 1.035765e-004:4 1.035768e-004:5 1.035768e-004:6 
1.035768e-004:7 0.000000e+000:8 0.000000e+000:9 
#C 4.379942e-009 9
0.000000e+000:1 1.035774e-004:2 1.035765e-004:3 1.035765e-004:4 1.035768e-004:5 1.035768e-004:6 
1.035768e-004:7 0.000000e+000:8 0.000000e+000:9 
#C 4.401669e-009 9
0.000000e+000:1 1.035774e-004:2 1.035765e-004:3 1.035765e-004:4 1.035768e-004:5 1.035768e-004:6 
1.035768e-004:7 0.000000e+000:8 0.000000e+000:9 
#C 4.423395e-009 9
0.000000e+000:1 1.035774e-004:2 1.035765e-004:3 1.035765e-004:4 1.035768e-004:5 1.035768e-004:6 
1.035768e-004:7 0.000000e+000:8 0.000000e+000:9 
#C 4.466848e-009 9
0.000000e+000:1 1.035774e-004:2 1.035765e-004:3 1.035765e-004:4 1.035768e-004:5 1.035768e-004:6 
