#H
SOURCE='IsSpice4'	VERSION='ver. 8.11-SI-1.0.3   10/6/2010'
TITLE='* Thu Oct 01 19:52:24 2015, Generated by: 010328058, Server: None, Windows, INSTALLED_SOFTWARE_VERSION: 2015.07 Build 6, Engine: 2015.07rc1, GUI: 2015.07rc1'
SUBTITLE='pc'
TIME='19:52:27' DATE='Oct 01, 2015' TEMPERATURE='298.15'
ANALYSIS='Trans'	SERIALNO='01234567'
ALLVALUES='NO' COMPLEXVALUES='NO' NODES='6'
SWEEPVAR='time' SWEEPMODE='VAR_STEP' DGTLDATA='NO'
XBEGIN='0.000000e+000' XEND='3.700000e-008'
FORMAT='0 VOLTSorAMPS;EFLOAT : NODEorBRANCH;NODE'
#N
'V(v_stimulus)'
'V(stload_sl_wopkg_!load)'
'V(stload_sl_wpkg_!load)'
'V(stload_sl_wopkg_!pad)'
'V(stload_sl_wpkg_!pad)'
'V(stload_sl_wpkg_!pin)'
#U
'Volts'
'Volts'
'Volts'
'Volts'
'Volts'
'Volts'
#C 0.000000e+000 6
0.000000e+000:1 6.154318e-001:2 6.215892e-001:3 6.154317e-001:4 6.106969e-001:5 6.215892e-001:6 
#C 2.560000e-011 6
0.000000e+000:1 6.154318e-001:2 6.215892e-001:3 6.154317e-001:4 6.106969e-001:5 6.215892e-001:6 
#C 5.440000e-011 6
0.000000e+000:1 6.154318e-001:2 6.215892e-001:3 6.154317e-001:4 6.106969e-001:5 6.215892e-001:6 
#C 8.320000e-011 6
0.000000e+000:1 6.154318e-001:2 6.215892e-001:3 6.154317e-001:4 6.106969e-001:5 6.215892e-001:6 
#C 1.088000e-010 6
0.000000e+000:1 6.154318e-001:2 6.215892e-001:3 6.154317e-001:4 6.106969e-001:5 6.215892e-001:6 
#C 1.600000e-010 6
0.000000e+000:1 6.154318e-001:2 6.215892e-001:3 6.154317e-001:4 6.106969e-001:5 6.215892e-001:6 
#C 2.624000e-010 6
0.000000e+000:1 6.154318e-001:2 6.215892e-001:3 6.154317e-001:4 6.106969e-001:5 6.215892e-001:6 
#C 4.672000e-010 6
0.000000e+000:1 6.154318e-001:2 6.215892e-001:3 6.154317e-001:4 6.106969e-001:5 6.215892e-001:6 
#C 8.768000e-010 6
0.000000e+000:1 6.154318e-001:2 6.215892e-001:3 6.154317e-001:4 6.106969e-001:5 6.215892e-001:6 
#C 9.016303e-010 6
0.000000e+000:1 6.154318e-001:2 6.215892e-001:3 6.154317e-001:4 6.106969e-001:5 6.215892e-001:6 
#C 9.264606e-010 6
0.000000e+000:1 6.154318e-001:2 6.215892e-001:3 6.154317e-001:4 6.106969e-001:5 6.215892e-001:6 
#C 9.761211e-010 6
0.000000e+000:1 6.154318e-001:2 6.215892e-001:3 6.154317e-001:4 6.106969e-001:5 6.215892e-001:6 
#C 1.075442e-009 6
0.000000e+000:1 6.154318e-001:2 6.215892e-001:3 6.154317e-001:4 6.106969e-001:5 6.215892e-001:6 
#C 1.100273e-009 6
0.000000e+000:1 6.154318e-001:2 6.215892e-001:3 6.154317e-001:4 6.106969e-001:5 6.215892e-001:6 
#C 1.130612e-009 6
0.000000e+000:1 6.154318e-001:2 6.215892e-001:3 6.154317e-001:4 6.106969e-001:5 6.215892e-001:6 
#C 1.160951e-009 6
0.000000e+000:1 6.154318e-001:2 6.215892e-001:3 6.154317e-001:4 6.106969e-001:5 6.215892e-001:6 
#C 1.191291e-009 6
0.000000e+000:1 6.154318e-001:2 6.215892e-001:3 6.154317e-001:4 6.106969e-001:5 6.215892e-001:6 
#C 1.231291e-009 6
0.000000e+000:1 6.154318e-001:2 6.215892e-001:3 6.154317e-001:4 6.106969e-001:5 6.215892e-001:6 
#C 1.256121e-009 6
0.000000e+000:1 6.154318e-001:2 6.215892e-001:3 6.154317e-001:4 6.106969e-001:5 6.215892e-001:6 
#C 1.280951e-009 6
0.000000e+000:1 6.154318e-001:2 6.215892e-001:3 6.154317e-001:4 6.106969e-001:5 6.215892e-001:6 
#C 1.301630e-009 6
0.000000e+000:1 6.154318e-001:2 6.215892e-001:3 6.154317e-001:4 6.106969e-001:5 6.215892e-001:6 
#C 1.338915e-009 6
0.000000e+000:1 6.154318e-001:2 6.215892e-001:3 6.154317e-001:4 6.106969e-001:5 6.215892e-001:6 
#C 1.360639e-009 6
0.000000e+000:1 6.154318e-001:2 6.215892e-001:3 6.154317e-001:4 6.106969e-001:5 6.215892e-001:6 
#C 1.381329e-009 6
0.000000e+000:1 6.154318e-001:2 6.215892e-001:3 6.154317e-001:4 6.106969e-001:5 6.215892e-001:6 
#C 1.408917e-009 6
0.000000e+000:1 6.154318e-001:2 6.215892e-001:3 6.154317e-001:4 6.106969e-001:5 6.215892e-001:6 
#C 1.433742e-009 6
0.000000e+000:1 6.154318e-001:2 6.215892e-001:3 6.154317e-001:4 6.106969e-001:5 6.215892e-001:6 
#C 1.458572e-009 6
0.000000e+000:1 6.154318e-001:2 6.215892e-001:3 6.154317e-001:4 6.106969e-001:5 6.215892e-001:6 
#C 1.483403e-009 6
0.000000e+000:1 6.154318e-001:2 6.215892e-001:3 6.154317e-001:4 6.106969e-001:5 6.215892e-001:6 
#C 1.523403e-009 6
0.000000e+000:1 6.154318e-001:2 6.215892e-001:3 6.154317e-001:4 6.106969e-001:5 6.215892e-001:6 
#C 1.563403e-009 6
0.000000e+000:1 6.154318e-001:2 6.215892e-001:3 6.154317e-001:4 6.106969e-001:5 6.215892e-001:6 
#C 1.603403e-009 6
0.000000e+000:1 6.154318e-001:2 6.215892e-001:3 6.154317e-001:4 6.106969e-001:5 6.215892e-001:6 
#C 1.643403e-009 6
0.000000e+000:1 6.154318e-001:2 6.215892e-001:3 6.154317e-001:4 6.106969e-001:5 6.215892e-001:6 
#C 1.683403e-009 6
0.000000e+000:1 6.154318e-001:2 6.215892e-001:3 6.154317e-001:4 6.106969e-001:5 6.215892e-001:6 
#C 1.723403e-009 6
0.000000e+000:1 6.154318e-001:2 6.215892e-001:3 6.154317e-001:4 6.106969e-001:5 6.215892e-001:6 
#C 1.763403e-009 6
0.000000e+000:1 6.154318e-001:2 6.215892e-001:3 6.154317e-001:4 6.106969e-001:5 6.215892e-001:6 
#C 1.803403e-009 6
0.000000e+000:1 6.154318e-001:2 6.215892e-001:3 6.154317e-001:4 6.106969e-001:5 6.215892e-001:6 
#C 1.843403e-009 6
0.000000e+000:1 6.154318e-001:2 6.215892e-001:3 6.154317e-001:4 6.106969e-001:5 6.215892e-001:6 
#C 1.883403e-009 6
0.000000e+000:1 6.154318e-001:2 6.215892e-001:3 6.154317e-001:4 6.106969e-001:5 6.215892e-001:6 
#C 1.923403e-009 6
0.000000e+000:1 6.154318e-001:2 6.215892e-001:3 6.154317e-001:4 6.106969e-001:5 6.215892e-001:6 
#C 1.963403e-009 6
0.000000e+000:1 6.154318e-001:2 6.215892e-001:3 6.154317e-001:4 6.106969e-001:5 6.215892e-001:6 
#C 2.003403e-009 6
0.000000e+000:1 6.154318e-001:2 6.215892e-001:3 6.154317e-001:4 6.106969e-001:5 6.215892e-001:6 
#C 2.043403e-009 6
0.000000e+000:1 6.154318e-001:2 6.215892e-001:3 6.154317e-001:4 6.106969e-001:5 6.215892e-001:6 
#C 2.083403e-009 6
0.000000e+000:1 6.154318e-001:2 6.215892e-001:3 6.154317e-001:4 6.106969e-001:5 6.215892e-001:6 
#C 2.123403e-009 6
0.000000e+000:1 6.154318e-001:2 6.215892e-001:3 6.154317e-001:4 6.106969e-001:5 6.215892e-001:6 
#C 2.163403e-009 6
0.000000e+000:1 6.154318e-001:2 6.215892e-001:3 6.154317e-001:4 6.106969e-001:5 6.215892e-001:6 
#C 2.203403e-009 6
0.000000e+000:1 6.154318e-001:2 6.215892e-001:3 6.154317e-001:4 6.106969e-001:5 6.215892e-001:6 
#C 2.243403e-009 6
0.000000e+000:1 6.154318e-001:2 6.215892e-001:3 6.154317e-001:4 6.106969e-001:5 6.215892e-001:6 
#C 2.283403e-009 6
0.000000e+000:1 6.154318e-001:2 6.215892e-001:3 6.154317e-001:4 6.106969e-001:5 6.215892e-001:6 
#C 2.323403e-009 6
0.000000e+000:1 6.154318e-001:2 6.215892e-001:3 6.154317e-001:4 6.106969e-001:5 6.215892e-001:6 
#C 2.363403e-009 6
0.000000e+000:1 6.154318e-001:2 6.215892e-001:3 6.154317e-001:4 6.106969e-001:5 6.215892e-001:6 
#C 2.403403e-009 6
0.000000e+000:1 6.154318e-001:2 6.215892e-001:3 6.154317e-001:4 6.106969e-001:5 6.215892e-001:6 
#C 2.443403e-009 6
0.000000e+000:1 6.154318e-001:2 6.215892e-001:3 6.154317e-001:4 6.106969e-001:5 6.215892e-001:6 
#C 2.483403e-009 6
0.000000e+000:1 6.154318e-001:2 6.215892e-001:3 6.154317e-001:4 6.106969e-001:5 6.215892e-001:6 
#C 2.523403e-009 6
0.000000e+000:1 6.154318e-001:2 6.215892e-001:3 6.154317e-001:4 6.106969e-001:5 6.215892e-001:6 
#C 2.563403e-009 6
0.000000e+000:1 6.154318e-001:2 6.215892e-001:3 6.154317e-001:4 6.106969e-001:5 6.215892e-001:6 
#C 2.603403e-009 6
0.000000e+000:1 6.154318e-001:2 6.215892e-001:3 6.154317e-001:4 6.106969e-001:5 6.215892e-001:6 
#C 2.643403e-009 6
0.000000e+000:1 6.154318e-001:2 6.215892e-001:3 6.154317e-001:4 6.106969e-001:5 6.215892e-001:6 
#C 2.683403e-009 6
0.000000e+000:1 6.154318e-001:2 6.215892e-001:3 6.154317e-001:4 6.106969e-001:5 6.215892e-001:6 
#C 2.723403e-009 6
0.000000e+000:1 6.154318e-001:2 6.215892e-001:3 6.154317e-001:4 6.106969e-001:5 6.215892e-001:6 
#C 2.763403e-009 6
0.000000e+000:1 6.154318e-001:2 6.215892e-001:3 6.154317e-001:4 6.106969e-001:5 6.215892e-001:6 
#C 2.803403e-009 6
0.000000e+000:1 6.154318e-001:2 6.215892e-001:3 6.154317e-001:4 6.106969e-001:5 6.215892e-001:6 
#C 2.843403e-009 6
0.000000e+000:1 6.154318e-001:2 6.215892e-001:3 6.154317e-001:4 6.106969e-001:5 6.215892e-001:6 
#C 2.883403e-009 6
0.000000e+000:1 6.154318e-001:2 6.215892e-001:3 6.154317e-001:4 6.106969e-001:5 6.215892e-001:6 
#C 2.923403e-009 6
0.000000e+000:1 6.154318e-001:2 6.215892e-001:3 6.154317e-001:4 6.106969e-001:5 6.215892e-001:6 
#C 2.963403e-009 6
0.000000e+000:1 6.154318e-001:2 6.215892e-001:3 6.154317e-001:4 6.106969e-001:5 6.215892e-001:6 
#C 3.003403e-009 6
0.000000e+000:1 6.154318e-001:2 6.215892e-001:3 6.154317e-001:4 6.106969e-001:5 6.215892e-001:6 
#C 3.043403e-009 6
0.000000e+000:1 6.154318e-001:2 6.215892e-001:3 6.154317e-001:4 6.106969e-001:5 6.215892e-001:6 
#C 3.083403e-009 6
0.000000e+000:1 6.154318e-001:2 6.215892e-001:3 6.154317e-001:4 6.106969e-001:5 6.215892e-001:6 
#C 3.123403e-009 6
0.000000e+000:1 6.154318e-001:2 6.215892e-001:3 6.154317e-001:4 6.106969e-001:5 6.215892e-001:6 
#C 3.163403e-009 6
0.000000e+000:1 6.154318e-001:2 6.215892e-001:3 6.154317e-001:4 6.106969e-001:5 6.215892e-001:6 
#C 3.203403e-009 6
0.000000e+000:1 6.154318e-001:2 6.215892e-001:3 6.154317e-001:4 6.106969e-001:5 6.215892e-001:6 
#C 3.243403e-009 6
0.000000e+000:1 6.154318e-001:2 6.215892e-001:3 6.154317e-001:4 6.106969e-001:5 6.215892e-001:6 
#C 3.283403e-009 6
0.000000e+000:1 6.154318e-001:2 6.215892e-001:3 6.154317e-001:4 6.106969e-001:5 6.215892e-001:6 
#C 3.323403e-009 6
0.000000e+000:1 6.154318e-001:2 6.215892e-001:3 6.154317e-001:4 6.106969e-001:5 6.215892e-001:6 
#C 3.363403e-009 6
0.000000e+000:1 6.154318e-001:2 6.215892e-001:3 6.154317e-001:4 6.106969e-001:5 6.215892e-001:6 
#C 3.403403e-009 6
0.000000e+000:1 6.154318e-001:2 6.215892e-001:3 6.154317e-001:4 6.106969e-001:5 6.215892e-001:6 
#C 3.443403e-009 6
0.000000e+000:1 6.154318e-001:2 6.215892e-001:3 6.154317e-001:4 6.106969e-001:5 6.215892e-001:6 
#C 3.483403e-009 6
0.000000e+000:1 6.154318e-001:2 6.215892e-001:3 6.154317e-001:4 6.106969e-001:5 6.215892e-001:6 
#C 3.523403e-009 6
0.000000e+000:1 6.154318e-001:2 6.215892e-001:3 6.154317e-001:4 6.106969e-001:5 6.215892e-001:6 
#C 3.563403e-009 6
0.000000e+000:1 6.154318e-001:2 6.215892e-001:3 6.154317e-001:4 6.106969e-001:5 6.215892e-001:6 
#C 3.603403e-009 6
0.000000e+000:1 6.154318e-001:2 6.215892e-001:3 6.154317e-001:4 6.106969e-001:5 6.215892e-001:6 
#C 3.643403e-009 6
0.000000e+000:1 6.154318e-001:2 6.215892e-001:3 6.154317e-001:4 6.106969e-001:5 6.215892e-001:6 
#C 3.683403e-009 6
0.000000e+000:1 6.154318e-001:2 6.215892e-001:3 6.154317e-001:4 6.106969e-001:5 6.215892e-001:6 
#C 3.723403e-009 6
0.000000e+000:1 6.154318e-001:2 6.215892e-001:3 6.154317e-001:4 6.106969e-001:5 6.215892e-001:6 
#C 3.763403e-009 6
0.000000e+000:1 6.154318e-001:2 6.215892e-001:3 6.154317e-001:4 6.106969e-001:5 6.215892e-001:6 
#C 3.803403e-009 6
0.000000e+000:1 6.154318e-001:2 6.215892e-001:3 6.154317e-001:4 6.106969e-001:5 6.215892e-001:6 
#C 3.843403e-009 6
0.000000e+000:1 6.154318e-001:2 6.215892e-001:3 6.154317e-001:4 6.106969e-001:5 6.215892e-001:6 
#C 3.883403e-009 6
0.000000e+000:1 6.154318e-001:2 6.215892e-001:3 6.154317e-001:4 6.106969e-001:5 6.215892e-001:6 
#C 3.923403e-009 6
0.000000e+000:1 6.154318e-001:2 6.215892e-001:3 6.154317e-001:4 6.106969e-001:5 6.215892e-001:6 
#C 3.963403e-009 6
0.000000e+000:1 6.154318e-001:2 6.215892e-001:3 6.154317e-001:4 6.106969e-001:5 6.215892e-001:6 
#C 4.003403e-009 6
0.000000e+000:1 6.154318e-001:2 6.215892e-001:3 6.154317e-001:4 6.106969e-001:5 6.215892e-001:6 
#C 4.043403e-009 6
0.000000e+000:1 6.154318e-001:2 6.215892e-001:3 6.154317e-001:4 6.106969e-001:5 6.215892e-001:6 
#C 4.083403e-009 6
0.000000e+000:1 6.154318e-001:2 6.215892e-001:3 6.154317e-001:4 6.106969e-001:5 6.215892e-001:6 
#C 4.123403e-009 6
0.000000e+000:1 6.154318e-001:2 6.215892e-001:3 6.154317e-001:4 6.106969e-001:5 6.215892e-001:6 
#C 4.163403e-009 6
0.000000e+000:1 6.154318e-001:2 6.215892e-001:3 6.154317e-001:4 6.106969e-001:5 6.215892e-001:6 
#C 4.203403e-009 6
0.000000e+000:1 6.154318e-001:2 6.215892e-001:3 6.154317e-001:4 6.106969e-001:5 6.215892e-001:6 
#C 4.243403e-009 6
0.000000e+000:1 6.154318e-001:2 6.215892e-001:3 6.154317e-001:4 6.106969e-001:5 6.215892e-001:6 
#C 4.283403e-009 6
0.000000e+000:1 6.154318e-001:2 6.215892e-001:3 6.154317e-001:4 6.106969e-001:5 6.215892e-001:6 
#C 4.323403e-009 6
0.000000e+000:1 6.154318e-001:2 6.215892e-001:3 6.154317e-001:4 6.106969e-001:5 6.215892e-001:6 
#C 4.363403e-009 6
0.000000e+000:1 6.154318e-001:2 6.215892e-001:3 6.154317e-001:4 6.106969e-001:5 6.215892e-001:6 
#C 4.403403e-009 6
0.000000e+000:1 6.154318e-001:2 6.215892e-001:3 6.154317e-001:4 6.106969e-001:5 6.215892e-001:6 
#C 4.443403e-009 6
0.000000e+000:1 6.154318e-001:2 6.215892e-001:3 6.154317e-001:4 6.106969e-001:5 6.215892e-001:6 
#C 4.483403e-009 6
0.000000e+000:1 6.154318e-001:2 6.215892e-001:3 6.154317e-001:4 6.106969e-001:5 6.215892e-001:6 
#C 4.523403e-009 6
0.000000e+000:1 6.154318e-001:2 6.215892e-001:3 6.154317e-001:4 6.106969e-001:5 6.215892e-001:6 
#C 4.563403e-009 6
0.000000e+000:1 6.154318e-001:2 6.215892e-001:3 6.154317e-001:4 6.106969e-001:5 6.215892e-001:6 
#C 4.603403e-009 6
0.000000e+000:1 6.154318e-001:2 6.215892e-001:3 6.154317e-001:4 6.106969e-001:5 6.215892e-001:6 
#C 4.643403e-009 6
0.000000e+000:1 6.154318e-001:2 6.215892e-001:3 6.154317e-001:4 6.106969e-001:5 6.215892e-001:6 
#C 4.683403e-009 6
0.000000e+000:1 6.154318e-001:2 6.215892e-001:3 6.154317e-001:4 6.106969e-001:5 6.215892e-001:6 
#C 4.723403e-009 6
0.000000e+000:1 6.154318e-001:2 6.215892e-001:3 6.154317e-001:4 6.106969e-001:5 6.215892e-001:6 
#C 4.763403e-009 6
0.000000e+000:1 6.154318e-001:2 6.215892e-001:3 6.154317e-001:4 6.106969e-001:5 6.215892e-001:6 
#C 4.803403e-009 6
0.000000e+000:1 6.154318e-001:2 6.215892e-001:3 6.154317e-001:4 6.106969e-001:5 6.215892e-001:6 
#C 4.843403e-009 6
0.000000e+000:1 6.154318e-001:2 6.215892e-001:3 6.154317e-001:4 6.106969e-001:5 6.215892e-001:6 
#C 4.883403e-009 6
0.000000e+000:1 6.154318e-001:2 6.215892e-001:3 6.154317e-001:4 6.106969e-001:5 6.215892e-001:6 
#C 4.923403e-009 6
0.000000e+000:1 6.154318e-001:2 6.215892e-001:3 6.154317e-001:4 6.106969e-001:5 6.215892e-001:6 
#C 4.963403e-009 6
0.000000e+000:1 6.154318e-001:2 6.215892e-001:3 6.154317e-001:4 6.106969e-001:5 6.215892e-001:6 
#C 5.003403e-009 6
0.000000e+000:1 6.154318e-001:2 6.215892e-001:3 6.154317e-001:4 6.106969e-001:5 6.215892e-001:6 
#C 5.043403e-009 6
0.000000e+000:1 6.154318e-001:2 6.215892e-001:3 6.154317e-001:4 6.106969e-001:5 6.215892e-001:6 
#C 5.083403e-009 6
0.000000e+000:1 6.154318e-001:2 6.215892e-001:3 6.154317e-001:4 6.106969e-001:5 6.215892e-001:6 
#C 5.123403e-009 6
0.000000e+000:1 6.154318e-001:2 6.215892e-001:3 6.154317e-001:4 6.106969e-001:5 6.215892e-001:6 
#C 5.163403e-009 6
0.000000e+000:1 6.154318e-001:2 6.215892e-001:3 6.154317e-001:4 6.106969e-001:5 6.215892e-001:6 
#C 5.203403e-009 6
0.000000e+000:1 6.154318e-001:2 6.215892e-001:3 6.154317e-001:4 6.106969e-001:5 6.215892e-001:6 
#C 5.243403e-009 6
0.000000e+000:1 6.154318e-001:2 6.215892e-001:3 6.154317e-001:4 6.106969e-001:5 6.215892e-001:6 
#C 5.283403e-009 6
0.000000e+000:1 6.154318e-001:2 6.215892e-001:3 6.154317e-001:4 6.106969e-001:5 6.215892e-001:6 
#C 5.323403e-009 6
0.000000e+000:1 6.154318e-001:2 6.215892e-001:3 6.154317e-001:4 6.106969e-001:5 6.215892e-001:6 
#C 5.363403e-009 6
0.000000e+000:1 6.154318e-001:2 6.215892e-001:3 6.154317e-001:4 6.106969e-001:5 6.215892e-001:6 
#C 5.403403e-009 6
0.000000e+000:1 6.154318e-001:2 6.215892e-001:3 6.154317e-001:4 6.106969e-001:5 6.215892e-001:6 
#C 5.443403e-009 6
0.000000e+000:1 6.154318e-001:2 6.215892e-001:3 6.154317e-001:4 6.106969e-001:5 6.215892e-001:6 
#C 5.483403e-009 6
0.000000e+000:1 6.154318e-001:2 6.215892e-001:3 6.154317e-001:4 6.106969e-001:5 6.215892e-001:6 
#C 5.523403e-009 6
0.000000e+000:1 6.154318e-001:2 6.215892e-001:3 6.154317e-001:4 6.106969e-001:5 6.215892e-001:6 
#C 5.563403e-009 6
0.000000e+000:1 6.154318e-001:2 6.215892e-001:3 6.154317e-001:4 6.106969e-001:5 6.215892e-001:6 
#C 5.603403e-009 6
0.000000e+000:1 6.154318e-001:2 6.215892e-001:3 6.154317e-001:4 6.106969e-001:5 6.215892e-001:6 
#C 5.643403e-009 6
0.000000e+000:1 6.154318e-001:2 6.215892e-001:3 6.154317e-001:4 6.106969e-001:5 6.215892e-001:6 
#C 5.683403e-009 6
0.000000e+000:1 6.154318e-001:2 6.215892e-001:3 6.154317e-001:4 6.106969e-001:5 6.215892e-001:6 
#C 5.723403e-009 6
0.000000e+000:1 6.154318e-001:2 6.215892e-001:3 6.154317e-001:4 6.106969e-001:5 6.215892e-001:6 
#C 5.763403e-009 6
0.000000e+000:1 6.154318e-001:2 6.215892e-001:3 6.154317e-001:4 6.106969e-001:5 6.215892e-001:6 
#C 5.803403e-009 6
0.000000e+000:1 6.154318e-001:2 6.215892e-001:3 6.154317e-001:4 6.106969e-001:5 6.215892e-001:6 
#C 5.843403e-009 6
0.000000e+000:1 6.154318e-001:2 6.215892e-001:3 6.154317e-001:4 6.106969e-001:5 6.215892e-001:6 
#C 5.883403e-009 6
0.000000e+000:1 6.154318e-001:2 6.215892e-001:3 6.154317e-001:4 6.106969e-001:5 6.215892e-001:6 
#C 5.923403e-009 6
0.000000e+000:1 6.154318e-001:2 6.215892e-001:3 6.154317e-001:4 6.106969e-001:5 6.215892e-001:6 
#C 5.963403e-009 6
0.000000e+000:1 6.154318e-001:2 6.215892e-001:3 6.154317e-001:4 6.106969e-001:5 6.215892e-001:6 
#C 6.000000e-009 6
0.000000e+000:1 6.154318e-001:2 6.215892e-001:3 6.154317e-001:4 6.106969e-001:5 6.215892e-001:6 
#C 6.031018e-009 6
3.101832e-001:1 6.154318e-001:2 6.215892e-001:3 6.154317e-001:4 6.106969e-001:5 6.215892e-001:6 
#C 6.051100e-009 6
5.110000e-001:1 6.154222e-001:2 6.215892e-001:3 6.154222e-001:4 6.106557e-001:5 6.215892e-001:6 
#C 6.085704e-009 6
8.600817e-001:1 6.147870e-001:2 6.215840e-001:3 6.147870e-001:4 6.080611e-001:5 6.215839e-001:6 
#C 6.107085e-009 6
1.000000e+000:1 6.142521e-001:2 6.215660e-001:3 6.142520e-001:4 6.060597e-001:5 6.215660e-001:6 
#C 6.135424e-009 6
1.000000e+000:1 6.134732e-001:2 6.215061e-001:3 6.134731e-001:4 6.034246e-001:5 6.215061e-001:6 
#C 6.173210e-009 6
1.000000e+000:1 6.124698e-001:2 6.213310e-001:3 6.124697e-001:4 6.006667e-001:5 6.213310e-001:6 
#C 6.210995e-009 6
1.000000e+000:1 6.116709e-001:2 6.210186e-001:3 6.116708e-001:4 5.994008e-001:5 6.210185e-001:6 
#C 6.248781e-009 6
1.000000e+000:1 6.112126e-001:2 6.205632e-001:3 6.112125e-001:4 5.999629e-001:5 6.205631e-001:6 
#C 6.286566e-009 6
1.000000e+000:1 6.079967e-001:2 6.199575e-001:3 6.079966e-001:4 5.894279e-001:5 6.199575e-001:6 
#C 6.324352e-009 6
1.000000e+000:1 6.049509e-001:2 6.190896e-001:3 6.049508e-001:4 5.814202e-001:5 6.190896e-001:6 
#C 6.345459e-009 6
1.000000e+000:1 6.084240e-001:2 6.184747e-001:3 6.084240e-001:4 5.991177e-001:5 6.184746e-001:6 
#C 6.387674e-009 6
1.000000e+000:1 6.431042e-001:2 6.178697e-001:3 6.431042e-001:4 7.531141e-001:5 6.178697e-001:6 
#C 6.465207e-009 6
1.000000e+000:1 7.849034e-001:2 6.318782e-001:3 7.849035e-001:4 1.358714e+000:5 6.318782e-001:6 
#C 6.490038e-009 6
1.000000e+000:1 8.451129e-001:2 6.433938e-001:3 8.451130e-001:4 1.595906e+000:5 6.433938e-001:6 
#C 6.514868e-009 6
1.000000e+000:1 9.082967e-001:2 6.609281e-001:3 9.082969e-001:4 1.808437e+000:5 6.609281e-001:6 
#C 6.554868e-009 6
1.000000e+000:1 1.011552e+000:2 7.044146e-001:3 1.011552e+000:4 2.068324e+000:5 7.044146e-001:6 
#C 6.594868e-009 6
1.000000e+000:1 1.111280e+000:2 7.687491e-001:3 1.111280e+000:4 2.211359e+000:5 7.687491e-001:6 
#C 6.634868e-009 6
1.000000e+000:1 1.205102e+000:2 8.541409e-001:3 1.205102e+000:4 2.246400e+000:5 8.541409e-001:6 
#C 6.674868e-009 6
1.000000e+000:1 1.291409e+000:2 9.586013e-001:3 1.291409e+000:4 2.192960e+000:5 9.586013e-001:6 
#C 6.714868e-009 6
1.000000e+000:1 1.370971e+000:2 1.078422e+000:3 1.370971e+000:4 2.076377e+000:5 1.078423e+000:6 
#C 6.754868e-009 6
1.000000e+000:1 1.444637e+000:2 1.208751e+000:3 1.444637e+000:4 1.919828e+000:5 1.208751e+000:6 
#C 6.794868e-009 6
1.000000e+000:1 1.512738e+000:2 1.344126e+000:3 1.512738e+000:4 1.743666e+000:5 1.344126e+000:6 
#C 6.834868e-009 6
1.000000e+000:1 1.576100e+000:2 1.478966e+000:3 1.576100e+000:4 1.567150e+000:5 1.478966e+000:6 
#C 6.874868e-009 6
1.000000e+000:1 1.635028e+000:2 1.607986e+000:3 1.635028e+000:4 1.404953e+000:5 1.607986e+000:6 
#C 6.914868e-009 6
1.000000e+000:1 1.690006e+000:2 1.726532e+000:3 1.690006e+000:4 1.271019e+000:5 1.726532e+000:6 
#C 6.954868e-009 6
