#H
SOURCE='IsSpice4'	VERSION='ver. 8.11-SI-1.0.3   10/6/2010'
TITLE='* Thu Nov 05 20:24:49 2015, Generated by: 010328058, Server: None, Windows, INSTALLED_SOFTWARE_VERSION: 2015.07 Build 6, Engine: 2015.07rc1, GUI: 2015.07rc1'
SUBTITLE='pc'
TIME='20:25:10' DATE='Nov 05, 2015' TEMPERATURE='273.15'
ANALYSIS='Trans'	SERIALNO='01234567'
ALLVALUES='NO' COMPLEXVALUES='NO' NODES='8'
SWEEPVAR='time' SWEEPMODE='VAR_STEP' DGTLDATA='NO'
XBEGIN='0.000000e+000' XEND='1.740000e-007'
FORMAT='0 VOLTSorAMPS;EFLOAT : NODEorBRANCH;NODE'
#N
'V(v_stimulus)'
'V(designator1_pad)'
'V(designator2_pad)'
'V(designator3_pad)'
'V(designator1_pin)'
'V(designator2_pin)'
'V(designator3_pin)'
'V(designator2_z)'
#U
'Volts'
'Volts'
'Volts'
'Volts'
'Volts'
'Volts'
'Volts'
'Volts'
#C 0.000000e+000 8
0.000000e+000:1 7.099266e-005:2 7.099266e-005:3 7.099266e-005:4 7.099266e-005:5 7.099266e-005:6 
7.099266e-005:7 0.000000e+000:8 
#C 2.560000e-011 8
0.000000e+000:1 7.099266e-005:2 7.099266e-005:3 7.099266e-005:4 7.099266e-005:5 7.099266e-005:6 
7.099266e-005:7 0.000000e+000:8 
#C 5.440000e-011 8
0.000000e+000:1 7.099266e-005:2 7.099266e-005:3 7.099266e-005:4 7.099266e-005:5 7.099266e-005:6 
7.099266e-005:7 0.000000e+000:8 
#C 8.320000e-011 8
0.000000e+000:1 7.099266e-005:2 7.099266e-005:3 7.099266e-005:4 7.099266e-005:5 7.099266e-005:6 
7.099266e-005:7 0.000000e+000:8 
#C 1.088000e-010 8
0.000000e+000:1 7.099266e-005:2 7.099266e-005:3 7.099266e-005:4 7.099266e-005:5 7.099266e-005:6 
7.099266e-005:7 0.000000e+000:8 
#C 1.600000e-010 8
0.000000e+000:1 7.099266e-005:2 7.099266e-005:3 7.099266e-005:4 7.099266e-005:5 7.099266e-005:6 
7.099266e-005:7 0.000000e+000:8 
#C 2.289426e-010 8
0.000000e+000:1 7.099266e-005:2 7.099266e-005:3 7.099266e-005:4 7.099266e-005:5 7.099266e-005:6 
7.099266e-005:7 0.000000e+000:8 
#C 2.978851e-010 8
0.000000e+000:1 7.099266e-005:2 7.099266e-005:3 7.099266e-005:4 7.099266e-005:5 7.099266e-005:6 
7.099266e-005:7 0.000000e+000:8 
#C 3.668277e-010 8
0.000000e+000:1 7.099266e-005:2 7.099266e-005:3 7.099266e-005:4 7.099266e-005:5 7.099266e-005:6 
7.099266e-005:7 0.000000e+000:8 
#C 4.357702e-010 8
0.000000e+000:1 7.099266e-005:2 7.099266e-005:3 7.099266e-005:4 7.099266e-005:5 7.099266e-005:6 
7.099266e-005:7 0.000000e+000:8 
#C 5.047128e-010 8
0.000000e+000:1 7.099266e-005:2 7.099266e-005:3 7.099266e-005:4 7.099266e-005:5 7.099266e-005:6 
7.099266e-005:7 0.000000e+000:8 
#C 5.736553e-010 8
0.000000e+000:1 7.099266e-005:2 7.099266e-005:3 7.099266e-005:4 7.099266e-005:5 7.099266e-005:6 
7.099266e-005:7 0.000000e+000:8 
#C 6.425979e-010 8
0.000000e+000:1 7.099266e-005:2 7.099266e-005:3 7.099266e-005:4 7.099266e-005:5 7.099266e-005:6 
7.099266e-005:7 0.000000e+000:8 
#C 7.115404e-010 8
0.000000e+000:1 7.099266e-005:2 7.099266e-005:3 7.099266e-005:4 7.099266e-005:5 7.099266e-005:6 
7.099266e-005:7 0.000000e+000:8 
#C 7.804830e-010 8
0.000000e+000:1 7.099266e-005:2 7.099266e-005:3 7.099266e-005:4 7.099266e-005:5 7.099266e-005:6 
7.099266e-005:7 0.000000e+000:8 
#C 8.494255e-010 8
0.000000e+000:1 7.099266e-005:2 7.099266e-005:3 7.099266e-005:4 7.099266e-005:5 7.099266e-005:6 
7.099266e-005:7 0.000000e+000:8 
#C 8.786179e-010 8
0.000000e+000:1 7.099266e-005:2 7.099266e-005:3 7.099266e-005:4 7.099266e-005:5 7.099266e-005:6 
7.099266e-005:7 0.000000e+000:8 
#C 9.078102e-010 8
0.000000e+000:1 7.099266e-005:2 7.099266e-005:3 7.099266e-005:4 7.099266e-005:5 7.099266e-005:6 
7.099266e-005:7 0.000000e+000:8 
#C 9.445797e-010 8
0.000000e+000:1 7.099266e-005:2 7.099266e-005:3 7.099266e-005:4 7.099266e-005:5 7.099266e-005:6 
7.099266e-005:7 0.000000e+000:8 
#C 9.661949e-010 8
0.000000e+000:1 7.099266e-005:2 7.099266e-005:3 7.099266e-005:4 7.099266e-005:5 7.099266e-005:6 
7.099266e-005:7 0.000000e+000:8 
#C 9.953873e-010 8
0.000000e+000:1 7.099266e-005:2 7.099266e-005:3 7.099266e-005:4 7.099266e-005:5 7.099266e-005:6 
7.099266e-005:7 0.000000e+000:8 
#C 1.024580e-009 8
0.000000e+000:1 7.099266e-005:2 7.099266e-005:3 7.099266e-005:4 7.099266e-005:5 7.099266e-005:6 
7.099266e-005:7 0.000000e+000:8 
#C 1.046195e-009 8
0.000000e+000:1 7.099266e-005:2 7.099266e-005:3 7.099266e-005:4 7.099266e-005:5 7.099266e-005:6 
7.099266e-005:7 0.000000e+000:8 
#C 1.075387e-009 8
0.000000e+000:1 7.099266e-005:2 7.099266e-005:3 7.099266e-005:4 7.099266e-005:5 7.099266e-005:6 
7.099266e-005:7 0.000000e+000:8 
#C 1.104580e-009 8
0.000000e+000:1 7.099266e-005:2 7.099266e-005:3 7.099266e-005:4 7.099266e-005:5 7.099266e-005:6 
7.099266e-005:7 0.000000e+000:8 
#C 1.141349e-009 8
0.000000e+000:1 7.099266e-005:2 7.099266e-005:3 7.099266e-005:4 7.099266e-005:5 7.099266e-005:6 
7.099266e-005:7 0.000000e+000:8 
#C 1.178119e-009 8
0.000000e+000:1 7.099266e-005:2 7.099266e-005:3 7.099266e-005:4 7.099266e-005:5 7.099266e-005:6 
7.099266e-005:7 0.000000e+000:8 
#C 1.214888e-009 8
0.000000e+000:1 7.099266e-005:2 7.099266e-005:3 7.099266e-005:4 7.099266e-005:5 7.099266e-005:6 
7.099266e-005:7 0.000000e+000:8 
#C 1.251657e-009 8
0.000000e+000:1 7.099266e-005:2 7.099266e-005:3 7.099266e-005:4 7.099266e-005:5 7.099266e-005:6 
7.099266e-005:7 0.000000e+000:8 
#C 1.288427e-009 8
0.000000e+000:1 7.099266e-005:2 7.099266e-005:3 7.099266e-005:4 7.099266e-005:5 7.099266e-005:6 
7.099266e-005:7 0.000000e+000:8 
#C 1.325196e-009 8
0.000000e+000:1 7.099266e-005:2 7.099266e-005:3 7.099266e-005:4 7.099266e-005:5 7.099266e-005:6 
7.099266e-005:7 0.000000e+000:8 
#C 1.361966e-009 8
0.000000e+000:1 7.099266e-005:2 7.099266e-005:3 7.099266e-005:4 7.099266e-005:5 7.099266e-005:6 
7.099266e-005:7 0.000000e+000:8 
#C 1.398735e-009 8
0.000000e+000:1 7.099266e-005:2 7.099266e-005:3 7.099266e-005:4 7.099266e-005:5 7.099266e-005:6 
7.099266e-005:7 0.000000e+000:8 
#C 1.435504e-009 8
0.000000e+000:1 7.099266e-005:2 7.099266e-005:3 7.099266e-005:4 7.099266e-005:5 7.099266e-005:6 
7.099266e-005:7 0.000000e+000:8 
#C 1.504447e-009 8
0.000000e+000:1 7.099266e-005:2 7.099266e-005:3 7.099266e-005:4 7.099266e-005:5 7.099266e-005:6 
7.099266e-005:7 0.000000e+000:8 
#C 1.533639e-009 8
0.000000e+000:1 7.099266e-005:2 7.099266e-005:3 7.099266e-005:4 7.099266e-005:5 7.099266e-005:6 
7.099266e-005:7 0.000000e+000:8 
#C 1.562832e-009 8
0.000000e+000:1 7.099266e-005:2 7.099266e-005:3 7.099266e-005:4 7.099266e-005:5 7.099266e-005:6 
7.099266e-005:7 0.000000e+000:8 
#C 1.599601e-009 8
0.000000e+000:1 7.099266e-005:2 7.099266e-005:3 7.099266e-005:4 7.099266e-005:5 7.099266e-005:6 
7.099266e-005:7 0.000000e+000:8 
#C 1.621216e-009 8
0.000000e+000:1 7.099266e-005:2 7.099266e-005:3 7.099266e-005:4 7.099266e-005:5 7.099266e-005:6 
7.099266e-005:7 0.000000e+000:8 
#C 1.654755e-009 8
0.000000e+000:1 7.099266e-005:2 7.099266e-005:3 7.099266e-005:4 7.099266e-005:5 7.099266e-005:6 
7.099266e-005:7 0.000000e+000:8 
#C 1.683066e-009 8
0.000000e+000:1 7.099266e-005:2 7.099266e-005:3 7.099266e-005:4 7.099266e-005:5 7.099266e-005:6 
7.099266e-005:7 0.000000e+000:8 
#C 1.716309e-009 8
0.000000e+000:1 7.099266e-005:2 7.099266e-005:3 7.099266e-005:4 7.099266e-005:5 7.099266e-005:6 
7.099266e-005:7 0.000000e+000:8 
#C 1.749552e-009 8
0.000000e+000:1 7.099266e-005:2 7.099266e-005:3 7.099266e-005:4 7.099266e-005:5 7.099266e-005:6 
7.099266e-005:7 0.000000e+000:8 
#C 1.782795e-009 8
0.000000e+000:1 7.099266e-005:2 7.099266e-005:3 7.099266e-005:4 7.099266e-005:5 7.099266e-005:6 
7.099266e-005:7 0.000000e+000:8 
#C 1.816038e-009 8
0.000000e+000:1 7.099266e-005:2 7.099266e-005:3 7.099266e-005:4 7.099266e-005:5 7.099266e-005:6 
7.099266e-005:7 0.000000e+000:8 
#C 1.849282e-009 8
0.000000e+000:1 7.099266e-005:2 7.099266e-005:3 7.099266e-005:4 7.099266e-005:5 7.099266e-005:6 
7.099266e-005:7 0.000000e+000:8 
#C 1.882525e-009 8
0.000000e+000:1 7.099266e-005:2 7.099266e-005:3 7.099266e-005:4 7.099266e-005:5 7.099266e-005:6 
7.099266e-005:7 0.000000e+000:8 
#C 1.915768e-009 8
0.000000e+000:1 7.099266e-005:2 7.099266e-005:3 7.099266e-005:4 7.099266e-005:5 7.099266e-005:6 
7.099266e-005:7 0.000000e+000:8 
#C 1.982254e-009 8
0.000000e+000:1 7.099266e-005:2 7.099266e-005:3 7.099266e-005:4 7.099266e-005:5 7.099266e-005:6 
7.099266e-005:7 0.000000e+000:8 
#C 2.011446e-009 8
0.000000e+000:1 7.099266e-005:2 7.099266e-005:3 7.099266e-005:4 7.099266e-005:5 7.099266e-005:6 
7.099266e-005:7 0.000000e+000:8 
#C 2.040639e-009 8
0.000000e+000:1 7.099266e-005:2 7.099266e-005:3 7.099266e-005:4 7.099266e-005:5 7.099266e-005:6 
7.099266e-005:7 0.000000e+000:8 
#C 2.099023e-009 8
0.000000e+000:1 7.099266e-005:2 7.099266e-005:3 7.099266e-005:4 7.099266e-005:5 7.099266e-005:6 
7.099266e-005:7 0.000000e+000:8 
#C 2.128216e-009 8
0.000000e+000:1 7.099266e-005:2 7.099266e-005:3 7.099266e-005:4 7.099266e-005:5 7.099266e-005:6 
7.099266e-005:7 0.000000e+000:8 
#C 2.157408e-009 8
0.000000e+000:1 7.099266e-005:2 7.099266e-005:3 7.099266e-005:4 7.099266e-005:5 7.099266e-005:6 
7.099266e-005:7 0.000000e+000:8 
#C 2.186600e-009 8
0.000000e+000:1 7.099266e-005:2 7.099266e-005:3 7.099266e-005:4 7.099266e-005:5 7.099266e-005:6 
7.099266e-005:7 0.000000e+000:8 
#C 2.215793e-009 8
0.000000e+000:1 7.099266e-005:2 7.099266e-005:3 7.099266e-005:4 7.099266e-005:5 7.099266e-005:6 
7.099266e-005:7 0.000000e+000:8 
#C 2.274177e-009 8
0.000000e+000:1 7.099266e-005:2 7.099266e-005:3 7.099266e-005:4 7.099266e-005:5 7.099266e-005:6 
7.099266e-005:7 0.000000e+000:8 
#C 2.303370e-009 8
0.000000e+000:1 7.099266e-005:2 7.099266e-005:3 7.099266e-005:4 7.099266e-005:5 7.099266e-005:6 
7.099266e-005:7 0.000000e+000:8 
#C 2.332562e-009 8
0.000000e+000:1 7.099266e-005:2 7.099266e-005:3 7.099266e-005:4 7.099266e-005:5 7.099266e-005:6 
7.099266e-005:7 0.000000e+000:8 
#C 2.354177e-009 8
0.000000e+000:1 7.099266e-005:2 7.099266e-005:3 7.099266e-005:4 7.099266e-005:5 7.099266e-005:6 
7.099266e-005:7 0.000000e+000:8 
#C 2.383370e-009 8
0.000000e+000:1 7.099266e-005:2 7.099266e-005:3 7.099266e-005:4 7.099266e-005:5 7.099266e-005:6 
7.099266e-005:7 0.000000e+000:8 
#C 2.412562e-009 8
0.000000e+000:1 7.099266e-005:2 7.099266e-005:3 7.099266e-005:4 7.099266e-005:5 7.099266e-005:6 
7.099266e-005:7 0.000000e+000:8 
#C 2.434177e-009 8
0.000000e+000:1 7.099266e-005:2 7.099266e-005:3 7.099266e-005:4 7.099266e-005:5 7.099266e-005:6 
7.099266e-005:7 0.000000e+000:8 
#C 2.463370e-009 8
0.000000e+000:1 7.099266e-005:2 7.099266e-005:3 7.099266e-005:4 7.099266e-005:5 7.099266e-005:6 
7.099266e-005:7 0.000000e+000:8 
#C 2.492562e-009 8
0.000000e+000:1 7.099266e-005:2 7.099266e-005:3 7.099266e-005:4 7.099266e-005:5 7.099266e-005:6 
7.099266e-005:7 0.000000e+000:8 
#C 2.529332e-009 8
0.000000e+000:1 7.099266e-005:2 7.099266e-005:3 7.099266e-005:4 7.099266e-005:5 7.099266e-005:6 
7.099266e-005:7 0.000000e+000:8 
#C 2.566101e-009 8
0.000000e+000:1 7.099266e-005:2 7.099266e-005:3 7.099266e-005:4 7.099266e-005:5 7.099266e-005:6 
7.099266e-005:7 0.000000e+000:8 
#C 2.602870e-009 8
0.000000e+000:1 7.099266e-005:2 7.099266e-005:3 7.099266e-005:4 7.099266e-005:5 7.099266e-005:6 
7.099266e-005:7 0.000000e+000:8 
#C 2.639640e-009 8
0.000000e+000:1 7.099266e-005:2 7.099266e-005:3 7.099266e-005:4 7.099266e-005:5 7.099266e-005:6 
7.099266e-005:7 0.000000e+000:8 
#C 2.676409e-009 8
0.000000e+000:1 7.099266e-005:2 7.099266e-005:3 7.099266e-005:4 7.099266e-005:5 7.099266e-005:6 
7.099266e-005:7 0.000000e+000:8 
#C 2.713179e-009 8
0.000000e+000:1 7.099266e-005:2 7.099266e-005:3 7.099266e-005:4 7.099266e-005:5 7.099266e-005:6 
7.099266e-005:7 0.000000e+000:8 
#C 2.749948e-009 8
0.000000e+000:1 7.099266e-005:2 7.099266e-005:3 7.099266e-005:4 7.099266e-005:5 7.099266e-005:6 
7.099266e-005:7 0.000000e+000:8 
#C 2.789948e-009 8
0.000000e+000:1 7.099266e-005:2 7.099266e-005:3 7.099266e-005:4 7.099266e-005:5 7.099266e-005:6 
7.099266e-005:7 0.000000e+000:8 
#C 2.819140e-009 8
0.000000e+000:1 7.099266e-005:2 7.099266e-005:3 7.099266e-005:4 7.099266e-005:5 7.099266e-005:6 
7.099266e-005:7 0.000000e+000:8 
#C 2.848333e-009 8
0.000000e+000:1 7.099266e-005:2 7.099266e-005:3 7.099266e-005:4 7.099266e-005:5 7.099266e-005:6 
7.099266e-005:7 0.000000e+000:8 
#C 2.906718e-009 8
0.000000e+000:1 7.099266e-005:2 7.099266e-005:3 7.099266e-005:4 7.099266e-005:5 7.099266e-005:6 
7.099266e-005:7 0.000000e+000:8 
#C 2.935910e-009 8
0.000000e+000:1 7.099266e-005:2 7.099266e-005:3 7.099266e-005:4 7.099266e-005:5 7.099266e-005:6 
7.099266e-005:7 0.000000e+000:8 
#C 2.975910e-009 8
0.000000e+000:1 7.099266e-005:2 7.099266e-005:3 7.099266e-005:4 7.099266e-005:5 7.099266e-005:6 
7.099266e-005:7 0.000000e+000:8 
#C 3.005102e-009 8
0.000000e+000:1 7.099266e-005:2 7.099266e-005:3 7.099266e-005:4 7.099266e-005:5 7.099266e-005:6 
7.099266e-005:7 0.000000e+000:8 
#C 3.034295e-009 8
0.000000e+000:1 7.099266e-005:2 7.099266e-005:3 7.099266e-005:4 7.099266e-005:5 7.099266e-005:6 
7.099266e-005:7 0.000000e+000:8 
#C 3.092679e-009 8
0.000000e+000:1 7.099266e-005:2 7.099266e-005:3 7.099266e-005:4 7.099266e-005:5 7.099266e-005:6 
7.099266e-005:7 0.000000e+000:8 
#C 3.161622e-009 8
0.000000e+000:1 7.099266e-005:2 7.099266e-005:3 7.099266e-005:4 7.099266e-005:5 7.099266e-005:6 
7.099266e-005:7 0.000000e+000:8 
#C 3.230564e-009 8
0.000000e+000:1 7.099266e-005:2 7.099266e-005:3 7.099266e-005:4 7.099266e-005:5 7.099266e-005:6 
7.099266e-005:7 0.000000e+000:8 
#C 3.299507e-009 8
0.000000e+000:1 7.099266e-005:2 7.099266e-005:3 7.099266e-005:4 7.099266e-005:5 7.099266e-005:6 
7.099266e-005:7 0.000000e+000:8 
#C 3.368450e-009 8
0.000000e+000:1 7.099266e-005:2 7.099266e-005:3 7.099266e-005:4 7.099266e-005:5 7.099266e-005:6 
7.099266e-005:7 0.000000e+000:8 
#C 3.397642e-009 8
0.000000e+000:1 7.099266e-005:2 7.099266e-005:3 7.099266e-005:4 7.099266e-005:5 7.099266e-005:6 
7.099266e-005:7 0.000000e+000:8 
#C 3.426834e-009 8
0.000000e+000:1 7.099266e-005:2 7.099266e-005:3 7.099266e-005:4 7.099266e-005:5 7.099266e-005:6 
7.099266e-005:7 0.000000e+000:8 
#C 3.463604e-009 8
0.000000e+000:1 7.099266e-005:2 7.099266e-005:3 7.099266e-005:4 7.099266e-005:5 7.099266e-005:6 
7.099266e-005:7 0.000000e+000:8 
#C 3.485219e-009 8
0.000000e+000:1 7.099266e-005:2 7.099266e-005:3 7.099266e-005:4 7.099266e-005:5 7.099266e-005:6 
7.099266e-005:7 0.000000e+000:8 
#C 3.514411e-009 8
0.000000e+000:1 7.099266e-005:2 7.099266e-005:3 7.099266e-005:4 7.099266e-005:5 7.099266e-005:6 
7.099266e-005:7 0.000000e+000:8 
#C 3.543604e-009 8
0.000000e+000:1 7.099266e-005:2 7.099266e-005:3 7.099266e-005:4 7.099266e-005:5 7.099266e-005:6 
7.099266e-005:7 0.000000e+000:8 
#C 3.565219e-009 8
0.000000e+000:1 7.099266e-005:2 7.099266e-005:3 7.099266e-005:4 7.099266e-005:5 7.099266e-005:6 
7.099266e-005:7 0.000000e+000:8 
#C 3.594411e-009 8
0.000000e+000:1 7.099266e-005:2 7.099266e-005:3 7.099266e-005:4 7.099266e-005:5 7.099266e-005:6 
7.099266e-005:7 0.000000e+000:8 
#C 3.623604e-009 8
0.000000e+000:1 7.099266e-005:2 7.099266e-005:3 7.099266e-005:4 7.099266e-005:5 7.099266e-005:6 
7.099266e-005:7 0.000000e+000:8 
#C 3.660373e-009 8
0.000000e+000:1 7.099266e-005:2 7.099266e-005:3 7.099266e-005:4 7.099266e-005:5 7.099266e-005:6 
7.099266e-005:7 0.000000e+000:8 
#C 3.697143e-009 8
0.000000e+000:1 7.099266e-005:2 7.099266e-005:3 7.099266e-005:4 7.099266e-005:5 7.099266e-005:6 
7.099266e-005:7 0.000000e+000:8 
#C 3.733912e-009 8
0.000000e+000:1 7.099266e-005:2 7.099266e-005:3 7.099266e-005:4 7.099266e-005:5 7.099266e-005:6 
7.099266e-005:7 0.000000e+000:8 
#C 3.770681e-009 8
0.000000e+000:1 7.099266e-005:2 7.099266e-005:3 7.099266e-005:4 7.099266e-005:5 7.099266e-005:6 
7.099266e-005:7 0.000000e+000:8 
#C 3.807451e-009 8
0.000000e+000:1 7.099266e-005:2 7.099266e-005:3 7.099266e-005:4 7.099266e-005:5 7.099266e-005:6 
7.099266e-005:7 0.000000e+000:8 
#C 3.844220e-009 8
0.000000e+000:1 7.099266e-005:2 7.099266e-005:3 7.099266e-005:4 7.099266e-005:5 7.099266e-005:6 
7.099266e-005:7 0.000000e+000:8 
#C 3.880990e-009 8
0.000000e+000:1 7.099266e-005:2 7.099266e-005:3 7.099266e-005:4 7.099266e-005:5 7.099266e-005:6 
7.099266e-005:7 0.000000e+000:8 
#C 3.917759e-009 8
0.000000e+000:1 7.099266e-005:2 7.099266e-005:3 7.099266e-005:4 7.099266e-005:5 7.099266e-005:6 
7.099266e-005:7 0.000000e+000:8 
#C 3.954528e-009 8
0.000000e+000:1 7.099266e-005:2 7.099266e-005:3 7.099266e-005:4 7.099266e-005:5 7.099266e-005:6 
7.099266e-005:7 0.000000e+000:8 
#C 4.023471e-009 8
0.000000e+000:1 7.099266e-005:2 7.099266e-005:3 7.099266e-005:4 7.099266e-005:5 7.099266e-005:6 
7.099266e-005:7 0.000000e+000:8 
#C 4.052663e-009 8
0.000000e+000:1 7.099266e-005:2 7.099266e-005:3 7.099266e-005:4 7.099266e-005:5 7.099266e-005:6 
7.099266e-005:7 0.000000e+000:8 
#C 4.081856e-009 8
0.000000e+000:1 7.099266e-005:2 7.099266e-005:3 7.099266e-005:4 7.099266e-005:5 7.099266e-005:6 
7.099266e-005:7 0.000000e+000:8 
#C 4.118625e-009 8
0.000000e+000:1 7.099266e-005:2 7.099266e-005:3 7.099266e-005:4 7.099266e-005:5 7.099266e-005:6 
7.099266e-005:7 0.000000e+000:8 
#C 4.140240e-009 8
0.000000e+000:1 7.099266e-005:2 7.099266e-005:3 7.099266e-005:4 7.099266e-005:5 7.099266e-005:6 
7.099266e-005:7 0.000000e+000:8 
#C 4.173779e-009 8
0.000000e+000:1 7.099266e-005:2 7.099266e-005:3 7.099266e-005:4 7.099266e-005:5 7.099266e-005:6 
7.099266e-005:7 0.000000e+000:8 
#C 4.202090e-009 8
0.000000e+000:1 7.099266e-005:2 7.099266e-005:3 7.099266e-005:4 7.099266e-005:5 7.099266e-005:6 
7.099266e-005:7 0.000000e+000:8 
#C 4.235333e-009 8
0.000000e+000:1 7.099266e-005:2 7.099266e-005:3 7.099266e-005:4 7.099266e-005:5 7.099266e-005:6 
7.099266e-005:7 0.000000e+000:8 
#C 4.268576e-009 8
0.000000e+000:1 7.099266e-005:2 7.099266e-005:3 7.099266e-005:4 7.099266e-005:5 7.099266e-005:6 
7.099266e-005:7 0.000000e+000:8 
#C 4.301819e-009 8
0.000000e+000:1 7.099266e-005:2 7.099266e-005:3 7.099266e-005:4 7.099266e-005:5 7.099266e-005:6 
7.099266e-005:7 0.000000e+000:8 
#C 4.335062e-009 8
0.000000e+000:1 7.099266e-005:2 7.099266e-005:3 7.099266e-005:4 7.099266e-005:5 7.099266e-005:6 
7.099266e-005:7 0.000000e+000:8 
#C 4.368306e-009 8
0.000000e+000:1 7.099266e-005:2 7.099266e-005:3 7.099266e-005:4 7.099266e-005:5 7.099266e-005:6 
7.099266e-005:7 0.000000e+000:8 
#C 4.401549e-009 8
0.000000e+000:1 7.099266e-005:2 7.099266e-005:3 7.099266e-005:4 7.099266e-005:5 7.099266e-005:6 
7.099266e-005:7 0.000000e+000:8 
#C 4.434792e-009 8
0.000000e+000:1 7.099266e-005:2 7.099266e-005:3 7.099266e-005:4 7.099266e-005:5 7.099266e-005:6 
7.099266e-005:7 0.000000e+000:8 
#C 4.501278e-009 8
0.000000e+000:1 7.099266e-005:2 7.099266e-005:3 7.099266e-005:4 7.099266e-005:5 7.099266e-005:6 
7.099266e-005:7 0.000000e+000:8 
#C 4.530470e-009 8
0.000000e+000:1 7.099266e-005:2 7.099266e-005:3 7.099266e-005:4 7.099266e-005:5 7.099266e-005:6 
7.099266e-005:7 0.000000e+000:8 
#C 4.559663e-009 8
0.000000e+000:1 7.099266e-005:2 7.099266e-005:3 7.099266e-005:4 7.099266e-005:5 7.099266e-005:6 
7.099266e-005:7 0.000000e+000:8 
#C 4.618047e-009 8
0.000000e+000:1 7.099266e-005:2 7.099266e-005:3 7.099266e-005:4 7.099266e-005:5 7.099266e-005:6 
7.099266e-005:7 0.000000e+000:8 
#C 4.647240e-009 8
0.000000e+000:1 7.099266e-005:2 7.099266e-005:3 7.099266e-005:4 7.099266e-005:5 7.099266e-005:6 
7.099266e-005:7 0.000000e+000:8 
#C 4.676432e-009 8
0.000000e+000:1 7.099266e-005:2 7.099266e-005:3 7.099266e-005:4 7.099266e-005:5 7.099266e-005:6 
7.099266e-005:7 0.000000e+000:8 
#C 4.705624e-009 8
0.000000e+000:1 7.099266e-005:2 7.099266e-005:3 7.099266e-005:4 7.099266e-005:5 7.099266e-005:6 
7.099266e-005:7 0.000000e+000:8 
#C 4.734817e-009 8
0.000000e+000:1 7.099266e-005:2 7.099266e-005:3 7.099266e-005:4 7.099266e-005:5 7.099266e-005:6 
7.099266e-005:7 0.000000e+000:8 
#C 4.793201e-009 8
0.000000e+000:1 7.099266e-005:2 7.099266e-005:3 7.099266e-005:4 7.099266e-005:5 7.099266e-005:6 
7.099266e-005:7 0.000000e+000:8 
#C 4.822394e-009 8
0.000000e+000:1 7.099266e-005:2 7.099266e-005:3 7.099266e-005:4 7.099266e-005:5 7.099266e-005:6 
7.099266e-005:7 0.000000e+000:8 
#C 4.851586e-009 8
0.000000e+000:1 7.099266e-005:2 7.099266e-005:3 7.099266e-005:4 7.099266e-005:5 7.099266e-005:6 
7.099266e-005:7 0.000000e+000:8 
#C 4.873201e-009 8
0.000000e+000:1 7.099266e-005:2 7.099266e-005:3 7.099266e-005:4 7.099266e-005:5 7.099266e-005:6 
7.099266e-005:7 0.000000e+000:8 
#C 4.902394e-009 8
