#H
SOURCE='IsSpice4'	VERSION='ver. 8.11-SI-1.0.3   10/6/2010'
TITLE='* Thu Oct 29 20:49:59 2015, Generated by: 010328058, Server: None, Windows, INSTALLED_SOFTWARE_VERSION: 2015.07 Build 6, Engine: 2015.07rc1, GUI: 2015.07rc1'
SUBTITLE='pc'
TIME='20:50:28' DATE='Oct 29, 2015' TEMPERATURE='373.15'
ANALYSIS='Trans'	SERIALNO='01234567'
ALLVALUES='NO' COMPLEXVALUES='NO' NODES='9'
SWEEPVAR='time' SWEEPMODE='VAR_STEP' DGTLDATA='NO'
XBEGIN='0.000000e+000' XEND='2.590000e-007'
FORMAT='0 VOLTSorAMPS;EFLOAT : NODEorBRANCH;NODE'
#N
'V(v_stimulus)'
'V(controller_pad)'
'V(io0_pad)'
'V(io1_pad)'
'V(controller_pin)'
'V(io0_pin)'
'V(io1_pin)'
'V(io0_z)'
'V(io1_z)'
#U
'Volts'
'Volts'
'Volts'
'Volts'
'Volts'
'Volts'
'Volts'
'Volts'
'Volts'
#C 0.000000e+000 9
0.000000e+000:1 9.998222e-005:2 9.997521e-005:3 9.997521e-005:4 9.997755e-005:5 9.997755e-005:6 
9.997755e-005:7 0.000000e+000:8 0.000000e+000:9 
#C 2.560000e-011 9
0.000000e+000:1 9.998222e-005:2 9.997521e-005:3 9.997521e-005:4 9.997755e-005:5 9.997755e-005:6 
9.997755e-005:7 0.000000e+000:8 0.000000e+000:9 
#C 5.440000e-011 9
0.000000e+000:1 9.998222e-005:2 9.997521e-005:3 9.997521e-005:4 9.997755e-005:5 9.997755e-005:6 
9.997755e-005:7 0.000000e+000:8 0.000000e+000:9 
#C 8.320000e-011 9
0.000000e+000:1 9.998222e-005:2 9.997521e-005:3 9.997521e-005:4 9.997755e-005:5 9.997755e-005:6 
9.997755e-005:7 0.000000e+000:8 0.000000e+000:9 
#C 1.088000e-010 9
0.000000e+000:1 9.998222e-005:2 9.997521e-005:3 9.997521e-005:4 9.997755e-005:5 9.997755e-005:6 
9.997755e-005:7 0.000000e+000:8 0.000000e+000:9 
#C 1.600000e-010 9
0.000000e+000:1 9.998222e-005:2 9.997521e-005:3 9.997521e-005:4 9.997755e-005:5 9.997755e-005:6 
9.997755e-005:7 0.000000e+000:8 0.000000e+000:9 
#C 2.442591e-010 9
0.000000e+000:1 9.998222e-005:2 9.997521e-005:3 9.997521e-005:4 9.997755e-005:5 9.997755e-005:6 
9.997755e-005:7 0.000000e+000:8 0.000000e+000:9 
#C 3.285183e-010 9
0.000000e+000:1 9.998222e-005:2 9.997521e-005:3 9.997521e-005:4 9.997755e-005:5 9.997755e-005:6 
9.997755e-005:7 0.000000e+000:8 0.000000e+000:9 
#C 4.127774e-010 9
0.000000e+000:1 9.998222e-005:2 9.997521e-005:3 9.997521e-005:4 9.997755e-005:5 9.997755e-005:6 
9.997755e-005:7 0.000000e+000:8 0.000000e+000:9 
#C 4.970366e-010 9
0.000000e+000:1 9.998222e-005:2 9.997521e-005:3 9.997521e-005:4 9.997755e-005:5 9.997755e-005:6 
9.997755e-005:7 0.000000e+000:8 0.000000e+000:9 
#C 5.812957e-010 9
0.000000e+000:1 9.998222e-005:2 9.997521e-005:3 9.997521e-005:4 9.997755e-005:5 9.997755e-005:6 
9.997755e-005:7 0.000000e+000:8 0.000000e+000:9 
#C 6.655549e-010 9
0.000000e+000:1 9.998222e-005:2 9.997521e-005:3 9.997521e-005:4 9.997755e-005:5 9.997755e-005:6 
9.997755e-005:7 0.000000e+000:8 0.000000e+000:9 
#C 7.498140e-010 9
0.000000e+000:1 9.998222e-005:2 9.997521e-005:3 9.997521e-005:4 9.997755e-005:5 9.997755e-005:6 
9.997755e-005:7 0.000000e+000:8 0.000000e+000:9 
#C 8.340732e-010 9
0.000000e+000:1 9.998222e-005:2 9.997521e-005:3 9.997521e-005:4 9.997755e-005:5 9.997755e-005:6 
9.997755e-005:7 0.000000e+000:8 0.000000e+000:9 
#C 9.183323e-010 9
0.000000e+000:1 9.998222e-005:2 9.997521e-005:3 9.997521e-005:4 9.997755e-005:5 9.997755e-005:6 
9.997755e-005:7 0.000000e+000:8 0.000000e+000:9 
#C 9.400588e-010 9
0.000000e+000:1 9.998222e-005:2 9.997521e-005:3 9.997521e-005:4 9.997755e-005:5 9.997755e-005:6 
9.997755e-005:7 0.000000e+000:8 0.000000e+000:9 
#C 9.617853e-010 9
0.000000e+000:1 9.998222e-005:2 9.997521e-005:3 9.997521e-005:4 9.997755e-005:5 9.997755e-005:6 
9.997755e-005:7 0.000000e+000:8 0.000000e+000:9 
#C 9.825033e-010 9
0.000000e+000:1 9.998222e-005:2 9.997521e-005:3 9.997521e-005:4 9.997755e-005:5 9.997755e-005:6 
9.997755e-005:7 0.000000e+000:8 0.000000e+000:9 
#C 1.008691e-009 9
0.000000e+000:1 9.998222e-005:2 9.997521e-005:3 9.997521e-005:4 9.997755e-005:5 9.997755e-005:6 
9.997755e-005:7 0.000000e+000:8 0.000000e+000:9 
#C 1.033443e-009 9
0.000000e+000:1 9.998222e-005:2 9.997521e-005:3 9.997521e-005:4 9.997755e-005:5 9.997755e-005:6 
9.997755e-005:7 0.000000e+000:8 0.000000e+000:9 
#C 1.055170e-009 9
0.000000e+000:1 9.998222e-005:2 9.997521e-005:3 9.997521e-005:4 9.997755e-005:5 9.997755e-005:6 
9.997755e-005:7 0.000000e+000:8 0.000000e+000:9 
#C 1.091717e-009 9
0.000000e+000:1 9.998222e-005:2 9.997521e-005:3 9.997521e-005:4 9.997755e-005:5 9.997755e-005:6 
9.997755e-005:7 0.000000e+000:8 0.000000e+000:9 
#C 1.113443e-009 9
0.000000e+000:1 9.998222e-005:2 9.997521e-005:3 9.997521e-005:4 9.997755e-005:5 9.997755e-005:6 
9.997755e-005:7 0.000000e+000:8 0.000000e+000:9 
#C 1.135170e-009 9
0.000000e+000:1 9.998222e-005:2 9.997521e-005:3 9.997521e-005:4 9.997755e-005:5 9.997755e-005:6 
9.997755e-005:7 0.000000e+000:8 0.000000e+000:9 
#C 1.171717e-009 9
0.000000e+000:1 9.998222e-005:2 9.997521e-005:3 9.997521e-005:4 9.997755e-005:5 9.997755e-005:6 
9.997755e-005:7 0.000000e+000:8 0.000000e+000:9 
#C 1.193443e-009 9
0.000000e+000:1 9.998222e-005:2 9.997521e-005:3 9.997521e-005:4 9.997755e-005:5 9.997755e-005:6 
9.997755e-005:7 0.000000e+000:8 0.000000e+000:9 
#C 1.215170e-009 9
0.000000e+000:1 9.998222e-005:2 9.997521e-005:3 9.997521e-005:4 9.997755e-005:5 9.997755e-005:6 
9.997755e-005:7 0.000000e+000:8 0.000000e+000:9 
#C 1.236896e-009 9
0.000000e+000:1 9.998222e-005:2 9.997521e-005:3 9.997521e-005:4 9.997755e-005:5 9.997755e-005:6 
9.997755e-005:7 0.000000e+000:8 0.000000e+000:9 
#C 1.257614e-009 9
0.000000e+000:1 9.998222e-005:2 9.997521e-005:3 9.997521e-005:4 9.997755e-005:5 9.997755e-005:6 
9.997755e-005:7 0.000000e+000:8 0.000000e+000:9 
#C 1.285238e-009 9
0.000000e+000:1 9.998222e-005:2 9.997521e-005:3 9.997521e-005:4 9.997755e-005:5 9.997755e-005:6 
9.997755e-005:7 0.000000e+000:8 0.000000e+000:9 
#C 1.309990e-009 9
0.000000e+000:1 9.998222e-005:2 9.997521e-005:3 9.997521e-005:4 9.997755e-005:5 9.997755e-005:6 
9.997755e-005:7 0.000000e+000:8 0.000000e+000:9 
#C 1.331717e-009 9
0.000000e+000:1 9.998222e-005:2 9.997521e-005:3 9.997521e-005:4 9.997755e-005:5 9.997755e-005:6 
9.997755e-005:7 0.000000e+000:8 0.000000e+000:9 
#C 1.353443e-009 9
0.000000e+000:1 9.998222e-005:2 9.997521e-005:3 9.997521e-005:4 9.997755e-005:5 9.997755e-005:6 
9.997755e-005:7 0.000000e+000:8 0.000000e+000:9 
#C 1.375170e-009 9
0.000000e+000:1 9.998222e-005:2 9.997521e-005:3 9.997521e-005:4 9.997755e-005:5 9.997755e-005:6 
9.997755e-005:7 0.000000e+000:8 0.000000e+000:9 
#C 1.396896e-009 9
0.000000e+000:1 9.998222e-005:2 9.997521e-005:3 9.997521e-005:4 9.997755e-005:5 9.997755e-005:6 
9.997755e-005:7 0.000000e+000:8 0.000000e+000:9 
#C 1.418623e-009 9
0.000000e+000:1 9.998222e-005:2 9.997521e-005:3 9.997521e-005:4 9.997755e-005:5 9.997755e-005:6 
9.997755e-005:7 0.000000e+000:8 0.000000e+000:9 
#C 1.440349e-009 9
0.000000e+000:1 9.998222e-005:2 9.997521e-005:3 9.997521e-005:4 9.997755e-005:5 9.997755e-005:6 
9.997755e-005:7 0.000000e+000:8 0.000000e+000:9 
#C 1.461067e-009 9
0.000000e+000:1 9.998222e-005:2 9.997521e-005:3 9.997521e-005:4 9.997755e-005:5 9.997755e-005:6 
9.997755e-005:7 0.000000e+000:8 0.000000e+000:9 
#C 1.488691e-009 9
0.000000e+000:1 9.998222e-005:2 9.997521e-005:3 9.997521e-005:4 9.997755e-005:5 9.997755e-005:6 
9.997755e-005:7 0.000000e+000:8 0.000000e+000:9 
#C 1.513443e-009 9
0.000000e+000:1 9.998222e-005:2 9.997521e-005:3 9.997521e-005:4 9.997755e-005:5 9.997755e-005:6 
9.997755e-005:7 0.000000e+000:8 0.000000e+000:9 
#C 1.535170e-009 9
0.000000e+000:1 9.998222e-005:2 9.997521e-005:3 9.997521e-005:4 9.997755e-005:5 9.997755e-005:6 
9.997755e-005:7 0.000000e+000:8 0.000000e+000:9 
#C 1.556896e-009 9
0.000000e+000:1 9.998222e-005:2 9.997521e-005:3 9.997521e-005:4 9.997755e-005:5 9.997755e-005:6 
9.997755e-005:7 0.000000e+000:8 0.000000e+000:9 
#C 1.578623e-009 9
0.000000e+000:1 9.998222e-005:2 9.997521e-005:3 9.997521e-005:4 9.997755e-005:5 9.997755e-005:6 
9.997755e-005:7 0.000000e+000:8 0.000000e+000:9 
#C 1.600349e-009 9
0.000000e+000:1 9.998222e-005:2 9.997521e-005:3 9.997521e-005:4 9.997755e-005:5 9.997755e-005:6 
9.997755e-005:7 0.000000e+000:8 0.000000e+000:9 
#C 1.622076e-009 9
0.000000e+000:1 9.998222e-005:2 9.997521e-005:3 9.997521e-005:4 9.997755e-005:5 9.997755e-005:6 
9.997755e-005:7 0.000000e+000:8 0.000000e+000:9 
#C 1.643802e-009 9
0.000000e+000:1 9.998222e-005:2 9.997521e-005:3 9.997521e-005:4 9.997755e-005:5 9.997755e-005:6 
9.997755e-005:7 0.000000e+000:8 0.000000e+000:9 
#C 1.664520e-009 9
0.000000e+000:1 9.998222e-005:2 9.997521e-005:3 9.997521e-005:4 9.997755e-005:5 9.997755e-005:6 
9.997755e-005:7 0.000000e+000:8 0.000000e+000:9 
#C 1.692144e-009 9
0.000000e+000:1 9.998222e-005:2 9.997521e-005:3 9.997521e-005:4 9.997755e-005:5 9.997755e-005:6 
9.997755e-005:7 0.000000e+000:8 0.000000e+000:9 
#C 1.716896e-009 9
0.000000e+000:1 9.998222e-005:2 9.997521e-005:3 9.997521e-005:4 9.997755e-005:5 9.997755e-005:6 
9.997755e-005:7 0.000000e+000:8 0.000000e+000:9 
#C 1.738623e-009 9
0.000000e+000:1 9.998222e-005:2 9.997521e-005:3 9.997521e-005:4 9.997755e-005:5 9.997755e-005:6 
9.997755e-005:7 0.000000e+000:8 0.000000e+000:9 
#C 1.760349e-009 9
0.000000e+000:1 9.998222e-005:2 9.997521e-005:3 9.997521e-005:4 9.997755e-005:5 9.997755e-005:6 
9.997755e-005:7 0.000000e+000:8 0.000000e+000:9 
#C 1.782076e-009 9
0.000000e+000:1 9.998222e-005:2 9.997521e-005:3 9.997521e-005:4 9.997755e-005:5 9.997755e-005:6 
9.997755e-005:7 0.000000e+000:8 0.000000e+000:9 
#C 1.803802e-009 9
0.000000e+000:1 9.998222e-005:2 9.997521e-005:3 9.997521e-005:4 9.997755e-005:5 9.997755e-005:6 
9.997755e-005:7 0.000000e+000:8 0.000000e+000:9 
#C 1.824520e-009 9
0.000000e+000:1 9.998222e-005:2 9.997521e-005:3 9.997521e-005:4 9.997755e-005:5 9.997755e-005:6 
9.997755e-005:7 0.000000e+000:8 0.000000e+000:9 
#C 1.852144e-009 9
0.000000e+000:1 9.998222e-005:2 9.997521e-005:3 9.997521e-005:4 9.997755e-005:5 9.997755e-005:6 
9.997755e-005:7 0.000000e+000:8 0.000000e+000:9 
#C 1.882640e-009 9
0.000000e+000:1 9.998222e-005:2 9.997521e-005:3 9.997521e-005:4 9.997755e-005:5 9.997755e-005:6 
9.997755e-005:7 0.000000e+000:8 0.000000e+000:9 
#C 1.922640e-009 9
0.000000e+000:1 9.998222e-005:2 9.997521e-005:3 9.997521e-005:4 9.997755e-005:5 9.997755e-005:6 
9.997755e-005:7 0.000000e+000:8 0.000000e+000:9 
#C 1.944366e-009 9
0.000000e+000:1 9.998222e-005:2 9.997521e-005:3 9.997521e-005:4 9.997755e-005:5 9.997755e-005:6 
9.997755e-005:7 0.000000e+000:8 0.000000e+000:9 
#C 1.966093e-009 9
0.000000e+000:1 9.998222e-005:2 9.997521e-005:3 9.997521e-005:4 9.997755e-005:5 9.997755e-005:6 
9.997755e-005:7 0.000000e+000:8 0.000000e+000:9 
#C 1.986811e-009 9
0.000000e+000:1 9.998222e-005:2 9.997521e-005:3 9.997521e-005:4 9.997755e-005:5 9.997755e-005:6 
9.997755e-005:7 0.000000e+000:8 0.000000e+000:9 
#C 2.014435e-009 9
0.000000e+000:1 9.998222e-005:2 9.997521e-005:3 9.997521e-005:4 9.997755e-005:5 9.997755e-005:6 
9.997755e-005:7 0.000000e+000:8 0.000000e+000:9 
#C 2.044930e-009 9
0.000000e+000:1 9.998222e-005:2 9.997521e-005:3 9.997521e-005:4 9.997755e-005:5 9.997755e-005:6 
9.997755e-005:7 0.000000e+000:8 0.000000e+000:9 
#C 2.084930e-009 9
0.000000e+000:1 9.998222e-005:2 9.997521e-005:3 9.997521e-005:4 9.997755e-005:5 9.997755e-005:6 
9.997755e-005:7 0.000000e+000:8 0.000000e+000:9 
#C 2.106657e-009 9
0.000000e+000:1 9.998222e-005:2 9.997521e-005:3 9.997521e-005:4 9.997755e-005:5 9.997755e-005:6 
9.997755e-005:7 0.000000e+000:8 0.000000e+000:9 
#C 2.128383e-009 9
0.000000e+000:1 9.998222e-005:2 9.997521e-005:3 9.997521e-005:4 9.997755e-005:5 9.997755e-005:6 
9.997755e-005:7 0.000000e+000:8 0.000000e+000:9 
#C 2.149101e-009 9
0.000000e+000:1 9.998222e-005:2 9.997521e-005:3 9.997521e-005:4 9.997755e-005:5 9.997755e-005:6 
9.997755e-005:7 0.000000e+000:8 0.000000e+000:9 
#C 2.175289e-009 9
0.000000e+000:1 9.998222e-005:2 9.997521e-005:3 9.997521e-005:4 9.997755e-005:5 9.997755e-005:6 
9.997755e-005:7 0.000000e+000:8 0.000000e+000:9 
#C 2.205785e-009 9
0.000000e+000:1 9.998222e-005:2 9.997521e-005:3 9.997521e-005:4 9.997755e-005:5 9.997755e-005:6 
9.997755e-005:7 0.000000e+000:8 0.000000e+000:9 
#C 2.251529e-009 9
0.000000e+000:1 9.998222e-005:2 9.997521e-005:3 9.997521e-005:4 9.997755e-005:5 9.997755e-005:6 
9.997755e-005:7 0.000000e+000:8 0.000000e+000:9 
#C 2.312520e-009 9
0.000000e+000:1 9.998222e-005:2 9.997521e-005:3 9.997521e-005:4 9.997755e-005:5 9.997755e-005:6 
9.997755e-005:7 0.000000e+000:8 0.000000e+000:9 
#C 2.334246e-009 9
0.000000e+000:1 9.998222e-005:2 9.997521e-005:3 9.997521e-005:4 9.997755e-005:5 9.997755e-005:6 
9.997755e-005:7 0.000000e+000:8 0.000000e+000:9 
#C 2.355973e-009 9
0.000000e+000:1 9.998222e-005:2 9.997521e-005:3 9.997521e-005:4 9.997755e-005:5 9.997755e-005:6 
9.997755e-005:7 0.000000e+000:8 0.000000e+000:9 
#C 2.376691e-009 9
0.000000e+000:1 9.998222e-005:2 9.997521e-005:3 9.997521e-005:4 9.997755e-005:5 9.997755e-005:6 
9.997755e-005:7 0.000000e+000:8 0.000000e+000:9 
#C 2.402879e-009 9
0.000000e+000:1 9.998222e-005:2 9.997521e-005:3 9.997521e-005:4 9.997755e-005:5 9.997755e-005:6 
9.997755e-005:7 0.000000e+000:8 0.000000e+000:9 
#C 2.427631e-009 9
0.000000e+000:1 9.998222e-005:2 9.997521e-005:3 9.997521e-005:4 9.997755e-005:5 9.997755e-005:6 
9.997755e-005:7 0.000000e+000:8 0.000000e+000:9 
#C 2.449357e-009 9
0.000000e+000:1 9.998222e-005:2 9.997521e-005:3 9.997521e-005:4 9.997755e-005:5 9.997755e-005:6 
9.997755e-005:7 0.000000e+000:8 0.000000e+000:9 
#C 2.471084e-009 9
0.000000e+000:1 9.998222e-005:2 9.997521e-005:3 9.997521e-005:4 9.997755e-005:5 9.997755e-005:6 
9.997755e-005:7 0.000000e+000:8 0.000000e+000:9 
#C 2.492810e-009 9
0.000000e+000:1 9.998222e-005:2 9.997521e-005:3 9.997521e-005:4 9.997755e-005:5 9.997755e-005:6 
9.997755e-005:7 0.000000e+000:8 0.000000e+000:9 
#C 2.514537e-009 9
0.000000e+000:1 9.998222e-005:2 9.997521e-005:3 9.997521e-005:4 9.997755e-005:5 9.997755e-005:6 
9.997755e-005:7 0.000000e+000:8 0.000000e+000:9 
#C 2.535255e-009 9
0.000000e+000:1 9.998222e-005:2 9.997521e-005:3 9.997521e-005:4 9.997755e-005:5 9.997755e-005:6 
9.997755e-005:7 0.000000e+000:8 0.000000e+000:9 
#C 2.562879e-009 9
0.000000e+000:1 9.998222e-005:2 9.997521e-005:3 9.997521e-005:4 9.997755e-005:5 9.997755e-005:6 
9.997755e-005:7 0.000000e+000:8 0.000000e+000:9 
#C 2.587631e-009 9
0.000000e+000:1 9.998222e-005:2 9.997521e-005:3 9.997521e-005:4 9.997755e-005:5 9.997755e-005:6 
9.997755e-005:7 0.000000e+000:8 0.000000e+000:9 
#C 2.609357e-009 9
0.000000e+000:1 9.998222e-005:2 9.997521e-005:3 9.997521e-005:4 9.997755e-005:5 9.997755e-005:6 
9.997755e-005:7 0.000000e+000:8 0.000000e+000:9 
#C 2.631084e-009 9
0.000000e+000:1 9.998222e-005:2 9.997521e-005:3 9.997521e-005:4 9.997755e-005:5 9.997755e-005:6 
9.997755e-005:7 0.000000e+000:8 0.000000e+000:9 
#C 2.652810e-009 9
0.000000e+000:1 9.998222e-005:2 9.997521e-005:3 9.997521e-005:4 9.997755e-005:5 9.997755e-005:6 
9.997755e-005:7 0.000000e+000:8 0.000000e+000:9 
#C 2.674537e-009 9
0.000000e+000:1 9.998222e-005:2 9.997521e-005:3 9.997521e-005:4 9.997755e-005:5 9.997755e-005:6 
9.997755e-005:7 0.000000e+000:8 0.000000e+000:9 
#C 2.696263e-009 9
0.000000e+000:1 9.998222e-005:2 9.997521e-005:3 9.997521e-005:4 9.997755e-005:5 9.997755e-005:6 
9.997755e-005:7 0.000000e+000:8 0.000000e+000:9 
#C 2.717990e-009 9
0.000000e+000:1 9.998222e-005:2 9.997521e-005:3 9.997521e-005:4 9.997755e-005:5 9.997755e-005:6 
9.997755e-005:7 0.000000e+000:8 0.000000e+000:9 
#C 2.738708e-009 9
0.000000e+000:1 9.998222e-005:2 9.997521e-005:3 9.997521e-005:4 9.997755e-005:5 9.997755e-005:6 
9.997755e-005:7 0.000000e+000:8 0.000000e+000:9 
#C 2.766332e-009 9
0.000000e+000:1 9.998222e-005:2 9.997521e-005:3 9.997521e-005:4 9.997755e-005:5 9.997755e-005:6 
9.997755e-005:7 0.000000e+000:8 0.000000e+000:9 
#C 2.796827e-009 9
0.000000e+000:1 9.998222e-005:2 9.997521e-005:3 9.997521e-005:4 9.997755e-005:5 9.997755e-005:6 
9.997755e-005:7 0.000000e+000:8 0.000000e+000:9 
#C 2.827323e-009 9
0.000000e+000:1 9.998222e-005:2 9.997521e-005:3 9.997521e-005:4 9.997755e-005:5 9.997755e-005:6 
9.997755e-005:7 0.000000e+000:8 0.000000e+000:9 
#C 2.855836e-009 9
0.000000e+000:1 9.998222e-005:2 9.997521e-005:3 9.997521e-005:4 9.997755e-005:5 9.997755e-005:6 
9.997755e-005:7 0.000000e+000:8 0.000000e+000:9 
#C 2.876827e-009 9
0.000000e+000:1 9.998222e-005:2 9.997521e-005:3 9.997521e-005:4 9.997755e-005:5 9.997755e-005:6 
9.997755e-005:7 0.000000e+000:8 0.000000e+000:9 
#C 2.916827e-009 9
0.000000e+000:1 9.998222e-005:2 9.997521e-005:3 9.997521e-005:4 9.997755e-005:5 9.997755e-005:6 
9.997755e-005:7 0.000000e+000:8 0.000000e+000:9 
#C 2.956827e-009 9
0.000000e+000:1 9.998222e-005:2 9.997521e-005:3 9.997521e-005:4 9.997755e-005:5 9.997755e-005:6 
9.997755e-005:7 0.000000e+000:8 0.000000e+000:9 
#C 2.996827e-009 9
0.000000e+000:1 9.998222e-005:2 9.997521e-005:3 9.997521e-005:4 9.997755e-005:5 9.997755e-005:6 
9.997755e-005:7 0.000000e+000:8 0.000000e+000:9 
#C 3.036827e-009 9
0.000000e+000:1 9.998222e-005:2 9.997521e-005:3 9.997521e-005:4 9.997755e-005:5 9.997755e-005:6 
9.997755e-005:7 0.000000e+000:8 0.000000e+000:9 
#C 3.076827e-009 9
0.000000e+000:1 9.998222e-005:2 9.997521e-005:3 9.997521e-005:4 9.997755e-005:5 9.997755e-005:6 
9.997755e-005:7 0.000000e+000:8 0.000000e+000:9 
#C 3.116827e-009 9
0.000000e+000:1 9.998222e-005:2 9.997521e-005:3 9.997521e-005:4 9.997755e-005:5 9.997755e-005:6 
9.997755e-005:7 0.000000e+000:8 0.000000e+000:9 
#C 3.156827e-009 9
0.000000e+000:1 9.998222e-005:2 9.997521e-005:3 9.997521e-005:4 9.997755e-005:5 9.997755e-005:6 
9.997755e-005:7 0.000000e+000:8 0.000000e+000:9 
#C 3.196827e-009 9
0.000000e+000:1 9.998222e-005:2 9.997521e-005:3 9.997521e-005:4 9.997755e-005:5 9.997755e-005:6 
9.997755e-005:7 0.000000e+000:8 0.000000e+000:9 
#C 3.236827e-009 9
0.000000e+000:1 9.998222e-005:2 9.997521e-005:3 9.997521e-005:4 9.997755e-005:5 9.997755e-005:6 
9.997755e-005:7 0.000000e+000:8 0.000000e+000:9 
#C 3.276827e-009 9
0.000000e+000:1 9.998222e-005:2 9.997521e-005:3 9.997521e-005:4 9.997755e-005:5 9.997755e-005:6 
9.997755e-005:7 0.000000e+000:8 0.000000e+000:9 
#C 3.316827e-009 9
0.000000e+000:1 9.998222e-005:2 9.997521e-005:3 9.997521e-005:4 9.997755e-005:5 9.997755e-005:6 
9.997755e-005:7 0.000000e+000:8 0.000000e+000:9 
#C 3.356827e-009 9
0.000000e+000:1 9.998222e-005:2 9.997521e-005:3 9.997521e-005:4 9.997755e-005:5 9.997755e-005:6 
9.997755e-005:7 0.000000e+000:8 0.000000e+000:9 
#C 3.396827e-009 9
0.000000e+000:1 9.998222e-005:2 9.997521e-005:3 9.997521e-005:4 9.997755e-005:5 9.997755e-005:6 
9.997755e-005:7 0.000000e+000:8 0.000000e+000:9 
#C 3.436827e-009 9
0.000000e+000:1 9.998222e-005:2 9.997521e-005:3 9.997521e-005:4 9.997755e-005:5 9.997755e-005:6 
9.997755e-005:7 0.000000e+000:8 0.000000e+000:9 
#C 3.476827e-009 9
0.000000e+000:1 9.998222e-005:2 9.997521e-005:3 9.997521e-005:4 9.997755e-005:5 9.997755e-005:6 
9.997755e-005:7 0.000000e+000:8 0.000000e+000:9 
#C 3.516827e-009 9
0.000000e+000:1 9.998222e-005:2 9.997521e-005:3 9.997521e-005:4 9.997755e-005:5 9.997755e-005:6 
9.997755e-005:7 0.000000e+000:8 0.000000e+000:9 
#C 3.556827e-009 9
0.000000e+000:1 9.998222e-005:2 9.997521e-005:3 9.997521e-005:4 9.997755e-005:5 9.997755e-005:6 
9.997755e-005:7 0.000000e+000:8 0.000000e+000:9 
#C 3.596827e-009 9
0.000000e+000:1 9.998222e-005:2 9.997521e-005:3 9.997521e-005:4 9.997755e-005:5 9.997755e-005:6 
9.997755e-005:7 0.000000e+000:8 0.000000e+000:9 
#C 3.636827e-009 9
0.000000e+000:1 9.998222e-005:2 9.997521e-005:3 9.997521e-005:4 9.997755e-005:5 9.997755e-005:6 
9.997755e-005:7 0.000000e+000:8 0.000000e+000:9 
#C 3.676827e-009 9
0.000000e+000:1 9.998222e-005:2 9.997521e-005:3 9.997521e-005:4 9.997755e-005:5 9.997755e-005:6 
9.997755e-005:7 0.000000e+000:8 0.000000e+000:9 
#C 3.716827e-009 9
0.000000e+000:1 9.998222e-005:2 9.997521e-005:3 9.997521e-005:4 9.997755e-005:5 9.997755e-005:6 
9.997755e-005:7 0.000000e+000:8 0.000000e+000:9 
#C 3.756827e-009 9
0.000000e+000:1 9.998222e-005:2 9.997521e-005:3 9.997521e-005:4 9.997755e-005:5 9.997755e-005:6 
9.997755e-005:7 0.000000e+000:8 0.000000e+000:9 
#C 3.796827e-009 9
0.000000e+000:1 9.998222e-005:2 9.997521e-005:3 9.997521e-005:4 9.997755e-005:5 9.997755e-005:6 
