#H
SOURCE='IsSpice4'	VERSION='ver. 8.11-SI-1.0.3   10/6/2010'
TITLE='* Thu Nov 05 20:24:49 2015, Generated by: 010328058, Server: None, Windows, INSTALLED_SOFTWARE_VERSION: 2015.07 Build 6, Engine: 2015.07rc1, GUI: 2015.07rc1'
SUBTITLE='pc'
TIME='20:25:24' DATE='Nov 05, 2015' TEMPERATURE='273.15'
ANALYSIS='Trans'	SERIALNO='01234567'
ALLVALUES='NO' COMPLEXVALUES='NO' NODES='6'
SWEEPVAR='time' SWEEPMODE='VAR_STEP' DGTLDATA='NO'
XBEGIN='0.000000e+000' XEND='1.140000e-007'
FORMAT='0 VOLTSorAMPS;EFLOAT : NODEorBRANCH;NODE'
#N
'V(v_stimulus)'
'V(designator1_pad)'
'V(designator2_pad)'
'V(designator1_pin)'
'V(designator2_pin)'
'V(designator2_z)'
#U
'Volts'
'Volts'
'Volts'
'Volts'
'Volts'
'Volts'
#C 0.000000e+000 6
0.000000e+000:1 7.099266e-005:2 7.099266e-005:3 7.099266e-005:4 7.099266e-005:5 0.000000e+000:6 
#C 2.560000e-011 6
0.000000e+000:1 7.099266e-005:2 7.099266e-005:3 7.099266e-005:4 7.099266e-005:5 0.000000e+000:6 
#C 5.440000e-011 6
0.000000e+000:1 7.099266e-005:2 7.099266e-005:3 7.099266e-005:4 7.099266e-005:5 0.000000e+000:6 
#C 8.320000e-011 6
0.000000e+000:1 7.099266e-005:2 7.099266e-005:3 7.099266e-005:4 7.099266e-005:5 0.000000e+000:6 
#C 1.088000e-010 6
0.000000e+000:1 7.099266e-005:2 7.099266e-005:3 7.099266e-005:4 7.099266e-005:5 0.000000e+000:6 
#C 1.600000e-010 6
0.000000e+000:1 7.099266e-005:2 7.099266e-005:3 7.099266e-005:4 7.099266e-005:5 0.000000e+000:6 
#C 2.600000e-010 6
0.000000e+000:1 7.099266e-005:2 7.099266e-005:3 7.099266e-005:4 7.099266e-005:5 0.000000e+000:6 
#C 3.600000e-010 6
0.000000e+000:1 7.099266e-005:2 7.099266e-005:3 7.099266e-005:4 7.099266e-005:5 0.000000e+000:6 
#C 4.600000e-010 6
0.000000e+000:1 7.099266e-005:2 7.099266e-005:3 7.099266e-005:4 7.099266e-005:5 0.000000e+000:6 
#C 5.600000e-010 6
0.000000e+000:1 7.099266e-005:2 7.099266e-005:3 7.099266e-005:4 7.099266e-005:5 0.000000e+000:6 
#C 6.600000e-010 6
0.000000e+000:1 7.099266e-005:2 7.099266e-005:3 7.099266e-005:4 7.099266e-005:5 0.000000e+000:6 
#C 7.600000e-010 6
0.000000e+000:1 7.099266e-005:2 7.099266e-005:3 7.099266e-005:4 7.099266e-005:5 0.000000e+000:6 
#C 8.600000e-010 6
0.000000e+000:1 7.099266e-005:2 7.099266e-005:3 7.099266e-005:4 7.099266e-005:5 0.000000e+000:6 
#C 8.982521e-010 6
0.000000e+000:1 7.099266e-005:2 7.099266e-005:3 7.099266e-005:4 7.099266e-005:5 0.000000e+000:6 
#C 9.244713e-010 6
0.000000e+000:1 7.099266e-005:2 7.099266e-005:3 7.099266e-005:4 7.099266e-005:5 0.000000e+000:6 
#C 9.524384e-010 6
0.000000e+000:1 7.099266e-005:2 7.099266e-005:3 7.099266e-005:4 7.099266e-005:5 0.000000e+000:6 
#C 9.843071e-010 6
0.000000e+000:1 7.099266e-005:2 7.099266e-005:3 7.099266e-005:4 7.099266e-005:5 0.000000e+000:6 
#C 1.008701e-009 6
0.000000e+000:1 7.099266e-005:2 7.099266e-005:3 7.099266e-005:4 7.099266e-005:5 0.000000e+000:6 
#C 1.032438e-009 6
0.000000e+000:1 7.099266e-005:2 7.099266e-005:3 7.099266e-005:4 7.099266e-005:5 0.000000e+000:6 
#C 1.062337e-009 6
0.000000e+000:1 7.099266e-005:2 7.099266e-005:3 7.099266e-005:4 7.099266e-005:5 0.000000e+000:6 
#C 1.092642e-009 6
0.000000e+000:1 7.099266e-005:2 7.099266e-005:3 7.099266e-005:4 7.099266e-005:5 0.000000e+000:6 
#C 1.132642e-009 6
0.000000e+000:1 7.099266e-005:2 7.099266e-005:3 7.099266e-005:4 7.099266e-005:5 0.000000e+000:6 
#C 1.172642e-009 6
0.000000e+000:1 7.099266e-005:2 7.099266e-005:3 7.099266e-005:4 7.099266e-005:5 0.000000e+000:6 
#C 1.212642e-009 6
0.000000e+000:1 7.099266e-005:2 7.099266e-005:3 7.099266e-005:4 7.099266e-005:5 0.000000e+000:6 
#C 1.252642e-009 6
0.000000e+000:1 7.099266e-005:2 7.099266e-005:3 7.099266e-005:4 7.099266e-005:5 0.000000e+000:6 
#C 1.292642e-009 6
0.000000e+000:1 7.099266e-005:2 7.099266e-005:3 7.099266e-005:4 7.099266e-005:5 0.000000e+000:6 
#C 1.332642e-009 6
0.000000e+000:1 7.099266e-005:2 7.099266e-005:3 7.099266e-005:4 7.099266e-005:5 0.000000e+000:6 
#C 1.372642e-009 6
0.000000e+000:1 7.099266e-005:2 7.099266e-005:3 7.099266e-005:4 7.099266e-005:5 0.000000e+000:6 
#C 1.412642e-009 6
0.000000e+000:1 7.099266e-005:2 7.099266e-005:3 7.099266e-005:4 7.099266e-005:5 0.000000e+000:6 
#C 1.452642e-009 6
0.000000e+000:1 7.099266e-005:2 7.099266e-005:3 7.099266e-005:4 7.099266e-005:5 0.000000e+000:6 
#C 1.492642e-009 6
0.000000e+000:1 7.099266e-005:2 7.099266e-005:3 7.099266e-005:4 7.099266e-005:5 0.000000e+000:6 
#C 1.532642e-009 6
0.000000e+000:1 7.099266e-005:2 7.099266e-005:3 7.099266e-005:4 7.099266e-005:5 0.000000e+000:6 
#C 1.572642e-009 6
0.000000e+000:1 7.099266e-005:2 7.099266e-005:3 7.099266e-005:4 7.099266e-005:5 0.000000e+000:6 
#C 1.612642e-009 6
0.000000e+000:1 7.099266e-005:2 7.099266e-005:3 7.099266e-005:4 7.099266e-005:5 0.000000e+000:6 
#C 1.652642e-009 6
0.000000e+000:1 7.099266e-005:2 7.099266e-005:3 7.099266e-005:4 7.099266e-005:5 0.000000e+000:6 
#C 1.692642e-009 6
0.000000e+000:1 7.099266e-005:2 7.099266e-005:3 7.099266e-005:4 7.099266e-005:5 0.000000e+000:6 
#C 1.732642e-009 6
0.000000e+000:1 7.099266e-005:2 7.099266e-005:3 7.099266e-005:4 7.099266e-005:5 0.000000e+000:6 
#C 1.772642e-009 6
0.000000e+000:1 7.099266e-005:2 7.099266e-005:3 7.099266e-005:4 7.099266e-005:5 0.000000e+000:6 
#C 1.812642e-009 6
0.000000e+000:1 7.099266e-005:2 7.099266e-005:3 7.099266e-005:4 7.099266e-005:5 0.000000e+000:6 
#C 1.852642e-009 6
0.000000e+000:1 7.099266e-005:2 7.099266e-005:3 7.099266e-005:4 7.099266e-005:5 0.000000e+000:6 
#C 1.892642e-009 6
0.000000e+000:1 7.099266e-005:2 7.099266e-005:3 7.099266e-005:4 7.099266e-005:5 0.000000e+000:6 
#C 1.932642e-009 6
0.000000e+000:1 7.099266e-005:2 7.099266e-005:3 7.099266e-005:4 7.099266e-005:5 0.000000e+000:6 
#C 1.972642e-009 6
0.000000e+000:1 7.099266e-005:2 7.099266e-005:3 7.099266e-005:4 7.099266e-005:5 0.000000e+000:6 
#C 2.012642e-009 6
0.000000e+000:1 7.099266e-005:2 7.099266e-005:3 7.099266e-005:4 7.099266e-005:5 0.000000e+000:6 
#C 2.052642e-009 6
0.000000e+000:1 7.099266e-005:2 7.099266e-005:3 7.099266e-005:4 7.099266e-005:5 0.000000e+000:6 
#C 2.092642e-009 6
0.000000e+000:1 7.099266e-005:2 7.099266e-005:3 7.099266e-005:4 7.099266e-005:5 0.000000e+000:6 
#C 2.132642e-009 6
0.000000e+000:1 7.099266e-005:2 7.099266e-005:3 7.099266e-005:4 7.099266e-005:5 0.000000e+000:6 
#C 2.172642e-009 6
0.000000e+000:1 7.099266e-005:2 7.099266e-005:3 7.099266e-005:4 7.099266e-005:5 0.000000e+000:6 
#C 2.212642e-009 6
0.000000e+000:1 7.099266e-005:2 7.099266e-005:3 7.099266e-005:4 7.099266e-005:5 0.000000e+000:6 
#C 2.252642e-009 6
0.000000e+000:1 7.099266e-005:2 7.099266e-005:3 7.099266e-005:4 7.099266e-005:5 0.000000e+000:6 
#C 2.292642e-009 6
0.000000e+000:1 7.099266e-005:2 7.099266e-005:3 7.099266e-005:4 7.099266e-005:5 0.000000e+000:6 
#C 2.332642e-009 6
0.000000e+000:1 7.099266e-005:2 7.099266e-005:3 7.099266e-005:4 7.099266e-005:5 0.000000e+000:6 
#C 2.372642e-009 6
0.000000e+000:1 7.099266e-005:2 7.099266e-005:3 7.099266e-005:4 7.099266e-005:5 0.000000e+000:6 
#C 2.412642e-009 6
0.000000e+000:1 7.099266e-005:2 7.099266e-005:3 7.099266e-005:4 7.099266e-005:5 0.000000e+000:6 
#C 2.452642e-009 6
0.000000e+000:1 7.099266e-005:2 7.099266e-005:3 7.099266e-005:4 7.099266e-005:5 0.000000e+000:6 
#C 2.492642e-009 6
0.000000e+000:1 7.099266e-005:2 7.099266e-005:3 7.099266e-005:4 7.099266e-005:5 0.000000e+000:6 
#C 2.532642e-009 6
0.000000e+000:1 7.099266e-005:2 7.099266e-005:3 7.099266e-005:4 7.099266e-005:5 0.000000e+000:6 
#C 2.572642e-009 6
0.000000e+000:1 7.099266e-005:2 7.099266e-005:3 7.099266e-005:4 7.099266e-005:5 0.000000e+000:6 
#C 2.612642e-009 6
0.000000e+000:1 7.099266e-005:2 7.099266e-005:3 7.099266e-005:4 7.099266e-005:5 0.000000e+000:6 
#C 2.652642e-009 6
0.000000e+000:1 7.099266e-005:2 7.099266e-005:3 7.099266e-005:4 7.099266e-005:5 0.000000e+000:6 
#C 2.692642e-009 6
0.000000e+000:1 7.099266e-005:2 7.099266e-005:3 7.099266e-005:4 7.099266e-005:5 0.000000e+000:6 
#C 2.732642e-009 6
0.000000e+000:1 7.099266e-005:2 7.099266e-005:3 7.099266e-005:4 7.099266e-005:5 0.000000e+000:6 
#C 2.772642e-009 6
0.000000e+000:1 7.099266e-005:2 7.099266e-005:3 7.099266e-005:4 7.099266e-005:5 0.000000e+000:6 
#C 2.812642e-009 6
0.000000e+000:1 7.099266e-005:2 7.099266e-005:3 7.099266e-005:4 7.099266e-005:5 0.000000e+000:6 
#C 2.852642e-009 6
0.000000e+000:1 7.099266e-005:2 7.099266e-005:3 7.099266e-005:4 7.099266e-005:5 0.000000e+000:6 
#C 2.892642e-009 6
0.000000e+000:1 7.099266e-005:2 7.099266e-005:3 7.099266e-005:4 7.099266e-005:5 0.000000e+000:6 
#C 2.932642e-009 6
0.000000e+000:1 7.099266e-005:2 7.099266e-005:3 7.099266e-005:4 7.099266e-005:5 0.000000e+000:6 
#C 2.972642e-009 6
0.000000e+000:1 7.099266e-005:2 7.099266e-005:3 7.099266e-005:4 7.099266e-005:5 0.000000e+000:6 
#C 3.012642e-009 6
0.000000e+000:1 7.099266e-005:2 7.099266e-005:3 7.099266e-005:4 7.099266e-005:5 0.000000e+000:6 
#C 3.052642e-009 6
0.000000e+000:1 7.099266e-005:2 7.099266e-005:3 7.099266e-005:4 7.099266e-005:5 0.000000e+000:6 
#C 3.092642e-009 6
0.000000e+000:1 7.099266e-005:2 7.099266e-005:3 7.099266e-005:4 7.099266e-005:5 0.000000e+000:6 
#C 3.132642e-009 6
0.000000e+000:1 7.099266e-005:2 7.099266e-005:3 7.099266e-005:4 7.099266e-005:5 0.000000e+000:6 
#C 3.172642e-009 6
0.000000e+000:1 7.099266e-005:2 7.099266e-005:3 7.099266e-005:4 7.099266e-005:5 0.000000e+000:6 
#C 3.212642e-009 6
0.000000e+000:1 7.099266e-005:2 7.099266e-005:3 7.099266e-005:4 7.099266e-005:5 0.000000e+000:6 
#C 3.252642e-009 6
0.000000e+000:1 7.099266e-005:2 7.099266e-005:3 7.099266e-005:4 7.099266e-005:5 0.000000e+000:6 
#C 3.292642e-009 6
0.000000e+000:1 7.099266e-005:2 7.099266e-005:3 7.099266e-005:4 7.099266e-005:5 0.000000e+000:6 
#C 3.332642e-009 6
0.000000e+000:1 7.099266e-005:2 7.099266e-005:3 7.099266e-005:4 7.099266e-005:5 0.000000e+000:6 
#C 3.372642e-009 6
0.000000e+000:1 7.099266e-005:2 7.099266e-005:3 7.099266e-005:4 7.099266e-005:5 0.000000e+000:6 
#C 3.412642e-009 6
0.000000e+000:1 7.099266e-005:2 7.099266e-005:3 7.099266e-005:4 7.099266e-005:5 0.000000e+000:6 
#C 3.452642e-009 6
0.000000e+000:1 7.099266e-005:2 7.099266e-005:3 7.099266e-005:4 7.099266e-005:5 0.000000e+000:6 
#C 3.492642e-009 6
0.000000e+000:1 7.099266e-005:2 7.099266e-005:3 7.099266e-005:4 7.099266e-005:5 0.000000e+000:6 
#C 3.532642e-009 6
0.000000e+000:1 7.099266e-005:2 7.099266e-005:3 7.099266e-005:4 7.099266e-005:5 0.000000e+000:6 
#C 3.572642e-009 6
0.000000e+000:1 7.099266e-005:2 7.099266e-005:3 7.099266e-005:4 7.099266e-005:5 0.000000e+000:6 
#C 3.612642e-009 6
0.000000e+000:1 7.099266e-005:2 7.099266e-005:3 7.099266e-005:4 7.099266e-005:5 0.000000e+000:6 
#C 3.652642e-009 6
0.000000e+000:1 7.099266e-005:2 7.099266e-005:3 7.099266e-005:4 7.099266e-005:5 0.000000e+000:6 
#C 3.692642e-009 6
0.000000e+000:1 7.099266e-005:2 7.099266e-005:3 7.099266e-005:4 7.099266e-005:5 0.000000e+000:6 
#C 3.732642e-009 6
0.000000e+000:1 7.099266e-005:2 7.099266e-005:3 7.099266e-005:4 7.099266e-005:5 0.000000e+000:6 
#C 3.772642e-009 6
0.000000e+000:1 7.099266e-005:2 7.099266e-005:3 7.099266e-005:4 7.099266e-005:5 0.000000e+000:6 
#C 3.812642e-009 6
0.000000e+000:1 7.099266e-005:2 7.099266e-005:3 7.099266e-005:4 7.099266e-005:5 0.000000e+000:6 
#C 3.852642e-009 6
0.000000e+000:1 7.099266e-005:2 7.099266e-005:3 7.099266e-005:4 7.099266e-005:5 0.000000e+000:6 
#C 3.892642e-009 6
0.000000e+000:1 7.099266e-005:2 7.099266e-005:3 7.099266e-005:4 7.099266e-005:5 0.000000e+000:6 
#C 3.932642e-009 6
0.000000e+000:1 7.099266e-005:2 7.099266e-005:3 7.099266e-005:4 7.099266e-005:5 0.000000e+000:6 
#C 3.972642e-009 6
0.000000e+000:1 7.099266e-005:2 7.099266e-005:3 7.099266e-005:4 7.099266e-005:5 0.000000e+000:6 
#C 4.012642e-009 6
0.000000e+000:1 7.099266e-005:2 7.099266e-005:3 7.099266e-005:4 7.099266e-005:5 0.000000e+000:6 
#C 4.052642e-009 6
0.000000e+000:1 7.099266e-005:2 7.099266e-005:3 7.099266e-005:4 7.099266e-005:5 0.000000e+000:6 
#C 4.092642e-009 6
0.000000e+000:1 7.099266e-005:2 7.099266e-005:3 7.099266e-005:4 7.099266e-005:5 0.000000e+000:6 
#C 4.132642e-009 6
0.000000e+000:1 7.099266e-005:2 7.099266e-005:3 7.099266e-005:4 7.099266e-005:5 0.000000e+000:6 
#C 4.172642e-009 6
0.000000e+000:1 7.099266e-005:2 7.099266e-005:3 7.099266e-005:4 7.099266e-005:5 0.000000e+000:6 
#C 4.212642e-009 6
0.000000e+000:1 7.099266e-005:2 7.099266e-005:3 7.099266e-005:4 7.099266e-005:5 0.000000e+000:6 
#C 4.252642e-009 6
0.000000e+000:1 7.099266e-005:2 7.099266e-005:3 7.099266e-005:4 7.099266e-005:5 0.000000e+000:6 
#C 4.292642e-009 6
0.000000e+000:1 7.099266e-005:2 7.099266e-005:3 7.099266e-005:4 7.099266e-005:5 0.000000e+000:6 
#C 4.332642e-009 6
0.000000e+000:1 7.099266e-005:2 7.099266e-005:3 7.099266e-005:4 7.099266e-005:5 0.000000e+000:6 
#C 4.372642e-009 6
0.000000e+000:1 7.099266e-005:2 7.099266e-005:3 7.099266e-005:4 7.099266e-005:5 0.000000e+000:6 
#C 4.412642e-009 6
0.000000e+000:1 7.099266e-005:2 7.099266e-005:3 7.099266e-005:4 7.099266e-005:5 0.000000e+000:6 
#C 4.452642e-009 6
0.000000e+000:1 7.099266e-005:2 7.099266e-005:3 7.099266e-005:4 7.099266e-005:5 0.000000e+000:6 
#C 4.492642e-009 6
0.000000e+000:1 7.099266e-005:2 7.099266e-005:3 7.099266e-005:4 7.099266e-005:5 0.000000e+000:6 
#C 4.532642e-009 6
0.000000e+000:1 7.099266e-005:2 7.099266e-005:3 7.099266e-005:4 7.099266e-005:5 0.000000e+000:6 
#C 4.572642e-009 6
0.000000e+000:1 7.099266e-005:2 7.099266e-005:3 7.099266e-005:4 7.099266e-005:5 0.000000e+000:6 
#C 4.612642e-009 6
0.000000e+000:1 7.099266e-005:2 7.099266e-005:3 7.099266e-005:4 7.099266e-005:5 0.000000e+000:6 
#C 4.652642e-009 6
0.000000e+000:1 7.099266e-005:2 7.099266e-005:3 7.099266e-005:4 7.099266e-005:5 0.000000e+000:6 
#C 4.692642e-009 6
0.000000e+000:1 7.099266e-005:2 7.099266e-005:3 7.099266e-005:4 7.099266e-005:5 0.000000e+000:6 
#C 4.732642e-009 6
0.000000e+000:1 7.099266e-005:2 7.099266e-005:3 7.099266e-005:4 7.099266e-005:5 0.000000e+000:6 
#C 4.772642e-009 6
0.000000e+000:1 7.099266e-005:2 7.099266e-005:3 7.099266e-005:4 7.099266e-005:5 0.000000e+000:6 
#C 4.812642e-009 6
0.000000e+000:1 7.099266e-005:2 7.099266e-005:3 7.099266e-005:4 7.099266e-005:5 0.000000e+000:6 
#C 4.852642e-009 6
0.000000e+000:1 7.099266e-005:2 7.099266e-005:3 7.099266e-005:4 7.099266e-005:5 0.000000e+000:6 
#C 4.892642e-009 6
0.000000e+000:1 7.099266e-005:2 7.099266e-005:3 7.099266e-005:4 7.099266e-005:5 0.000000e+000:6 
#C 4.932642e-009 6
0.000000e+000:1 7.099266e-005:2 7.099266e-005:3 7.099266e-005:4 7.099266e-005:5 0.000000e+000:6 
#C 4.972642e-009 6
0.000000e+000:1 7.099266e-005:2 7.099266e-005:3 7.099266e-005:4 7.099266e-005:5 0.000000e+000:6 
#C 5.012642e-009 6
0.000000e+000:1 7.099266e-005:2 7.099266e-005:3 7.099266e-005:4 7.099266e-005:5 0.000000e+000:6 
#C 5.052642e-009 6
0.000000e+000:1 7.099266e-005:2 7.099266e-005:3 7.099266e-005:4 7.099266e-005:5 0.000000e+000:6 
#C 5.092642e-009 6
0.000000e+000:1 7.099266e-005:2 7.099266e-005:3 7.099266e-005:4 7.099266e-005:5 0.000000e+000:6 
#C 5.132642e-009 6
0.000000e+000:1 7.099266e-005:2 7.099266e-005:3 7.099266e-005:4 7.099266e-005:5 0.000000e+000:6 
#C 5.172642e-009 6
0.000000e+000:1 7.099266e-005:2 7.099266e-005:3 7.099266e-005:4 7.099266e-005:5 0.000000e+000:6 
#C 5.212642e-009 6
0.000000e+000:1 7.099266e-005:2 7.099266e-005:3 7.099266e-005:4 7.099266e-005:5 0.000000e+000:6 
#C 5.252642e-009 6
0.000000e+000:1 7.099266e-005:2 7.099266e-005:3 7.099266e-005:4 7.099266e-005:5 0.000000e+000:6 
#C 5.292642e-009 6
0.000000e+000:1 7.099266e-005:2 7.099266e-005:3 7.099266e-005:4 7.099266e-005:5 0.000000e+000:6 
#C 5.332642e-009 6
0.000000e+000:1 7.099266e-005:2 7.099266e-005:3 7.099266e-005:4 7.099266e-005:5 0.000000e+000:6 
#C 5.372642e-009 6
0.000000e+000:1 7.099266e-005:2 7.099266e-005:3 7.099266e-005:4 7.099266e-005:5 0.000000e+000:6 
#C 5.412642e-009 6
0.000000e+000:1 7.099266e-005:2 7.099266e-005:3 7.099266e-005:4 7.099266e-005:5 0.000000e+000:6 
#C 5.452642e-009 6
0.000000e+000:1 7.099266e-005:2 7.099266e-005:3 7.099266e-005:4 7.099266e-005:5 0.000000e+000:6 
#C 5.492642e-009 6
0.000000e+000:1 7.099266e-005:2 7.099266e-005:3 7.099266e-005:4 7.099266e-005:5 0.000000e+000:6 
#C 5.532642e-009 6
0.000000e+000:1 7.099266e-005:2 7.099266e-005:3 7.099266e-005:4 7.099266e-005:5 0.000000e+000:6 
#C 5.572642e-009 6
0.000000e+000:1 7.099266e-005:2 7.099266e-005:3 7.099266e-005:4 7.099266e-005:5 0.000000e+000:6 
#C 5.612642e-009 6
0.000000e+000:1 7.099266e-005:2 7.099266e-005:3 7.099266e-005:4 7.099266e-005:5 0.000000e+000:6 
#C 5.652642e-009 6
0.000000e+000:1 7.099266e-005:2 7.099266e-005:3 7.099266e-005:4 7.099266e-005:5 0.000000e+000:6 
#C 5.692642e-009 6
0.000000e+000:1 7.099266e-005:2 7.099266e-005:3 7.099266e-005:4 7.099266e-005:5 0.000000e+000:6 
#C 5.732642e-009 6
0.000000e+000:1 7.099266e-005:2 7.099266e-005:3 7.099266e-005:4 7.099266e-005:5 0.000000e+000:6 
#C 5.772642e-009 6
0.000000e+000:1 7.099266e-005:2 7.099266e-005:3 7.099266e-005:4 7.099266e-005:5 0.000000e+000:6 
#C 5.812642e-009 6
0.000000e+000:1 7.099266e-005:2 7.099266e-005:3 7.099266e-005:4 7.099266e-005:5 0.000000e+000:6 
#C 5.852642e-009 6
0.000000e+000:1 7.099266e-005:2 7.099266e-005:3 7.099266e-005:4 7.099266e-005:5 0.000000e+000:6 
#C 5.892642e-009 6
0.000000e+000:1 7.099266e-005:2 7.099266e-005:3 7.099266e-005:4 7.099266e-005:5 0.000000e+000:6 
#C 5.932642e-009 6
0.000000e+000:1 7.099266e-005:2 7.099266e-005:3 7.099266e-005:4 7.099266e-005:5 0.000000e+000:6 
#C 5.972642e-009 6
0.000000e+000:1 7.099266e-005:2 7.099266e-005:3 7.099266e-005:4 7.099266e-005:5 0.000000e+000:6 
#C 6.012642e-009 6
0.000000e+000:1 7.099266e-005:2 7.099266e-005:3 7.099266e-005:4 7.099266e-005:5 0.000000e+000:6 
#C 6.052642e-009 6
0.000000e+000:1 7.099266e-005:2 7.099266e-005:3 7.099266e-005:4 7.099266e-005:5 0.000000e+000:6 
#C 6.092642e-009 6
0.000000e+000:1 7.099266e-005:2 7.099266e-005:3 7.099266e-005:4 7.099266e-005:5 0.000000e+000:6 
#C 6.132642e-009 6
0.000000e+000:1 7.099266e-005:2 7.099266e-005:3 7.099266e-005:4 7.099266e-005:5 0.000000e+000:6 
#C 6.172642e-009 6
0.000000e+000:1 7.099266e-005:2 7.099266e-005:3 7.099266e-005:4 7.099266e-005:5 0.000000e+000:6 
#C 6.212642e-009 6
0.000000e+000:1 7.099266e-005:2 7.099266e-005:3 7.099266e-005:4 7.099266e-005:5 0.000000e+000:6 
#C 6.252642e-009 6
0.000000e+000:1 7.099266e-005:2 7.099266e-005:3 7.099266e-005:4 7.099266e-005:5 0.000000e+000:6 
#C 6.292642e-009 6
0.000000e+000:1 7.099266e-005:2 7.099266e-005:3 7.099266e-005:4 7.099266e-005:5 0.000000e+000:6 
#C 6.332642e-009 6
0.000000e+000:1 7.099266e-005:2 7.099266e-005:3 7.099266e-005:4 7.099266e-005:5 0.000000e+000:6 
#C 6.372642e-009 6
0.000000e+000:1 7.099266e-005:2 7.099266e-005:3 7.099266e-005:4 7.099266e-005:5 0.000000e+000:6 
#C 6.412642e-009 6
0.000000e+000:1 7.099266e-005:2 7.099266e-005:3 7.099266e-005:4 7.099266e-005:5 0.000000e+000:6 
#C 6.452642e-009 6
0.000000e+000:1 7.099266e-005:2 7.099266e-005:3 7.099266e-005:4 7.099266e-005:5 0.000000e+000:6 
#C 6.492642e-009 6
0.000000e+000:1 7.099266e-005:2 7.099266e-005:3 7.099266e-005:4 7.099266e-005:5 0.000000e+000:6 
#C 6.532642e-009 6
0.000000e+000:1 7.099266e-005:2 7.099266e-005:3 7.099266e-005:4 7.099266e-005:5 0.000000e+000:6 
#C 6.572642e-009 6
0.000000e+000:1 7.099266e-005:2 7.099266e-005:3 7.099266e-005:4 7.099266e-005:5 0.000000e+000:6 
#C 6.612642e-009 6
0.000000e+000:1 7.099266e-005:2 7.099266e-005:3 7.099266e-005:4 7.099266e-005:5 0.000000e+000:6 
#C 6.652642e-009 6
0.000000e+000:1 7.099266e-005:2 7.099266e-005:3 7.099266e-005:4 7.099266e-005:5 0.000000e+000:6 
#C 6.692642e-009 6
0.000000e+000:1 7.099266e-005:2 7.099266e-005:3 7.099266e-005:4 7.099266e-005:5 0.000000e+000:6 
#C 6.732642e-009 6
0.000000e+000:1 7.099266e-005:2 7.099266e-005:3 7.099266e-005:4 7.099266e-005:5 0.000000e+000:6 
#C 6.772642e-009 6
0.000000e+000:1 7.099266e-005:2 7.099266e-005:3 7.099266e-005:4 7.099266e-005:5 0.000000e+000:6 
#C 6.812642e-009 6
0.000000e+000:1 7.099266e-005:2 7.099266e-005:3 7.099266e-005:4 7.099266e-005:5 0.000000e+000:6 
#C 6.852642e-009 6
0.000000e+000:1 7.099266e-005:2 7.099266e-005:3 7.099266e-005:4 7.099266e-005:5 0.000000e+000:6 
#C 6.892642e-009 6
0.000000e+000:1 7.099266e-005:2 7.099266e-005:3 7.099266e-005:4 7.099266e-005:5 0.000000e+000:6 
#C 6.932642e-009 6
