#H
SOURCE='IsSpice4'	VERSION='ver. 8.11-SI-1.0.3   10/6/2010'
TITLE='* Thu Nov 05 20:24:49 2015, Generated by: 010328058, Server: None, Windows, INSTALLED_SOFTWARE_VERSION: 2015.07 Build 6, Engine: 2015.07rc1, GUI: 2015.07rc1'
SUBTITLE='pc'
TIME='20:25:14' DATE='Nov 05, 2015' TEMPERATURE='373.15'
ANALYSIS='Trans'	SERIALNO='01234567'
ALLVALUES='NO' COMPLEXVALUES='NO' NODES='6'
SWEEPVAR='time' SWEEPMODE='VAR_STEP' DGTLDATA='NO'
XBEGIN='0.000000e+000' XEND='1.140000e-007'
FORMAT='0 VOLTSorAMPS;EFLOAT : NODEorBRANCH;NODE'
#N
'V(v_stimulus)'
'V(stload_sl_wopkg_!load)'
'V(stload_sl_wpkg_!load)'
'V(stload_sl_wopkg_!pad)'
'V(stload_sl_wpkg_!pad)'
'V(stload_sl_wpkg_!pin)'
#U
'Volts'
'Volts'
'Volts'
'Volts'
'Volts'
'Volts'
#C 0.000000e+000 6
0.000000e+000:1 8.720481e-005:2 8.720475e-005:3 8.720481e-005:4 8.720481e-005:5 8.720475e-005:6 
#C 2.560000e-011 6
0.000000e+000:1 8.720481e-005:2 8.720475e-005:3 8.720481e-005:4 8.720481e-005:5 8.720475e-005:6 
#C 5.440000e-011 6
0.000000e+000:1 8.720481e-005:2 8.720475e-005:3 8.720481e-005:4 8.720481e-005:5 8.720475e-005:6 
#C 8.320000e-011 6
0.000000e+000:1 8.720481e-005:2 8.720475e-005:3 8.720481e-005:4 8.720481e-005:5 8.720475e-005:6 
#C 1.088000e-010 6
0.000000e+000:1 8.720481e-005:2 8.720475e-005:3 8.720481e-005:4 8.720481e-005:5 8.720475e-005:6 
#C 1.600000e-010 6
0.000000e+000:1 8.720481e-005:2 8.720475e-005:3 8.720481e-005:4 8.720481e-005:5 8.720475e-005:6 
#C 2.624000e-010 6
0.000000e+000:1 8.720481e-005:2 8.720475e-005:3 8.720481e-005:4 8.720481e-005:5 8.720475e-005:6 
#C 4.672000e-010 6
0.000000e+000:1 8.720481e-005:2 8.720475e-005:3 8.720481e-005:4 8.720481e-005:5 8.720475e-005:6 
#C 8.768000e-010 6
0.000000e+000:1 8.720481e-005:2 8.720475e-005:3 8.720481e-005:4 8.720481e-005:5 8.720475e-005:6 
#C 9.150521e-010 6
0.000000e+000:1 8.720481e-005:2 8.720475e-005:3 8.720481e-005:4 8.720481e-005:5 8.720475e-005:6 
#C 9.533041e-010 6
0.000000e+000:1 8.720481e-005:2 8.720475e-005:3 8.720481e-005:4 8.720481e-005:5 8.720475e-005:6 
#C 1.029808e-009 6
0.000000e+000:1 8.720481e-005:2 8.720475e-005:3 8.720481e-005:4 8.720481e-005:5 8.720475e-005:6 
#C 1.182816e-009 6
0.000000e+000:1 8.720481e-005:2 8.720475e-005:3 8.720481e-005:4 8.720481e-005:5 8.720475e-005:6 
#C 1.221068e-009 6
0.000000e+000:1 8.720481e-005:2 8.720475e-005:3 8.720481e-005:4 8.720481e-005:5 8.720475e-005:6 
#C 1.247288e-009 6
0.000000e+000:1 8.720481e-005:2 8.720475e-005:3 8.720481e-005:4 8.720481e-005:5 8.720475e-005:6 
#C 1.275255e-009 6
0.000000e+000:1 8.720481e-005:2 8.720475e-005:3 8.720481e-005:4 8.720481e-005:5 8.720475e-005:6 
#C 1.307123e-009 6
0.000000e+000:1 8.720481e-005:2 8.720475e-005:3 8.720481e-005:4 8.720481e-005:5 8.720475e-005:6 
#C 1.331189e-009 6
0.000000e+000:1 8.720481e-005:2 8.720475e-005:3 8.720481e-005:4 8.720481e-005:5 8.720475e-005:6 
#C 1.369441e-009 6
0.000000e+000:1 8.720481e-005:2 8.720475e-005:3 8.720481e-005:4 8.720481e-005:5 8.720475e-005:6 
#C 1.395660e-009 6
0.000000e+000:1 8.720481e-005:2 8.720475e-005:3 8.720481e-005:4 8.720481e-005:5 8.720475e-005:6 
#C 1.423628e-009 6
0.000000e+000:1 8.720481e-005:2 8.720475e-005:3 8.720481e-005:4 8.720481e-005:5 8.720475e-005:6 
#C 1.461880e-009 6
0.000000e+000:1 8.720481e-005:2 8.720475e-005:3 8.720481e-005:4 8.720481e-005:5 8.720475e-005:6 
#C 1.488099e-009 6
0.000000e+000:1 8.720481e-005:2 8.720475e-005:3 8.720481e-005:4 8.720481e-005:5 8.720475e-005:6 
#C 1.516066e-009 6
0.000000e+000:1 8.720481e-005:2 8.720475e-005:3 8.720481e-005:4 8.720481e-005:5 8.720475e-005:6 
#C 1.540132e-009 6
0.000000e+000:1 8.720481e-005:2 8.720475e-005:3 8.720481e-005:4 8.720481e-005:5 8.720475e-005:6 
#C 1.578384e-009 6
0.000000e+000:1 8.720481e-005:2 8.720475e-005:3 8.720481e-005:4 8.720481e-005:5 8.720475e-005:6 
#C 1.604603e-009 6
0.000000e+000:1 8.720481e-005:2 8.720475e-005:3 8.720481e-005:4 8.720481e-005:5 8.720475e-005:6 
#C 1.632570e-009 6
0.000000e+000:1 8.720481e-005:2 8.720475e-005:3 8.720481e-005:4 8.720481e-005:5 8.720475e-005:6 
#C 1.656636e-009 6
0.000000e+000:1 8.720481e-005:2 8.720475e-005:3 8.720481e-005:4 8.720481e-005:5 8.720475e-005:6 
#C 1.694888e-009 6
0.000000e+000:1 8.720481e-005:2 8.720475e-005:3 8.720481e-005:4 8.720481e-005:5 8.720475e-005:6 
#C 1.721107e-009 6
0.000000e+000:1 8.720481e-005:2 8.720475e-005:3 8.720481e-005:4 8.720481e-005:5 8.720475e-005:6 
#C 1.749074e-009 6
0.000000e+000:1 8.720481e-005:2 8.720475e-005:3 8.720481e-005:4 8.720481e-005:5 8.720475e-005:6 
#C 1.787326e-009 6
0.000000e+000:1 8.720481e-005:2 8.720475e-005:3 8.720481e-005:4 8.720481e-005:5 8.720475e-005:6 
#C 1.813545e-009 6
0.000000e+000:1 8.720481e-005:2 8.720475e-005:3 8.720481e-005:4 8.720481e-005:5 8.720475e-005:6 
#C 1.841513e-009 6
0.000000e+000:1 8.720481e-005:2 8.720475e-005:3 8.720481e-005:4 8.720481e-005:5 8.720475e-005:6 
#C 1.865578e-009 6
0.000000e+000:1 8.720481e-005:2 8.720475e-005:3 8.720481e-005:4 8.720481e-005:5 8.720475e-005:6 
#C 1.903830e-009 6
0.000000e+000:1 8.720481e-005:2 8.720475e-005:3 8.720481e-005:4 8.720481e-005:5 8.720475e-005:6 
#C 1.930050e-009 6
0.000000e+000:1 8.720481e-005:2 8.720475e-005:3 8.720481e-005:4 8.720481e-005:5 8.720475e-005:6 
#C 1.958017e-009 6
0.000000e+000:1 8.720481e-005:2 8.720475e-005:3 8.720481e-005:4 8.720481e-005:5 8.720475e-005:6 
#C 1.989885e-009 6
0.000000e+000:1 8.720481e-005:2 8.720475e-005:3 8.720481e-005:4 8.720481e-005:5 8.720475e-005:6 
#C 2.029885e-009 6
0.000000e+000:1 8.720481e-005:2 8.720475e-005:3 8.720481e-005:4 8.720481e-005:5 8.720475e-005:6 
#C 2.068137e-009 6
0.000000e+000:1 8.720481e-005:2 8.720475e-005:3 8.720481e-005:4 8.720481e-005:5 8.720475e-005:6 
#C 2.094357e-009 6
0.000000e+000:1 8.720481e-005:2 8.720475e-005:3 8.720481e-005:4 8.720481e-005:5 8.720475e-005:6 
#C 2.122324e-009 6
0.000000e+000:1 8.720481e-005:2 8.720475e-005:3 8.720481e-005:4 8.720481e-005:5 8.720475e-005:6 
#C 2.154192e-009 6
0.000000e+000:1 8.720481e-005:2 8.720475e-005:3 8.720481e-005:4 8.720481e-005:5 8.720475e-005:6 
#C 2.194192e-009 6
0.000000e+000:1 8.720481e-005:2 8.720475e-005:3 8.720481e-005:4 8.720481e-005:5 8.720475e-005:6 
#C 2.232444e-009 6
0.000000e+000:1 8.720481e-005:2 8.720475e-005:3 8.720481e-005:4 8.720481e-005:5 8.720475e-005:6 
#C 2.258664e-009 6
0.000000e+000:1 8.720481e-005:2 8.720475e-005:3 8.720481e-005:4 8.720481e-005:5 8.720475e-005:6 
#C 2.286631e-009 6
0.000000e+000:1 8.720481e-005:2 8.720475e-005:3 8.720481e-005:4 8.720481e-005:5 8.720475e-005:6 
#C 2.318500e-009 6
0.000000e+000:1 8.720481e-005:2 8.720475e-005:3 8.720481e-005:4 8.720481e-005:5 8.720475e-005:6 
#C 2.350368e-009 6
0.000000e+000:1 8.720481e-005:2 8.720475e-005:3 8.720481e-005:4 8.720481e-005:5 8.720475e-005:6 
#C 2.374762e-009 6
0.000000e+000:1 8.720481e-005:2 8.720475e-005:3 8.720481e-005:4 8.720481e-005:5 8.720475e-005:6 
#C 2.398500e-009 6
0.000000e+000:1 8.720481e-005:2 8.720475e-005:3 8.720481e-005:4 8.720481e-005:5 8.720475e-005:6 
#C 2.428398e-009 6
0.000000e+000:1 8.720481e-005:2 8.720475e-005:3 8.720481e-005:4 8.720481e-005:5 8.720475e-005:6 
#C 2.458703e-009 6
0.000000e+000:1 8.720481e-005:2 8.720475e-005:3 8.720481e-005:4 8.720481e-005:5 8.720475e-005:6 
#C 2.498703e-009 6
0.000000e+000:1 8.720481e-005:2 8.720475e-005:3 8.720481e-005:4 8.720481e-005:5 8.720475e-005:6 
#C 2.538703e-009 6
0.000000e+000:1 8.720481e-005:2 8.720475e-005:3 8.720481e-005:4 8.720481e-005:5 8.720475e-005:6 
#C 2.578703e-009 6
0.000000e+000:1 8.720481e-005:2 8.720475e-005:3 8.720481e-005:4 8.720481e-005:5 8.720475e-005:6 
#C 2.618703e-009 6
0.000000e+000:1 8.720481e-005:2 8.720475e-005:3 8.720481e-005:4 8.720481e-005:5 8.720475e-005:6 
#C 2.658703e-009 6
0.000000e+000:1 8.720481e-005:2 8.720475e-005:3 8.720481e-005:4 8.720481e-005:5 8.720475e-005:6 
#C 2.698703e-009 6
0.000000e+000:1 8.720481e-005:2 8.720475e-005:3 8.720481e-005:4 8.720481e-005:5 8.720475e-005:6 
#C 2.738703e-009 6
0.000000e+000:1 8.720481e-005:2 8.720475e-005:3 8.720481e-005:4 8.720481e-005:5 8.720475e-005:6 
#C 2.778703e-009 6
0.000000e+000:1 8.720481e-005:2 8.720475e-005:3 8.720481e-005:4 8.720481e-005:5 8.720475e-005:6 
#C 2.818703e-009 6
0.000000e+000:1 8.720481e-005:2 8.720475e-005:3 8.720481e-005:4 8.720481e-005:5 8.720475e-005:6 
#C 2.858703e-009 6
0.000000e+000:1 8.720481e-005:2 8.720475e-005:3 8.720481e-005:4 8.720481e-005:5 8.720475e-005:6 
#C 2.898703e-009 6
0.000000e+000:1 8.720481e-005:2 8.720475e-005:3 8.720481e-005:4 8.720481e-005:5 8.720475e-005:6 
#C 2.938703e-009 6
0.000000e+000:1 8.720481e-005:2 8.720475e-005:3 8.720481e-005:4 8.720481e-005:5 8.720475e-005:6 
#C 2.978703e-009 6
0.000000e+000:1 8.720481e-005:2 8.720475e-005:3 8.720481e-005:4 8.720481e-005:5 8.720475e-005:6 
#C 3.018703e-009 6
0.000000e+000:1 8.720481e-005:2 8.720475e-005:3 8.720481e-005:4 8.720481e-005:5 8.720475e-005:6 
#C 3.058703e-009 6
0.000000e+000:1 8.720481e-005:2 8.720475e-005:3 8.720481e-005:4 8.720481e-005:5 8.720475e-005:6 
#C 3.098703e-009 6
0.000000e+000:1 8.720481e-005:2 8.720475e-005:3 8.720481e-005:4 8.720481e-005:5 8.720475e-005:6 
#C 3.138703e-009 6
0.000000e+000:1 8.720481e-005:2 8.720475e-005:3 8.720481e-005:4 8.720481e-005:5 8.720475e-005:6 
#C 3.178703e-009 6
0.000000e+000:1 8.720481e-005:2 8.720475e-005:3 8.720481e-005:4 8.720481e-005:5 8.720475e-005:6 
#C 3.218703e-009 6
0.000000e+000:1 8.720481e-005:2 8.720475e-005:3 8.720481e-005:4 8.720481e-005:5 8.720475e-005:6 
#C 3.258703e-009 6
0.000000e+000:1 8.720481e-005:2 8.720475e-005:3 8.720481e-005:4 8.720481e-005:5 8.720475e-005:6 
#C 3.298703e-009 6
0.000000e+000:1 8.720481e-005:2 8.720475e-005:3 8.720481e-005:4 8.720481e-005:5 8.720475e-005:6 
#C 3.338703e-009 6
0.000000e+000:1 8.720481e-005:2 8.720475e-005:3 8.720481e-005:4 8.720481e-005:5 8.720475e-005:6 
#C 3.378703e-009 6
0.000000e+000:1 8.720481e-005:2 8.720475e-005:3 8.720481e-005:4 8.720481e-005:5 8.720475e-005:6 
#C 3.418703e-009 6
0.000000e+000:1 8.720481e-005:2 8.720475e-005:3 8.720481e-005:4 8.720481e-005:5 8.720475e-005:6 
#C 3.458703e-009 6
0.000000e+000:1 8.720481e-005:2 8.720475e-005:3 8.720481e-005:4 8.720481e-005:5 8.720475e-005:6 
#C 3.498703e-009 6
0.000000e+000:1 8.720481e-005:2 8.720475e-005:3 8.720481e-005:4 8.720481e-005:5 8.720475e-005:6 
#C 3.538703e-009 6
0.000000e+000:1 8.720481e-005:2 8.720475e-005:3 8.720481e-005:4 8.720481e-005:5 8.720475e-005:6 
#C 3.578703e-009 6
0.000000e+000:1 8.720481e-005:2 8.720475e-005:3 8.720481e-005:4 8.720481e-005:5 8.720475e-005:6 
#C 3.618703e-009 6
0.000000e+000:1 8.720481e-005:2 8.720475e-005:3 8.720481e-005:4 8.720481e-005:5 8.720475e-005:6 
#C 3.658703e-009 6
0.000000e+000:1 8.720481e-005:2 8.720475e-005:3 8.720481e-005:4 8.720481e-005:5 8.720475e-005:6 
#C 3.698703e-009 6
0.000000e+000:1 8.720481e-005:2 8.720475e-005:3 8.720481e-005:4 8.720481e-005:5 8.720475e-005:6 
#C 3.738703e-009 6
0.000000e+000:1 8.720481e-005:2 8.720475e-005:3 8.720481e-005:4 8.720481e-005:5 8.720475e-005:6 
#C 3.778703e-009 6
0.000000e+000:1 8.720481e-005:2 8.720475e-005:3 8.720481e-005:4 8.720481e-005:5 8.720475e-005:6 
#C 3.818703e-009 6
0.000000e+000:1 8.720481e-005:2 8.720475e-005:3 8.720481e-005:4 8.720481e-005:5 8.720475e-005:6 
#C 3.858703e-009 6
0.000000e+000:1 8.720481e-005:2 8.720475e-005:3 8.720481e-005:4 8.720481e-005:5 8.720475e-005:6 
#C 3.898703e-009 6
0.000000e+000:1 8.720481e-005:2 8.720475e-005:3 8.720481e-005:4 8.720481e-005:5 8.720475e-005:6 
#C 3.938703e-009 6
0.000000e+000:1 8.720481e-005:2 8.720475e-005:3 8.720481e-005:4 8.720481e-005:5 8.720475e-005:6 
#C 3.978703e-009 6
0.000000e+000:1 8.720481e-005:2 8.720475e-005:3 8.720481e-005:4 8.720481e-005:5 8.720475e-005:6 
#C 4.018703e-009 6
0.000000e+000:1 8.720481e-005:2 8.720475e-005:3 8.720481e-005:4 8.720481e-005:5 8.720475e-005:6 
#C 4.058703e-009 6
0.000000e+000:1 8.720481e-005:2 8.720475e-005:3 8.720481e-005:4 8.720481e-005:5 8.720475e-005:6 
#C 4.098703e-009 6
0.000000e+000:1 8.720481e-005:2 8.720475e-005:3 8.720481e-005:4 8.720481e-005:5 8.720475e-005:6 
#C 4.138703e-009 6
0.000000e+000:1 8.720481e-005:2 8.720475e-005:3 8.720481e-005:4 8.720481e-005:5 8.720475e-005:6 
#C 4.178703e-009 6
0.000000e+000:1 8.720481e-005:2 8.720475e-005:3 8.720481e-005:4 8.720481e-005:5 8.720475e-005:6 
#C 4.218703e-009 6
0.000000e+000:1 8.720481e-005:2 8.720475e-005:3 8.720481e-005:4 8.720481e-005:5 8.720475e-005:6 
#C 4.258703e-009 6
0.000000e+000:1 8.720481e-005:2 8.720475e-005:3 8.720481e-005:4 8.720481e-005:5 8.720475e-005:6 
#C 4.298703e-009 6
0.000000e+000:1 8.720481e-005:2 8.720475e-005:3 8.720481e-005:4 8.720481e-005:5 8.720475e-005:6 
#C 4.338703e-009 6
0.000000e+000:1 8.720481e-005:2 8.720475e-005:3 8.720481e-005:4 8.720481e-005:5 8.720475e-005:6 
#C 4.378703e-009 6
0.000000e+000:1 8.720481e-005:2 8.720475e-005:3 8.720481e-005:4 8.720481e-005:5 8.720475e-005:6 
#C 4.418703e-009 6
0.000000e+000:1 8.720481e-005:2 8.720475e-005:3 8.720481e-005:4 8.720481e-005:5 8.720475e-005:6 
#C 4.458703e-009 6
0.000000e+000:1 8.720481e-005:2 8.720475e-005:3 8.720481e-005:4 8.720481e-005:5 8.720475e-005:6 
#C 4.498703e-009 6
0.000000e+000:1 8.720481e-005:2 8.720475e-005:3 8.720481e-005:4 8.720481e-005:5 8.720475e-005:6 
#C 4.538703e-009 6
0.000000e+000:1 8.720481e-005:2 8.720475e-005:3 8.720481e-005:4 8.720481e-005:5 8.720475e-005:6 
#C 4.578703e-009 6
0.000000e+000:1 8.720481e-005:2 8.720475e-005:3 8.720481e-005:4 8.720481e-005:5 8.720475e-005:6 
#C 4.618703e-009 6
0.000000e+000:1 8.720481e-005:2 8.720475e-005:3 8.720481e-005:4 8.720481e-005:5 8.720475e-005:6 
#C 4.658703e-009 6
0.000000e+000:1 8.720481e-005:2 8.720475e-005:3 8.720481e-005:4 8.720481e-005:5 8.720475e-005:6 
#C 4.698703e-009 6
0.000000e+000:1 8.720481e-005:2 8.720475e-005:3 8.720481e-005:4 8.720481e-005:5 8.720475e-005:6 
#C 4.738703e-009 6
0.000000e+000:1 8.720481e-005:2 8.720475e-005:3 8.720481e-005:4 8.720481e-005:5 8.720475e-005:6 
#C 4.778703e-009 6
0.000000e+000:1 8.720481e-005:2 8.720475e-005:3 8.720481e-005:4 8.720481e-005:5 8.720475e-005:6 
#C 4.818703e-009 6
0.000000e+000:1 8.720481e-005:2 8.720475e-005:3 8.720481e-005:4 8.720481e-005:5 8.720475e-005:6 
#C 4.858703e-009 6
0.000000e+000:1 8.720481e-005:2 8.720475e-005:3 8.720481e-005:4 8.720481e-005:5 8.720475e-005:6 
#C 4.898703e-009 6
0.000000e+000:1 8.720481e-005:2 8.720475e-005:3 8.720481e-005:4 8.720481e-005:5 8.720475e-005:6 
#C 4.938703e-009 6
0.000000e+000:1 8.720481e-005:2 8.720475e-005:3 8.720481e-005:4 8.720481e-005:5 8.720475e-005:6 
#C 4.978703e-009 6
0.000000e+000:1 8.720481e-005:2 8.720475e-005:3 8.720481e-005:4 8.720481e-005:5 8.720475e-005:6 
#C 5.018703e-009 6
0.000000e+000:1 8.720481e-005:2 8.720475e-005:3 8.720481e-005:4 8.720481e-005:5 8.720475e-005:6 
#C 5.058703e-009 6
0.000000e+000:1 8.720481e-005:2 8.720475e-005:3 8.720481e-005:4 8.720481e-005:5 8.720475e-005:6 
#C 5.098703e-009 6
0.000000e+000:1 8.720481e-005:2 8.720475e-005:3 8.720481e-005:4 8.720481e-005:5 8.720475e-005:6 
#C 5.138703e-009 6
0.000000e+000:1 8.720481e-005:2 8.720475e-005:3 8.720481e-005:4 8.720481e-005:5 8.720475e-005:6 
#C 5.178703e-009 6
0.000000e+000:1 8.720481e-005:2 8.720475e-005:3 8.720481e-005:4 8.720481e-005:5 8.720475e-005:6 
#C 5.218703e-009 6
0.000000e+000:1 8.720481e-005:2 8.720475e-005:3 8.720481e-005:4 8.720481e-005:5 8.720475e-005:6 
#C 5.258703e-009 6
0.000000e+000:1 8.720481e-005:2 8.720475e-005:3 8.720481e-005:4 8.720481e-005:5 8.720475e-005:6 
#C 5.298703e-009 6
0.000000e+000:1 8.720481e-005:2 8.720475e-005:3 8.720481e-005:4 8.720481e-005:5 8.720475e-005:6 
#C 5.338703e-009 6
0.000000e+000:1 8.720481e-005:2 8.720475e-005:3 8.720481e-005:4 8.720481e-005:5 8.720475e-005:6 
#C 5.378703e-009 6
0.000000e+000:1 8.720481e-005:2 8.720475e-005:3 8.720481e-005:4 8.720481e-005:5 8.720475e-005:6 
#C 5.418703e-009 6
0.000000e+000:1 8.720481e-005:2 8.720475e-005:3 8.720481e-005:4 8.720481e-005:5 8.720475e-005:6 
#C 5.458703e-009 6
0.000000e+000:1 8.720481e-005:2 8.720475e-005:3 8.720481e-005:4 8.720481e-005:5 8.720475e-005:6 
#C 5.498703e-009 6
0.000000e+000:1 8.720481e-005:2 8.720475e-005:3 8.720481e-005:4 8.720481e-005:5 8.720475e-005:6 
#C 5.538703e-009 6
0.000000e+000:1 8.720481e-005:2 8.720475e-005:3 8.720481e-005:4 8.720481e-005:5 8.720475e-005:6 
#C 5.578703e-009 6
0.000000e+000:1 8.720481e-005:2 8.720475e-005:3 8.720481e-005:4 8.720481e-005:5 8.720475e-005:6 
#C 5.618703e-009 6
0.000000e+000:1 8.720481e-005:2 8.720475e-005:3 8.720481e-005:4 8.720481e-005:5 8.720475e-005:6 
#C 5.658703e-009 6
0.000000e+000:1 8.720481e-005:2 8.720475e-005:3 8.720481e-005:4 8.720481e-005:5 8.720475e-005:6 
#C 5.698703e-009 6
0.000000e+000:1 8.720481e-005:2 8.720475e-005:3 8.720481e-005:4 8.720481e-005:5 8.720475e-005:6 
#C 5.738703e-009 6
0.000000e+000:1 8.720481e-005:2 8.720475e-005:3 8.720481e-005:4 8.720481e-005:5 8.720475e-005:6 
#C 5.778703e-009 6
0.000000e+000:1 8.720481e-005:2 8.720475e-005:3 8.720481e-005:4 8.720481e-005:5 8.720475e-005:6 
#C 5.818703e-009 6
0.000000e+000:1 8.720481e-005:2 8.720475e-005:3 8.720481e-005:4 8.720481e-005:5 8.720475e-005:6 
#C 5.858703e-009 6
0.000000e+000:1 8.720481e-005:2 8.720475e-005:3 8.720481e-005:4 8.720481e-005:5 8.720475e-005:6 
#C 5.898703e-009 6
0.000000e+000:1 8.720481e-005:2 8.720475e-005:3 8.720481e-005:4 8.720481e-005:5 8.720475e-005:6 
#C 5.938703e-009 6
0.000000e+000:1 8.720481e-005:2 8.720475e-005:3 8.720481e-005:4 8.720481e-005:5 8.720475e-005:6 
#C 5.978703e-009 6
0.000000e+000:1 8.720481e-005:2 8.720475e-005:3 8.720481e-005:4 8.720481e-005:5 8.720475e-005:6 
#C 6.018703e-009 6
0.000000e+000:1 8.720481e-005:2 8.720475e-005:3 8.720481e-005:4 8.720481e-005:5 8.720475e-005:6 
#C 6.058703e-009 6
0.000000e+000:1 8.720481e-005:2 8.720475e-005:3 8.720481e-005:4 8.720481e-005:5 8.720475e-005:6 
#C 6.098703e-009 6
0.000000e+000:1 8.720481e-005:2 8.720475e-005:3 8.720481e-005:4 8.720481e-005:5 8.720475e-005:6 
#C 6.138703e-009 6
0.000000e+000:1 8.720481e-005:2 8.720475e-005:3 8.720481e-005:4 8.720481e-005:5 8.720475e-005:6 
#C 6.178703e-009 6
0.000000e+000:1 8.720481e-005:2 8.720475e-005:3 8.720481e-005:4 8.720481e-005:5 8.720475e-005:6 
#C 6.218703e-009 6
0.000000e+000:1 8.720481e-005:2 8.720475e-005:3 8.720481e-005:4 8.720481e-005:5 8.720475e-005:6 
#C 6.258703e-009 6
0.000000e+000:1 8.720481e-005:2 8.720475e-005:3 8.720481e-005:4 8.720481e-005:5 8.720475e-005:6 
#C 6.298703e-009 6
0.000000e+000:1 8.720481e-005:2 8.720475e-005:3 8.720481e-005:4 8.720481e-005:5 8.720475e-005:6 
#C 6.338703e-009 6
0.000000e+000:1 8.720481e-005:2 8.720475e-005:3 8.720481e-005:4 8.720481e-005:5 8.720475e-005:6 
#C 6.378703e-009 6
0.000000e+000:1 8.720481e-005:2 8.720475e-005:3 8.720481e-005:4 8.720481e-005:5 8.720475e-005:6 
#C 6.418703e-009 6
0.000000e+000:1 8.720481e-005:2 8.720475e-005:3 8.720481e-005:4 8.720481e-005:5 8.720475e-005:6 
#C 6.458703e-009 6
0.000000e+000:1 8.720481e-005:2 8.720475e-005:3 8.720481e-005:4 8.720481e-005:5 8.720475e-005:6 
#C 6.498703e-009 6
0.000000e+000:1 8.720481e-005:2 8.720475e-005:3 8.720481e-005:4 8.720481e-005:5 8.720475e-005:6 
#C 6.538703e-009 6
0.000000e+000:1 8.720481e-005:2 8.720475e-005:3 8.720481e-005:4 8.720481e-005:5 8.720475e-005:6 
#C 6.578703e-009 6
0.000000e+000:1 8.720481e-005:2 8.720475e-005:3 8.720481e-005:4 8.720481e-005:5 8.720475e-005:6 
#C 6.618703e-009 6
0.000000e+000:1 8.720481e-005:2 8.720475e-005:3 8.720481e-005:4 8.720481e-005:5 8.720475e-005:6 
#C 6.658703e-009 6
0.000000e+000:1 8.720481e-005:2 8.720475e-005:3 8.720481e-005:4 8.720481e-005:5 8.720475e-005:6 
#C 6.698703e-009 6
0.000000e+000:1 8.720481e-005:2 8.720475e-005:3 8.720481e-005:4 8.720481e-005:5 8.720475e-005:6 
#C 6.738703e-009 6
0.000000e+000:1 8.720481e-005:2 8.720475e-005:3 8.720481e-005:4 8.720481e-005:5 8.720475e-005:6 
#C 6.778703e-009 6
0.000000e+000:1 8.720481e-005:2 8.720475e-005:3 8.720481e-005:4 8.720481e-005:5 8.720475e-005:6 
#C 6.818703e-009 6
0.000000e+000:1 8.720481e-005:2 8.720475e-005:3 8.720481e-005:4 8.720481e-005:5 8.720475e-005:6 
#C 6.858703e-009 6
0.000000e+000:1 8.720481e-005:2 8.720475e-005:3 8.720481e-005:4 8.720481e-005:5 8.720475e-005:6 
#C 6.898703e-009 6
0.000000e+000:1 8.720481e-005:2 8.720475e-005:3 8.720481e-005:4 8.720481e-005:5 8.720475e-005:6 
#C 6.938703e-009 6
