#H
SOURCE='IsSpice4'	VERSION='ver. 8.11-SI-1.0.3   10/6/2010'
TITLE='* Thu Oct 08 20:35:18 2015, Generated by: 010328058, Server: None, Windows, INSTALLED_SOFTWARE_VERSION: 2015.07 Build 6, Engine: 2015.07rc1, GUI: 2015.07rc1'
SUBTITLE='pc'
TIME='20:35:21' DATE='Oct 08, 2015' TEMPERATURE='298.15'
ANALYSIS='Trans'	SERIALNO='01234567'
ALLVALUES='NO' COMPLEXVALUES='NO' NODES='6'
SWEEPVAR='time' SWEEPMODE='VAR_STEP' DGTLDATA='NO'
XBEGIN='0.000000e+000' XEND='3.700000e-008'
FORMAT='0 VOLTSorAMPS;EFLOAT : NODEorBRANCH;NODE'
#N
'V(v_stimulus)'
'V(designator1_pad)'
'V(designator2_pad)'
'V(designator1_pin)'
'V(designator2_pin)'
'V(designator2_z)'
#U
'Volts'
'Volts'
'Volts'
'Volts'
'Volts'
'Volts'
#C 0.000000e+000 6
0.000000e+000:1 8.455034e-003:2 8.455034e-003:3 8.455034e-003:4 8.455034e-003:5 0.000000e+000:6 
#C 2.560000e-011 6
0.000000e+000:1 8.455034e-003:2 8.455034e-003:3 8.455034e-003:4 8.455034e-003:5 0.000000e+000:6 
#C 5.440000e-011 6
0.000000e+000:1 8.455034e-003:2 8.455034e-003:3 8.455034e-003:4 8.455034e-003:5 0.000000e+000:6 
#C 8.320000e-011 6
0.000000e+000:1 8.455034e-003:2 8.455034e-003:3 8.455034e-003:4 8.455034e-003:5 0.000000e+000:6 
#C 1.088000e-010 6
0.000000e+000:1 8.455034e-003:2 8.455034e-003:3 8.455034e-003:4 8.455034e-003:5 0.000000e+000:6 
#C 1.600000e-010 6
0.000000e+000:1 8.455034e-003:2 8.455034e-003:3 8.455034e-003:4 8.455034e-003:5 0.000000e+000:6 
#C 2.600000e-010 6
0.000000e+000:1 8.455034e-003:2 8.455034e-003:3 8.455034e-003:4 8.455034e-003:5 0.000000e+000:6 
#C 3.600000e-010 6
0.000000e+000:1 8.455034e-003:2 8.455034e-003:3 8.455034e-003:4 8.455034e-003:5 0.000000e+000:6 
#C 4.600000e-010 6
0.000000e+000:1 8.455034e-003:2 8.455034e-003:3 8.455034e-003:4 8.455034e-003:5 0.000000e+000:6 
#C 5.600000e-010 6
0.000000e+000:1 8.455034e-003:2 8.455034e-003:3 8.455034e-003:4 8.455034e-003:5 0.000000e+000:6 
#C 6.600000e-010 6
0.000000e+000:1 8.455034e-003:2 8.455034e-003:3 8.455034e-003:4 8.455034e-003:5 0.000000e+000:6 
#C 7.600000e-010 6
0.000000e+000:1 8.455034e-003:2 8.455034e-003:3 8.455034e-003:4 8.455034e-003:5 0.000000e+000:6 
#C 8.600000e-010 6
0.000000e+000:1 8.455034e-003:2 8.455034e-003:3 8.455034e-003:4 8.455034e-003:5 0.000000e+000:6 
#C 9.600000e-010 6
0.000000e+000:1 8.455034e-003:2 8.455034e-003:3 8.455034e-003:4 8.455034e-003:5 0.000000e+000:6 
#C 9.848303e-010 6
0.000000e+000:1 8.455034e-003:2 8.455034e-003:3 8.455034e-003:4 8.455034e-003:5 0.000000e+000:6 
#C 1.009661e-009 6
0.000000e+000:1 8.455034e-003:2 8.455034e-003:3 8.455034e-003:4 8.455034e-003:5 0.000000e+000:6 
#C 1.049661e-009 6
0.000000e+000:1 8.455034e-003:2 8.455034e-003:3 8.455034e-003:4 8.455034e-003:5 0.000000e+000:6 
#C 1.089661e-009 6
0.000000e+000:1 8.455034e-003:2 8.455034e-003:3 8.455034e-003:4 8.455034e-003:5 0.000000e+000:6 
#C 1.129661e-009 6
0.000000e+000:1 8.455034e-003:2 8.455034e-003:3 8.455034e-003:4 8.455034e-003:5 0.000000e+000:6 
#C 1.169661e-009 6
0.000000e+000:1 8.455034e-003:2 8.455034e-003:3 8.455034e-003:4 8.455034e-003:5 0.000000e+000:6 
#C 1.209661e-009 6
0.000000e+000:1 8.455034e-003:2 8.455034e-003:3 8.455034e-003:4 8.455034e-003:5 0.000000e+000:6 
#C 1.249661e-009 6
0.000000e+000:1 8.455034e-003:2 8.455034e-003:3 8.455034e-003:4 8.455034e-003:5 0.000000e+000:6 
#C 1.289661e-009 6
0.000000e+000:1 8.455034e-003:2 8.455034e-003:3 8.455034e-003:4 8.455034e-003:5 0.000000e+000:6 
#C 1.329661e-009 6
0.000000e+000:1 8.455034e-003:2 8.455034e-003:3 8.455034e-003:4 8.455034e-003:5 0.000000e+000:6 
#C 1.369661e-009 6
0.000000e+000:1 8.455034e-003:2 8.455034e-003:3 8.455034e-003:4 8.455034e-003:5 0.000000e+000:6 
#C 1.409661e-009 6
0.000000e+000:1 8.455034e-003:2 8.455034e-003:3 8.455034e-003:4 8.455034e-003:5 0.000000e+000:6 
#C 1.449661e-009 6
0.000000e+000:1 8.455034e-003:2 8.455034e-003:3 8.455034e-003:4 8.455034e-003:5 0.000000e+000:6 
#C 1.489661e-009 6
0.000000e+000:1 8.455034e-003:2 8.455034e-003:3 8.455034e-003:4 8.455034e-003:5 0.000000e+000:6 
#C 1.529661e-009 6
0.000000e+000:1 8.455034e-003:2 8.455034e-003:3 8.455034e-003:4 8.455034e-003:5 0.000000e+000:6 
#C 1.569661e-009 6
0.000000e+000:1 8.455034e-003:2 8.455034e-003:3 8.455034e-003:4 8.455034e-003:5 0.000000e+000:6 
#C 1.609661e-009 6
0.000000e+000:1 8.455034e-003:2 8.455034e-003:3 8.455034e-003:4 8.455034e-003:5 0.000000e+000:6 
#C 1.649661e-009 6
0.000000e+000:1 8.455034e-003:2 8.455034e-003:3 8.455034e-003:4 8.455034e-003:5 0.000000e+000:6 
#C 1.689661e-009 6
0.000000e+000:1 8.455034e-003:2 8.455034e-003:3 8.455034e-003:4 8.455034e-003:5 0.000000e+000:6 
#C 1.729661e-009 6
0.000000e+000:1 8.455034e-003:2 8.455034e-003:3 8.455034e-003:4 8.455034e-003:5 0.000000e+000:6 
#C 1.769661e-009 6
0.000000e+000:1 8.455034e-003:2 8.455034e-003:3 8.455034e-003:4 8.455034e-003:5 0.000000e+000:6 
#C 1.809661e-009 6
0.000000e+000:1 8.455034e-003:2 8.455034e-003:3 8.455034e-003:4 8.455034e-003:5 0.000000e+000:6 
#C 1.849661e-009 6
0.000000e+000:1 8.455034e-003:2 8.455034e-003:3 8.455034e-003:4 8.455034e-003:5 0.000000e+000:6 
#C 1.889661e-009 6
0.000000e+000:1 8.455034e-003:2 8.455034e-003:3 8.455034e-003:4 8.455034e-003:5 0.000000e+000:6 
#C 1.929661e-009 6
0.000000e+000:1 8.455034e-003:2 8.455034e-003:3 8.455034e-003:4 8.455034e-003:5 0.000000e+000:6 
#C 1.969661e-009 6
0.000000e+000:1 8.455034e-003:2 8.455034e-003:3 8.455034e-003:4 8.455034e-003:5 0.000000e+000:6 
#C 2.009661e-009 6
0.000000e+000:1 8.455034e-003:2 8.455034e-003:3 8.455034e-003:4 8.455034e-003:5 0.000000e+000:6 
#C 2.049661e-009 6
0.000000e+000:1 8.455034e-003:2 8.455034e-003:3 8.455034e-003:4 8.455034e-003:5 0.000000e+000:6 
#C 2.089661e-009 6
0.000000e+000:1 8.455034e-003:2 8.455034e-003:3 8.455034e-003:4 8.455034e-003:5 0.000000e+000:6 
#C 2.129661e-009 6
0.000000e+000:1 8.455034e-003:2 8.455034e-003:3 8.455034e-003:4 8.455034e-003:5 0.000000e+000:6 
#C 2.169661e-009 6
0.000000e+000:1 8.455034e-003:2 8.455034e-003:3 8.455034e-003:4 8.455034e-003:5 0.000000e+000:6 
#C 2.209661e-009 6
0.000000e+000:1 8.455034e-003:2 8.455034e-003:3 8.455034e-003:4 8.455034e-003:5 0.000000e+000:6 
#C 2.249661e-009 6
0.000000e+000:1 8.455034e-003:2 8.455034e-003:3 8.455034e-003:4 8.455034e-003:5 0.000000e+000:6 
#C 2.289661e-009 6
0.000000e+000:1 8.455034e-003:2 8.455034e-003:3 8.455034e-003:4 8.455034e-003:5 0.000000e+000:6 
#C 2.329661e-009 6
0.000000e+000:1 8.455034e-003:2 8.455034e-003:3 8.455034e-003:4 8.455034e-003:5 0.000000e+000:6 
#C 2.369661e-009 6
0.000000e+000:1 8.455034e-003:2 8.455034e-003:3 8.455034e-003:4 8.455034e-003:5 0.000000e+000:6 
#C 2.409661e-009 6
0.000000e+000:1 8.455034e-003:2 8.455034e-003:3 8.455034e-003:4 8.455034e-003:5 0.000000e+000:6 
#C 2.449661e-009 6
0.000000e+000:1 8.455034e-003:2 8.455034e-003:3 8.455034e-003:4 8.455034e-003:5 0.000000e+000:6 
#C 2.489661e-009 6
0.000000e+000:1 8.455034e-003:2 8.455034e-003:3 8.455034e-003:4 8.455034e-003:5 0.000000e+000:6 
#C 2.529661e-009 6
0.000000e+000:1 8.455034e-003:2 8.455034e-003:3 8.455034e-003:4 8.455034e-003:5 0.000000e+000:6 
#C 2.569661e-009 6
0.000000e+000:1 8.455034e-003:2 8.455034e-003:3 8.455034e-003:4 8.455034e-003:5 0.000000e+000:6 
#C 2.609661e-009 6
0.000000e+000:1 8.455034e-003:2 8.455034e-003:3 8.455034e-003:4 8.455034e-003:5 0.000000e+000:6 
#C 2.649661e-009 6
0.000000e+000:1 8.455034e-003:2 8.455034e-003:3 8.455034e-003:4 8.455034e-003:5 0.000000e+000:6 
#C 2.689661e-009 6
0.000000e+000:1 8.455034e-003:2 8.455034e-003:3 8.455034e-003:4 8.455034e-003:5 0.000000e+000:6 
#C 2.729661e-009 6
0.000000e+000:1 8.455034e-003:2 8.455034e-003:3 8.455034e-003:4 8.455034e-003:5 0.000000e+000:6 
#C 2.769661e-009 6
0.000000e+000:1 8.455034e-003:2 8.455034e-003:3 8.455034e-003:4 8.455034e-003:5 0.000000e+000:6 
#C 2.809661e-009 6
0.000000e+000:1 8.455034e-003:2 8.455034e-003:3 8.455034e-003:4 8.455034e-003:5 0.000000e+000:6 
#C 2.849661e-009 6
0.000000e+000:1 8.455034e-003:2 8.455034e-003:3 8.455034e-003:4 8.455034e-003:5 0.000000e+000:6 
#C 2.889661e-009 6
0.000000e+000:1 8.455034e-003:2 8.455034e-003:3 8.455034e-003:4 8.455034e-003:5 0.000000e+000:6 
#C 2.929661e-009 6
0.000000e+000:1 8.455034e-003:2 8.455034e-003:3 8.455034e-003:4 8.455034e-003:5 0.000000e+000:6 
#C 2.969661e-009 6
0.000000e+000:1 8.455034e-003:2 8.455034e-003:3 8.455034e-003:4 8.455034e-003:5 0.000000e+000:6 
#C 3.000000e-009 6
0.000000e+000:1 8.455034e-003:2 8.455034e-003:3 8.455034e-003:4 8.455034e-003:5 0.000000e+000:6 
#C 3.031018e-009 6
3.101832e-001:1 8.455034e-003:2 8.455034e-003:3 8.455034e-003:4 8.455034e-003:5 0.000000e+000:6 
#C 3.051100e-009 6
5.110000e-001:1 1.609379e-002:2 8.455034e-003:3 8.461276e-003:4 8.455034e-003:5 0.000000e+000:6 
#C 3.085704e-009 6
8.600817e-001:1 2.158900e-001:2 8.455034e-003:3 6.322817e-002:4 8.455034e-003:5 0.000000e+000:6 
#C 3.107085e-009 6
1.000000e+000:1 3.241209e-001:2 8.455034e-003:3 1.534603e-001:4 8.455034e-003:5 0.000000e+000:6 
#C 3.135424e-009 6
1.000000e+000:1 4.554107e-001:2 8.455034e-003:3 2.941239e-001:4 8.455034e-003:5 0.000000e+000:6 
#C 3.173210e-009 6
1.000000e+000:1 6.194497e-001:2 8.455034e-003:3 4.741988e-001:4 8.455034e-003:5 0.000000e+000:6 
#C 3.210995e-009 6
1.000000e+000:1 7.787850e-001:2 8.455034e-003:3 6.393307e-001:4 8.455034e-003:5 0.000000e+000:6 
#C 3.248781e-009 6
1.000000e+000:1 9.375360e-001:2 8.455034e-003:3 7.985750e-001:4 8.455034e-003:5 0.000000e+000:6 
#C 3.269888e-009 6
1.000000e+000:1 1.026463e+000:2 8.455034e-003:3 8.870984e-001:4 8.455034e-003:5 0.000000e+000:6 
#C 3.294718e-009 6
1.000000e+000:1 1.131424e+000:2 8.455034e-003:3 9.914237e-001:4 8.455034e-003:5 0.000000e+000:6 
#C 3.319549e-009 6
1.000000e+000:1 1.236232e+000:2 8.455034e-003:3 1.096090e+000:4 8.455034e-003:5 0.000000e+000:6 
#C 3.359549e-009 6
1.000000e+000:1 1.405530e+000:2 8.455034e-003:3 1.264962e+000:4 8.455034e-003:5 0.000000e+000:6 
#C 3.399549e-009 6
1.000000e+000:1 1.575295e+000:2 8.455034e-003:3 1.434159e+000:4 8.455034e-003:5 0.000000e+000:6 
#C 3.439549e-009 6
1.000000e+000:1 1.745337e+000:2 8.455034e-003:3 1.603860e+000:4 8.455034e-003:5 0.000000e+000:6 
#C 3.479549e-009 6
1.000000e+000:1 1.914840e+000:2 8.455034e-003:3 1.773639e+000:4 8.455034e-003:5 0.000000e+000:6 
#C 3.519549e-009 6
1.000000e+000:1 2.083300e+000:2 8.455034e-003:3 1.942797e+000:4 8.455034e-003:5 0.000000e+000:6 
#C 3.559549e-009 6
1.000000e+000:1 2.251234e+000:2 8.455034e-003:3 2.111079e+000:4 8.455034e-003:5 0.000000e+000:6 
#C 3.599549e-009 6
1.000000e+000:1 2.418756e+000:2 8.455034e-003:3 2.278791e+000:4 8.455034e-003:5 0.000000e+000:6 
#C 3.639549e-009 6
1.000000e+000:1 2.542382e+000:2 8.455034e-003:3 2.440702e+000:4 8.455034e-003:5 0.000000e+000:6 
#C 3.679549e-009 6
1.000000e+000:1 2.534884e+000:2 8.455034e-003:3 2.529426e+000:4 8.455034e-003:5 0.000000e+000:6 
#C 3.719549e-009 6
1.000000e+000:1 2.527949e+000:2 8.455034e-003:3 2.534844e+000:4 8.455034e-003:5 0.000000e+000:6 
#C 3.759549e-009 6
1.000000e+000:1 2.524551e+000:2 8.455034e-003:3 2.526276e+000:4 8.455034e-003:5 0.000000e+000:6 
#C 3.799549e-009 6
1.000000e+000:1 2.522978e+000:2 8.455034e-003:3 2.522231e+000:4 8.455034e-003:5 0.000000e+000:6 
#C 3.839549e-009 6
1.000000e+000:1 2.522185e+000:2 8.455034e-003:3 2.520773e+000:4 8.455034e-003:5 0.000000e+000:6 
#C 3.879549e-009 6
1.000000e+000:1 2.521769e+000:2 8.455034e-003:3 2.520093e+000:4 8.455034e-003:5 0.000000e+000:6 
#C 3.919549e-009 6
1.000000e+000:1 2.521552e+000:2 8.455034e-003:3 2.519722e+000:4 8.455034e-003:5 0.000000e+000:6 
#C 3.959549e-009 6
1.000000e+000:1 2.521440e+000:2 8.455034e-003:3 2.519523e+000:4 8.455034e-003:5 0.000000e+000:6 
#C 3.999549e-009 6
1.000000e+000:1 2.521383e+000:2 8.455034e-003:3 2.519421e+000:4 8.455034e-003:5 0.000000e+000:6 
#C 4.039549e-009 6
1.000000e+000:1 2.521353e+000:2 8.455034e-003:3 2.519369e+000:4 8.455034e-003:5 0.000000e+000:6 
#C 4.079549e-009 6
1.000000e+000:1 2.521338e+000:2 8.455034e-003:3 2.519342e+000:4 8.455034e-003:5 0.000000e+000:6 
#C 4.119549e-009 6
1.000000e+000:1 2.521330e+000:2 8.455034e-003:3 2.519328e+000:4 8.455034e-003:5 0.000000e+000:6 
#C 4.159549e-009 6
1.000000e+000:1 2.521326e+000:2 8.586261e-003:3 2.519321e+000:4 1.971905e-002:5 0.000000e+000:6 
#C 4.199549e-009 6
1.000000e+000:1 2.521324e+000:2 1.236732e-002:3 2.519317e+000:4 1.310454e-001:5 0.000000e+000:6 
#C 4.239549e-009 6
1.000000e+000:1 2.521323e+000:2 3.611211e-002:3 2.519315e+000:4 3.511898e-001:5 0.000000e+000:6 
#C 4.279549e-009 6
1.000000e+000:1 2.521322e+000:2 1.074705e-001:3 2.519314e+000:4 5.872337e-001:5 0.000000e+000:6 
#C 4.319549e-009 6
1.000000e+000:1 2.521322e+000:2 2.501756e-001:3 2.519314e+000:4 7.880003e-001:5 0.000000e+000:6 
#C 4.359549e-009 6
1.000000e+000:1 2.521322e+000:2 4.729309e-001:3 2.519313e+000:4 9.561843e-001:5 0.000000e+000:6 
#C 4.399549e-009 6
1.000000e+000:1 2.521322e+000:2 7.679365e-001:3 2.519313e+000:4 1.118413e+000:5 0.000000e+000:6 
#C 4.439549e-009 6
1.000000e+000:1 2.521322e+000:2 1.115673e+000:3 2.519313e+000:4 1.303187e+000:5 0.000000e+000:6 
#C 4.479549e-009 6
1.000000e+000:1 2.521322e+000:2 1.491933e+000:3 2.519313e+000:4 1.529975e+000:5 1.000000e+000:6 
#C 4.519549e-009 6
1.000000e+000:1 2.521322e+000:2 1.874339e+000:3 2.519313e+000:4 1.806051e+000:5 1.000000e+000:6 
#C 4.559549e-009 6
1.000000e+000:1 2.521322e+000:2 2.246807e+000:3 2.519313e+000:4 2.126898e+000:5 1.000000e+000:6 
#C 4.599549e-009 6
1.000000e+000:1 2.521322e+000:2 2.601339e+000:3 2.519313e+000:4 2.479465e+000:5 1.000000e+000:6 
#C 4.639549e-009 6
1.000000e+000:1 2.521322e+000:2 2.937353e+000:3 2.519313e+000:4 2.847508e+000:5 1.000000e+000:6 
#C 4.679549e-009 6
1.000000e+000:1 2.521322e+000:2 3.259420e+000:3 2.519313e+000:4 3.216667e+000:5 1.000000e+000:6 
#C 4.719549e-009 6
1.000000e+000:1 2.521322e+000:2 3.574438e+000:3 2.519313e+000:4 3.575625e+000:5 1.000000e+000:6 
#C 4.759549e-009 6
1.000000e+000:1 2.521322e+000:2 3.888299e+000:3 2.519313e+000:4 3.884519e+000:5 1.000000e+000:6 
#C 4.799549e-009 6
1.000000e+000:1 2.521322e+000:2 4.198669e+000:3 2.519313e+000:4 4.082565e+000:5 1.000000e+000:6 
#C 4.839549e-009 6
1.000000e+000:1 2.521322e+000:2 4.472653e+000:3 2.519313e+000:4 4.202046e+000:5 1.000000e+000:6 
#C 4.879549e-009 6
1.000000e+000:1 2.521322e+000:2 4.655591e+000:3 2.519313e+000:4 4.307299e+000:5 1.000000e+000:6 
#C 4.919549e-009 6
1.000000e+000:1 2.521322e+000:2 4.745077e+000:3 2.519313e+000:4 4.422599e+000:5 1.000000e+000:6 
#C 4.959549e-009 6
1.000000e+000:1 2.521322e+000:2 4.767931e+000:3 2.519313e+000:4 4.539529e+000:5 1.000000e+000:6 
#C 4.999549e-009 6
1.000000e+000:1 2.521322e+000:2 4.754881e+000:3 2.519313e+000:4 4.640424e+000:5 1.000000e+000:6 
#C 5.039549e-009 6
1.000000e+000:1 2.521322e+000:2 4.730595e+000:3 2.519313e+000:4 4.712472e+000:5 1.000000e+000:6 
#C 5.079549e-009 6
1.000000e+000:1 2.521322e+000:2 4.710450e+000:3 2.519313e+000:4 4.752337e+000:5 1.000000e+000:6 
#C 5.119549e-009 6
1.000000e+000:1 2.521322e+000:2 4.700866e+000:3 2.519313e+000:4 4.764951e+000:5 1.000000e+000:6 
#C 5.159549e-009 6
1.000000e+000:1 2.521322e+000:2 4.701803e+000:3 2.519313e+000:4 4.759729e+000:5 1.000000e+000:6 
#C 5.199549e-009 6
1.000000e+000:1 2.521322e+000:2 4.709637e+000:3 2.519313e+000:4 4.746630e+000:5 1.000000e+000:6 
#C 5.239549e-009 6
1.000000e+000:1 2.521051e+000:2 4.719853e+000:3 2.499058e+000:4 4.733400e+000:5 1.000000e+000:6 
#C 5.279549e-009 6
1.000000e+000:1 2.516232e+000:2 4.728805e+000:3 2.430783e+000:4 4.724411e+000:5 1.000000e+000:6 
#C 5.319549e-009 6
1.000000e+000:1 2.503255e+000:2 4.734554e+000:3 2.499977e+000:4 4.720866e+000:5 1.000000e+000:6 
#C 5.359549e-009 6
1.000000e+000:1 2.495009e+000:2 4.736828e+000:3 2.580225e+000:4 4.721783e+000:5 1.000000e+000:6 
#C 5.399549e-009 6
1.000000e+000:1 2.501292e+000:2 4.736431e+000:3 2.565750e+000:4 4.725207e+000:5 1.000000e+000:6 
#C 5.439549e-009 6
1.000000e+000:1 2.515010e+000:2 4.734592e+000:3 2.519843e+000:4 4.729199e+000:5 1.000000e+000:6 
#C 5.479549e-009 6
1.000000e+000:1 2.525529e+000:2 4.732452e+000:3 2.504967e+000:4 4.732406e+000:5 1.000000e+000:6 
#C 5.519549e-009 6
1.000000e+000:1 2.530446e+000:2 4.730768e+000:3 2.534974e+000:4 4.734234e+000:5 1.000000e+000:6 
#C 5.559549e-009 6
1.000000e+000:1 2.535542e+000:2 4.729856e+000:3 2.599691e+000:4 4.734720e+000:5 1.000000e+000:6 
#C 5.599549e-009 6
1.000000e+000:1 2.549816e+000:2 4.729677e+000:3 2.685046e+000:4 4.734269e+000:5 1.000000e+000:6 
#C 5.639549e-009 6
1.000000e+000:1 2.580921e+000:2 4.729992e+000:3 2.779913e+000:4 4.733394e+000:5 1.000000e+000:6 
#C 5.679549e-009 6
1.000000e+000:1 2.632477e+000:2 4.730512e+000:3 2.875788e+000:4 4.732524e+000:5 1.000000e+000:6 
#C 5.719549e-009 6
1.000000e+000:1 2.702926e+000:2 4.731005e+000:3 2.966663e+000:4 4.731911e+000:5 1.000000e+000:6 
#C 5.759549e-009 6
1.000000e+000:1 2.787242e+000:2 4.731339e+000:3 3.050036e+000:4 4.731631e+000:5 1.000000e+000:6 
#C 5.799549e-009 6
1.000000e+000:1 2.878363e+000:2 4.731481e+000:3 3.129808e+000:4 4.731633e+000:5 1.000000e+000:6 
#C 5.839549e-009 6
1.000000e+000:1 2.970914e+000:2 4.731468e+000:3 3.242388e+000:4 4.731803e+000:5 1.000000e+000:6 
#C 5.879549e-009 6
1.000000e+000:1 3.064352e+000:2 4.731365e+000:3 3.327054e+000:4 4.732025e+000:5 1.000000e+000:6 
#C 5.919549e-009 6
1.000000e+000:1 3.153832e+000:2 4.731239e+000:3 3.326762e+000:4 4.732213e+000:5 1.000000e+000:6 
#C 5.959549e-009 6
1.000000e+000:1 3.228803e+000:2 4.731136e+000:3 3.352769e+000:4 4.732326e+000:5 1.000000e+000:6 
#C 5.999549e-009 6
1.000000e+000:1 3.288356e+000:2 4.731076e+000:3 3.424908e+000:4 4.732362e+000:5 1.000000e+000:6 
#C 6.039549e-009 6
1.000000e+000:1 3.339978e+000:2 4.731060e+000:3 3.491924e+000:4 4.732341e+000:5 1.000000e+000:6 
#C 6.079549e-009 6
1.000000e+000:1 3.388461e+000:2 4.731075e+000:3 3.526892e+000:4 4.732292e+000:5 1.000000e+000:6 
#C 6.119549e-009 6
1.000000e+000:1 3.432995e+000:2 4.731103e+000:3 3.533096e+000:4 4.732240e+000:5 1.000000e+000:6 
#C 6.159549e-009 6
1.000000e+000:1 3.469795e+000:2 4.731132e+000:3 3.523500e+000:4 4.732203e+000:5 1.000000e+000:6 
#C 6.199549e-009 6
1.000000e+000:1 3.496184e+000:2 4.731153e+000:3 3.509752e+000:4 4.732184e+000:5 1.000000e+000:6 
#C 6.239549e-009 6
1.000000e+000:1 3.511593e+000:2 4.731162e+000:3 3.499206e+000:4 4.732182e+000:5 1.000000e+000:6 
#C 6.279549e-009 6
1.000000e+000:1 3.517694e+000:2 4.731162e+000:3 3.494657e+000:4 4.732191e+000:5 1.000000e+000:6 
#C 6.319549e-009 6
1.000000e+000:1 3.517584e+000:2 4.731171e+000:3 3.495669e+000:4 4.733483e+000:5 1.000000e+000:6 
#C 6.359549e-009 6
1.000000e+000:1 3.514453e+000:2 4.731284e+000:3 3.500163e+000:4 4.731467e+000:5 1.000000e+000:6 
#C 6.399549e-009 6
1.000000e+000:1 3.510814e+000:2 4.731539e+000:3 3.505700e+000:4 4.747557e+000:5 1.000000e+000:6 
#C 6.439549e-009 6
1.000000e+000:1 3.508159e+000:2 4.734290e+000:3 3.510389e+000:4 4.793840e+000:5 1.000000e+000:6 
#C 6.479549e-009 6
1.000000e+000:1 3.507005e+000:2 4.742938e+000:3 3.513286e+000:4 4.790372e+000:5 1.000000e+000:6 
#C 6.519549e-009 6
1.000000e+000:1 3.507167e+000:2 4.753994e+000:3 3.514313e+000:4 4.731215e+000:5 1.000000e+000:6 
#C 6.559549e-009 6
1.000000e+000:1 3.508119e+000:2 4.758798e+000:3 3.513952e+000:4 4.680211e+000:5 1.000000e+000:6 
#C 6.599549e-009 6
1.000000e+000:1 3.509297e+000:2 4.752696e+000:3 3.512882e+000:4 4.674271e+000:5 1.000000e+000:6 
#C 6.639549e-009 6
1.000000e+000:1 3.510286e+000:2 4.738685e+000:3 3.511710e+000:4 4.697516e+000:5 1.000000e+000:6 
#C 6.679549e-009 6
1.000000e+000:1 3.510884e+000:2 4.723177e+000:3 3.510824e+000:4 4.709944e+000:5 1.000000e+000:6 
#C 6.719549e-009 6
1.000000e+000:1 3.511081e+000:2 4.709554e+000:3 3.510370e+000:4 4.679955e+000:5 1.000000e+000:6 
#C 6.759549e-009 6
1.000000e+000:1 3.510986e+000:2 4.694855e+000:3 3.510309e+000:4 4.598852e+000:5 1.000000e+000:6 
#C 6.799549e-009 6
1.000000e+000:1 3.510745e+000:2 4.670906e+000:3 3.510502e+000:4 4.478611e+000:5 1.000000e+000:6 
#C 6.839549e-009 6
1.000000e+000:1 3.510488e+000:2 4.628001e+000:3 3.510792e+000:4 4.341802e+000:5 1.000000e+000:6 
#C 6.879549e-009 6
1.000000e+000:1 3.510298e+000:2 4.559008e+000:3 3.511056e+000:4 4.210443e+000:5 1.000000e+000:6 
#C 6.919549e-009 6
