#H
SOURCE='IsSpice4'	VERSION='ver. 8.11-SI-1.0.3   10/6/2010'
TITLE='* Thu Oct 29 20:49:59 2015, Generated by: 010328058, Server: None, Windows, INSTALLED_SOFTWARE_VERSION: 2015.07 Build 6, Engine: 2015.07rc1, GUI: 2015.07rc1'
SUBTITLE='pc'
TIME='20:50:28' DATE='Oct 29, 2015' TEMPERATURE='373.15'
ANALYSIS='Trans'	SERIALNO='01234567'
ALLVALUES='NO' COMPLEXVALUES='NO' NODES='9'
SWEEPVAR='time' SWEEPMODE='VAR_STEP' DGTLDATA='NO'
XBEGIN='0.000000e+000' XEND='2.590000e-007'
FORMAT='0 VOLTSorAMPS;EFLOAT : NODEorBRANCH;NODE'
#N
'V(v_stimulus)'
'V(controller_pad)'
'V(io0_pad)'
'V(io1_pad)'
'V(controller_pin)'
'V(io0_pin)'
'V(io1_pin)'
'V(io0_z)'
'V(io1_z)'
#U
'Volts'
'Volts'
'Volts'
'Volts'
'Volts'
'Volts'
'Volts'
'Volts'
'Volts'
#C 0.000000e+000 9
0.000000e+000:1 9.998222e-005:2 9.997521e-005:3 9.997521e-005:4 9.997755e-005:5 9.997755e-005:6 
9.997755e-005:7 0.000000e+000:8 0.000000e+000:9 
#C 2.560000e-011 9
0.000000e+000:1 9.998222e-005:2 9.997521e-005:3 9.997521e-005:4 9.997755e-005:5 9.997755e-005:6 
9.997755e-005:7 0.000000e+000:8 0.000000e+000:9 
#C 5.440000e-011 9
0.000000e+000:1 9.998222e-005:2 9.997521e-005:3 9.997521e-005:4 9.997755e-005:5 9.997755e-005:6 
9.997755e-005:7 0.000000e+000:8 0.000000e+000:9 
#C 8.320000e-011 9
0.000000e+000:1 9.998222e-005:2 9.997521e-005:3 9.997521e-005:4 9.997755e-005:5 9.997755e-005:6 
9.997755e-005:7 0.000000e+000:8 0.000000e+000:9 
#C 1.088000e-010 9
0.000000e+000:1 9.998222e-005:2 9.997521e-005:3 9.997521e-005:4 9.997755e-005:5 9.997755e-005:6 
9.997755e-005:7 0.000000e+000:8 0.000000e+000:9 
#C 1.600000e-010 9
0.000000e+000:1 9.998222e-005:2 9.997521e-005:3 9.997521e-005:4 9.997755e-005:5 9.997755e-005:6 
9.997755e-005:7 0.000000e+000:8 0.000000e+000:9 
#C 2.231942e-010 9
0.000000e+000:1 9.998222e-005:2 9.997521e-005:3 9.997521e-005:4 9.997755e-005:5 9.997755e-005:6 
9.997755e-005:7 0.000000e+000:8 0.000000e+000:9 
#C 2.863883e-010 9
0.000000e+000:1 9.998222e-005:2 9.997521e-005:3 9.997521e-005:4 9.997755e-005:5 9.997755e-005:6 
9.997755e-005:7 0.000000e+000:8 0.000000e+000:9 
#C 3.495825e-010 9
0.000000e+000:1 9.998222e-005:2 9.997521e-005:3 9.997521e-005:4 9.997755e-005:5 9.997755e-005:6 
9.997755e-005:7 0.000000e+000:8 0.000000e+000:9 
#C 4.127766e-010 9
0.000000e+000:1 9.998222e-005:2 9.997521e-005:3 9.997521e-005:4 9.997755e-005:5 9.997755e-005:6 
9.997755e-005:7 0.000000e+000:8 0.000000e+000:9 
#C 4.759708e-010 9
0.000000e+000:1 9.998222e-005:2 9.997521e-005:3 9.997521e-005:4 9.997755e-005:5 9.997755e-005:6 
9.997755e-005:7 0.000000e+000:8 0.000000e+000:9 
#C 5.391649e-010 9
0.000000e+000:1 9.998222e-005:2 9.997521e-005:3 9.997521e-005:4 9.997755e-005:5 9.997755e-005:6 
9.997755e-005:7 0.000000e+000:8 0.000000e+000:9 
#C 6.023591e-010 9
0.000000e+000:1 9.998222e-005:2 9.997521e-005:3 9.997521e-005:4 9.997755e-005:5 9.997755e-005:6 
9.997755e-005:7 0.000000e+000:8 0.000000e+000:9 
#C 6.655532e-010 9
0.000000e+000:1 9.998222e-005:2 9.997521e-005:3 9.997521e-005:4 9.997755e-005:5 9.997755e-005:6 
9.997755e-005:7 0.000000e+000:8 0.000000e+000:9 
#C 7.287474e-010 9
0.000000e+000:1 9.998222e-005:2 9.997521e-005:3 9.997521e-005:4 9.997755e-005:5 9.997755e-005:6 
9.997755e-005:7 0.000000e+000:8 0.000000e+000:9 
#C 7.919415e-010 9
0.000000e+000:1 9.998222e-005:2 9.997521e-005:3 9.997521e-005:4 9.997755e-005:5 9.997755e-005:6 
9.997755e-005:7 0.000000e+000:8 0.000000e+000:9 
#C 8.551357e-010 9
0.000000e+000:1 9.998222e-005:2 9.997521e-005:3 9.997521e-005:4 9.997755e-005:5 9.997755e-005:6 
9.997755e-005:7 0.000000e+000:8 0.000000e+000:9 
#C 8.768622e-010 9
0.000000e+000:1 9.998222e-005:2 9.997521e-005:3 9.997521e-005:4 9.997755e-005:5 9.997755e-005:6 
9.997755e-005:7 0.000000e+000:8 0.000000e+000:9 
#C 8.985887e-010 9
0.000000e+000:1 9.998222e-005:2 9.997521e-005:3 9.997521e-005:4 9.997755e-005:5 9.997755e-005:6 
9.997755e-005:7 0.000000e+000:8 0.000000e+000:9 
#C 9.420417e-010 9
0.000000e+000:1 9.998222e-005:2 9.997521e-005:3 9.997521e-005:4 9.997755e-005:5 9.997755e-005:6 
9.997755e-005:7 0.000000e+000:8 0.000000e+000:9 
#C 1.005236e-009 9
0.000000e+000:1 9.998222e-005:2 9.997521e-005:3 9.997521e-005:4 9.997755e-005:5 9.997755e-005:6 
9.997755e-005:7 0.000000e+000:8 0.000000e+000:9 
#C 1.068430e-009 9
0.000000e+000:1 9.998222e-005:2 9.997521e-005:3 9.997521e-005:4 9.997755e-005:5 9.997755e-005:6 
9.997755e-005:7 0.000000e+000:8 0.000000e+000:9 
#C 1.131624e-009 9
0.000000e+000:1 9.998222e-005:2 9.997521e-005:3 9.997521e-005:4 9.997755e-005:5 9.997755e-005:6 
9.997755e-005:7 0.000000e+000:8 0.000000e+000:9 
#C 1.194818e-009 9
0.000000e+000:1 9.998222e-005:2 9.997521e-005:3 9.997521e-005:4 9.997755e-005:5 9.997755e-005:6 
9.997755e-005:7 0.000000e+000:8 0.000000e+000:9 
#C 1.216545e-009 9
0.000000e+000:1 9.998222e-005:2 9.997521e-005:3 9.997521e-005:4 9.997755e-005:5 9.997755e-005:6 
9.997755e-005:7 0.000000e+000:8 0.000000e+000:9 
#C 1.238271e-009 9
0.000000e+000:1 9.998222e-005:2 9.997521e-005:3 9.997521e-005:4 9.997755e-005:5 9.997755e-005:6 
9.997755e-005:7 0.000000e+000:8 0.000000e+000:9 
#C 1.281724e-009 9
0.000000e+000:1 9.998222e-005:2 9.997521e-005:3 9.997521e-005:4 9.997755e-005:5 9.997755e-005:6 
9.997755e-005:7 0.000000e+000:8 0.000000e+000:9 
#C 1.344918e-009 9
0.000000e+000:1 9.998222e-005:2 9.997521e-005:3 9.997521e-005:4 9.997755e-005:5 9.997755e-005:6 
9.997755e-005:7 0.000000e+000:8 0.000000e+000:9 
#C 1.408113e-009 9
0.000000e+000:1 9.998222e-005:2 9.997521e-005:3 9.997521e-005:4 9.997755e-005:5 9.997755e-005:6 
9.997755e-005:7 0.000000e+000:8 0.000000e+000:9 
#C 1.471307e-009 9
0.000000e+000:1 9.998222e-005:2 9.997521e-005:3 9.997521e-005:4 9.997755e-005:5 9.997755e-005:6 
9.997755e-005:7 0.000000e+000:8 0.000000e+000:9 
#C 1.534501e-009 9
0.000000e+000:1 9.998222e-005:2 9.997521e-005:3 9.997521e-005:4 9.997755e-005:5 9.997755e-005:6 
9.997755e-005:7 0.000000e+000:8 0.000000e+000:9 
#C 1.556227e-009 9
0.000000e+000:1 9.998222e-005:2 9.997521e-005:3 9.997521e-005:4 9.997755e-005:5 9.997755e-005:6 
9.997755e-005:7 0.000000e+000:8 0.000000e+000:9 
#C 1.577954e-009 9
0.000000e+000:1 9.998222e-005:2 9.997521e-005:3 9.997521e-005:4 9.997755e-005:5 9.997755e-005:6 
9.997755e-005:7 0.000000e+000:8 0.000000e+000:9 
#C 1.621407e-009 9
0.000000e+000:1 9.998222e-005:2 9.997521e-005:3 9.997521e-005:4 9.997755e-005:5 9.997755e-005:6 
9.997755e-005:7 0.000000e+000:8 0.000000e+000:9 
#C 1.684601e-009 9
0.000000e+000:1 9.998222e-005:2 9.997521e-005:3 9.997521e-005:4 9.997755e-005:5 9.997755e-005:6 
9.997755e-005:7 0.000000e+000:8 0.000000e+000:9 
#C 1.747795e-009 9
0.000000e+000:1 9.998222e-005:2 9.997521e-005:3 9.997521e-005:4 9.997755e-005:5 9.997755e-005:6 
9.997755e-005:7 0.000000e+000:8 0.000000e+000:9 
#C 1.810989e-009 9
0.000000e+000:1 9.998222e-005:2 9.997521e-005:3 9.997521e-005:4 9.997755e-005:5 9.997755e-005:6 
9.997755e-005:7 0.000000e+000:8 0.000000e+000:9 
#C 1.874183e-009 9
0.000000e+000:1 9.998222e-005:2 9.997521e-005:3 9.997521e-005:4 9.997755e-005:5 9.997755e-005:6 
9.997755e-005:7 0.000000e+000:8 0.000000e+000:9 
#C 1.895910e-009 9
0.000000e+000:1 9.998222e-005:2 9.997521e-005:3 9.997521e-005:4 9.997755e-005:5 9.997755e-005:6 
9.997755e-005:7 0.000000e+000:8 0.000000e+000:9 
#C 1.917636e-009 9
0.000000e+000:1 9.998222e-005:2 9.997521e-005:3 9.997521e-005:4 9.997755e-005:5 9.997755e-005:6 
9.997755e-005:7 0.000000e+000:8 0.000000e+000:9 
#C 1.961089e-009 9
0.000000e+000:1 9.998222e-005:2 9.997521e-005:3 9.997521e-005:4 9.997755e-005:5 9.997755e-005:6 
9.997755e-005:7 0.000000e+000:8 0.000000e+000:9 
#C 2.024284e-009 9
0.000000e+000:1 9.998222e-005:2 9.997521e-005:3 9.997521e-005:4 9.997755e-005:5 9.997755e-005:6 
9.997755e-005:7 0.000000e+000:8 0.000000e+000:9 
#C 2.087478e-009 9
0.000000e+000:1 9.998222e-005:2 9.997521e-005:3 9.997521e-005:4 9.997755e-005:5 9.997755e-005:6 
9.997755e-005:7 0.000000e+000:8 0.000000e+000:9 
#C 2.150672e-009 9
0.000000e+000:1 9.998222e-005:2 9.997521e-005:3 9.997521e-005:4 9.997755e-005:5 9.997755e-005:6 
9.997755e-005:7 0.000000e+000:8 0.000000e+000:9 
#C 2.213866e-009 9
0.000000e+000:1 9.998222e-005:2 9.997521e-005:3 9.997521e-005:4 9.997755e-005:5 9.997755e-005:6 
9.997755e-005:7 0.000000e+000:8 0.000000e+000:9 
#C 2.235593e-009 9
0.000000e+000:1 9.998222e-005:2 9.997521e-005:3 9.997521e-005:4 9.997755e-005:5 9.997755e-005:6 
9.997755e-005:7 0.000000e+000:8 0.000000e+000:9 
#C 2.257319e-009 9
0.000000e+000:1 9.998222e-005:2 9.997521e-005:3 9.997521e-005:4 9.997755e-005:5 9.997755e-005:6 
9.997755e-005:7 0.000000e+000:8 0.000000e+000:9 
#C 2.300772e-009 9
0.000000e+000:1 9.998222e-005:2 9.997521e-005:3 9.997521e-005:4 9.997755e-005:5 9.997755e-005:6 
9.997755e-005:7 0.000000e+000:8 0.000000e+000:9 
#C 2.363966e-009 9
0.000000e+000:1 9.998222e-005:2 9.997521e-005:3 9.997521e-005:4 9.997755e-005:5 9.997755e-005:6 
9.997755e-005:7 0.000000e+000:8 0.000000e+000:9 
#C 2.427160e-009 9
0.000000e+000:1 9.998222e-005:2 9.997521e-005:3 9.997521e-005:4 9.997755e-005:5 9.997755e-005:6 
9.997755e-005:7 0.000000e+000:8 0.000000e+000:9 
#C 2.490354e-009 9
0.000000e+000:1 9.998222e-005:2 9.997521e-005:3 9.997521e-005:4 9.997755e-005:5 9.997755e-005:6 
9.997755e-005:7 0.000000e+000:8 0.000000e+000:9 
#C 2.553549e-009 9
0.000000e+000:1 9.998222e-005:2 9.997521e-005:3 9.997521e-005:4 9.997755e-005:5 9.997755e-005:6 
9.997755e-005:7 0.000000e+000:8 0.000000e+000:9 
#C 2.575275e-009 9
0.000000e+000:1 9.998222e-005:2 9.997521e-005:3 9.997521e-005:4 9.997755e-005:5 9.997755e-005:6 
9.997755e-005:7 0.000000e+000:8 0.000000e+000:9 
#C 2.597002e-009 9
0.000000e+000:1 9.998222e-005:2 9.997521e-005:3 9.997521e-005:4 9.997755e-005:5 9.997755e-005:6 
9.997755e-005:7 0.000000e+000:8 0.000000e+000:9 
#C 2.640455e-009 9
0.000000e+000:1 9.998222e-005:2 9.997521e-005:3 9.997521e-005:4 9.997755e-005:5 9.997755e-005:6 
9.997755e-005:7 0.000000e+000:8 0.000000e+000:9 
#C 2.703649e-009 9
0.000000e+000:1 9.998222e-005:2 9.997521e-005:3 9.997521e-005:4 9.997755e-005:5 9.997755e-005:6 
9.997755e-005:7 0.000000e+000:8 0.000000e+000:9 
#C 2.766843e-009 9
0.000000e+000:1 9.998222e-005:2 9.997521e-005:3 9.997521e-005:4 9.997755e-005:5 9.997755e-005:6 
9.997755e-005:7 0.000000e+000:8 0.000000e+000:9 
#C 2.830037e-009 9
0.000000e+000:1 9.998222e-005:2 9.997521e-005:3 9.997521e-005:4 9.997755e-005:5 9.997755e-005:6 
9.997755e-005:7 0.000000e+000:8 0.000000e+000:9 
#C 2.893231e-009 9
0.000000e+000:1 9.998222e-005:2 9.997521e-005:3 9.997521e-005:4 9.997755e-005:5 9.997755e-005:6 
9.997755e-005:7 0.000000e+000:8 0.000000e+000:9 
#C 2.914958e-009 9
0.000000e+000:1 9.998222e-005:2 9.997521e-005:3 9.997521e-005:4 9.997755e-005:5 9.997755e-005:6 
9.997755e-005:7 0.000000e+000:8 0.000000e+000:9 
#C 2.936684e-009 9
0.000000e+000:1 9.998222e-005:2 9.997521e-005:3 9.997521e-005:4 9.997755e-005:5 9.997755e-005:6 
9.997755e-005:7 0.000000e+000:8 0.000000e+000:9 
#C 2.980137e-009 9
0.000000e+000:1 9.998222e-005:2 9.997521e-005:3 9.997521e-005:4 9.997755e-005:5 9.997755e-005:6 
9.997755e-005:7 0.000000e+000:8 0.000000e+000:9 
#C 3.043331e-009 9
0.000000e+000:1 9.998222e-005:2 9.997521e-005:3 9.997521e-005:4 9.997755e-005:5 9.997755e-005:6 
9.997755e-005:7 0.000000e+000:8 0.000000e+000:9 
#C 3.106526e-009 9
0.000000e+000:1 9.998222e-005:2 9.997521e-005:3 9.997521e-005:4 9.997755e-005:5 9.997755e-005:6 
9.997755e-005:7 0.000000e+000:8 0.000000e+000:9 
#C 3.169720e-009 9
0.000000e+000:1 9.998222e-005:2 9.997521e-005:3 9.997521e-005:4 9.997755e-005:5 9.997755e-005:6 
9.997755e-005:7 0.000000e+000:8 0.000000e+000:9 
#C 3.232914e-009 9
0.000000e+000:1 9.998222e-005:2 9.997521e-005:3 9.997521e-005:4 9.997755e-005:5 9.997755e-005:6 
9.997755e-005:7 0.000000e+000:8 0.000000e+000:9 
#C 3.254640e-009 9
0.000000e+000:1 9.998222e-005:2 9.997521e-005:3 9.997521e-005:4 9.997755e-005:5 9.997755e-005:6 
9.997755e-005:7 0.000000e+000:8 0.000000e+000:9 
#C 3.276367e-009 9
0.000000e+000:1 9.998222e-005:2 9.997521e-005:3 9.997521e-005:4 9.997755e-005:5 9.997755e-005:6 
9.997755e-005:7 0.000000e+000:8 0.000000e+000:9 
#C 3.319820e-009 9
0.000000e+000:1 9.998222e-005:2 9.997521e-005:3 9.997521e-005:4 9.997755e-005:5 9.997755e-005:6 
9.997755e-005:7 0.000000e+000:8 0.000000e+000:9 
#C 3.383014e-009 9
0.000000e+000:1 9.998222e-005:2 9.997521e-005:3 9.997521e-005:4 9.997755e-005:5 9.997755e-005:6 
9.997755e-005:7 0.000000e+000:8 0.000000e+000:9 
#C 3.446208e-009 9
0.000000e+000:1 9.998222e-005:2 9.997521e-005:3 9.997521e-005:4 9.997755e-005:5 9.997755e-005:6 
9.997755e-005:7 0.000000e+000:8 0.000000e+000:9 
#C 3.509402e-009 9
0.000000e+000:1 9.998222e-005:2 9.997521e-005:3 9.997521e-005:4 9.997755e-005:5 9.997755e-005:6 
9.997755e-005:7 0.000000e+000:8 0.000000e+000:9 
#C 3.572596e-009 9
0.000000e+000:1 9.998222e-005:2 9.997521e-005:3 9.997521e-005:4 9.997755e-005:5 9.997755e-005:6 
9.997755e-005:7 0.000000e+000:8 0.000000e+000:9 
#C 3.594323e-009 9
0.000000e+000:1 9.998222e-005:2 9.997521e-005:3 9.997521e-005:4 9.997755e-005:5 9.997755e-005:6 
9.997755e-005:7 0.000000e+000:8 0.000000e+000:9 
#C 3.616049e-009 9
0.000000e+000:1 9.998222e-005:2 9.997521e-005:3 9.997521e-005:4 9.997755e-005:5 9.997755e-005:6 
9.997755e-005:7 0.000000e+000:8 0.000000e+000:9 
#C 3.659502e-009 9
0.000000e+000:1 9.998222e-005:2 9.997521e-005:3 9.997521e-005:4 9.997755e-005:5 9.997755e-005:6 
9.997755e-005:7 0.000000e+000:8 0.000000e+000:9 
#C 3.722697e-009 9
0.000000e+000:1 9.998222e-005:2 9.997521e-005:3 9.997521e-005:4 9.997755e-005:5 9.997755e-005:6 
9.997755e-005:7 0.000000e+000:8 0.000000e+000:9 
#C 3.785891e-009 9
0.000000e+000:1 9.998222e-005:2 9.997521e-005:3 9.997521e-005:4 9.997755e-005:5 9.997755e-005:6 
9.997755e-005:7 0.000000e+000:8 0.000000e+000:9 
#C 3.849085e-009 9
0.000000e+000:1 9.998222e-005:2 9.997521e-005:3 9.997521e-005:4 9.997755e-005:5 9.997755e-005:6 
9.997755e-005:7 0.000000e+000:8 0.000000e+000:9 
#C 3.912279e-009 9
0.000000e+000:1 9.998222e-005:2 9.997521e-005:3 9.997521e-005:4 9.997755e-005:5 9.997755e-005:6 
9.997755e-005:7 0.000000e+000:8 0.000000e+000:9 
#C 3.934006e-009 9
0.000000e+000:1 9.998222e-005:2 9.997521e-005:3 9.997521e-005:4 9.997755e-005:5 9.997755e-005:6 
9.997755e-005:7 0.000000e+000:8 0.000000e+000:9 
#C 3.970553e-009 9
0.000000e+000:1 9.998222e-005:2 9.997521e-005:3 9.997521e-005:4 9.997755e-005:5 9.997755e-005:6 
9.997755e-005:7 0.000000e+000:8 0.000000e+000:9 
#C 3.992279e-009 9
0.000000e+000:1 9.998222e-005:2 9.997521e-005:3 9.997521e-005:4 9.997755e-005:5 9.997755e-005:6 
9.997755e-005:7 0.000000e+000:8 0.000000e+000:9 
#C 4.014005e-009 9
0.000000e+000:1 9.998222e-005:2 9.997521e-005:3 9.997521e-005:4 9.997755e-005:5 9.997755e-005:6 
9.997755e-005:7 0.000000e+000:8 0.000000e+000:9 
#C 4.050553e-009 9
0.000000e+000:1 9.998222e-005:2 9.997521e-005:3 9.997521e-005:4 9.997755e-005:5 9.997755e-005:6 
9.997755e-005:7 0.000000e+000:8 0.000000e+000:9 
#C 4.072279e-009 9
0.000000e+000:1 9.998222e-005:2 9.997521e-005:3 9.997521e-005:4 9.997755e-005:5 9.997755e-005:6 
9.997755e-005:7 0.000000e+000:8 0.000000e+000:9 
#C 4.094005e-009 9
0.000000e+000:1 9.998222e-005:2 9.997521e-005:3 9.997521e-005:4 9.997755e-005:5 9.997755e-005:6 
9.997755e-005:7 0.000000e+000:8 0.000000e+000:9 
#C 4.115732e-009 9
0.000000e+000:1 9.998222e-005:2 9.997521e-005:3 9.997521e-005:4 9.997755e-005:5 9.997755e-005:6 
9.997755e-005:7 0.000000e+000:8 0.000000e+000:9 
#C 4.136450e-009 9
0.000000e+000:1 9.998222e-005:2 9.997521e-005:3 9.997521e-005:4 9.997755e-005:5 9.997755e-005:6 
9.997755e-005:7 0.000000e+000:8 0.000000e+000:9 
#C 4.164074e-009 9
0.000000e+000:1 9.998222e-005:2 9.997521e-005:3 9.997521e-005:4 9.997755e-005:5 9.997755e-005:6 
9.997755e-005:7 0.000000e+000:8 0.000000e+000:9 
#C 4.194570e-009 9
0.000000e+000:1 9.998222e-005:2 9.997521e-005:3 9.997521e-005:4 9.997755e-005:5 9.997755e-005:6 
9.997755e-005:7 0.000000e+000:8 0.000000e+000:9 
#C 4.234570e-009 9
0.000000e+000:1 9.998222e-005:2 9.997521e-005:3 9.997521e-005:4 9.997755e-005:5 9.997755e-005:6 
9.997755e-005:7 0.000000e+000:8 0.000000e+000:9 
#C 4.256296e-009 9
0.000000e+000:1 9.998222e-005:2 9.997521e-005:3 9.997521e-005:4 9.997755e-005:5 9.997755e-005:6 
9.997755e-005:7 0.000000e+000:8 0.000000e+000:9 
#C 4.278022e-009 9
0.000000e+000:1 9.998222e-005:2 9.997521e-005:3 9.997521e-005:4 9.997755e-005:5 9.997755e-005:6 
9.997755e-005:7 0.000000e+000:8 0.000000e+000:9 
#C 4.299749e-009 9
0.000000e+000:1 9.998222e-005:2 9.997521e-005:3 9.997521e-005:4 9.997755e-005:5 9.997755e-005:6 
9.997755e-005:7 0.000000e+000:8 0.000000e+000:9 
#C 4.336296e-009 9
0.000000e+000:1 9.998222e-005:2 9.997521e-005:3 9.997521e-005:4 9.997755e-005:5 9.997755e-005:6 
9.997755e-005:7 0.000000e+000:8 0.000000e+000:9 
#C 4.358022e-009 9
0.000000e+000:1 9.998222e-005:2 9.997521e-005:3 9.997521e-005:4 9.997755e-005:5 9.997755e-005:6 
9.997755e-005:7 0.000000e+000:8 0.000000e+000:9 
#C 4.379749e-009 9
0.000000e+000:1 9.998222e-005:2 9.997521e-005:3 9.997521e-005:4 9.997755e-005:5 9.997755e-005:6 
9.997755e-005:7 0.000000e+000:8 0.000000e+000:9 
#C 4.401475e-009 9
0.000000e+000:1 9.998222e-005:2 9.997521e-005:3 9.997521e-005:4 9.997755e-005:5 9.997755e-005:6 
9.997755e-005:7 0.000000e+000:8 0.000000e+000:9 
#C 4.422193e-009 9
0.000000e+000:1 9.998222e-005:2 9.997521e-005:3 9.997521e-005:4 9.997755e-005:5 9.997755e-005:6 
9.997755e-005:7 0.000000e+000:8 0.000000e+000:9 
#C 4.449817e-009 9
0.000000e+000:1 9.998222e-005:2 9.997521e-005:3 9.997521e-005:4 9.997755e-005:5 9.997755e-005:6 
9.997755e-005:7 0.000000e+000:8 0.000000e+000:9 
#C 4.480313e-009 9
0.000000e+000:1 9.998222e-005:2 9.997521e-005:3 9.997521e-005:4 9.997755e-005:5 9.997755e-005:6 
9.997755e-005:7 0.000000e+000:8 0.000000e+000:9 
#C 4.520313e-009 9
0.000000e+000:1 9.998222e-005:2 9.997521e-005:3 9.997521e-005:4 9.997755e-005:5 9.997755e-005:6 
9.997755e-005:7 0.000000e+000:8 0.000000e+000:9 
#C 4.542039e-009 9
0.000000e+000:1 9.998222e-005:2 9.997521e-005:3 9.997521e-005:4 9.997755e-005:5 9.997755e-005:6 
9.997755e-005:7 0.000000e+000:8 0.000000e+000:9 
#C 4.563766e-009 9
0.000000e+000:1 9.998222e-005:2 9.997521e-005:3 9.997521e-005:4 9.997755e-005:5 9.997755e-005:6 
9.997755e-005:7 0.000000e+000:8 0.000000e+000:9 
#C 4.584484e-009 9
0.000000e+000:1 9.998222e-005:2 9.997521e-005:3 9.997521e-005:4 9.997755e-005:5 9.997755e-005:6 
9.997755e-005:7 0.000000e+000:8 0.000000e+000:9 
#C 4.612108e-009 9
0.000000e+000:1 9.998222e-005:2 9.997521e-005:3 9.997521e-005:4 9.997755e-005:5 9.997755e-005:6 
9.997755e-005:7 0.000000e+000:8 0.000000e+000:9 
#C 4.642603e-009 9
0.000000e+000:1 9.998222e-005:2 9.997521e-005:3 9.997521e-005:4 9.997755e-005:5 9.997755e-005:6 
9.997755e-005:7 0.000000e+000:8 0.000000e+000:9 
#C 4.682603e-009 9
0.000000e+000:1 9.998222e-005:2 9.997521e-005:3 9.997521e-005:4 9.997755e-005:5 9.997755e-005:6 
9.997755e-005:7 0.000000e+000:8 0.000000e+000:9 
#C 4.704330e-009 9
0.000000e+000:1 9.998222e-005:2 9.997521e-005:3 9.997521e-005:4 9.997755e-005:5 9.997755e-005:6 
9.997755e-005:7 0.000000e+000:8 0.000000e+000:9 
#C 4.726056e-009 9
0.000000e+000:1 9.998222e-005:2 9.997521e-005:3 9.997521e-005:4 9.997755e-005:5 9.997755e-005:6 
9.997755e-005:7 0.000000e+000:8 0.000000e+000:9 
#C 4.746774e-009 9
0.000000e+000:1 9.998222e-005:2 9.997521e-005:3 9.997521e-005:4 9.997755e-005:5 9.997755e-005:6 
9.997755e-005:7 0.000000e+000:8 0.000000e+000:9 
#C 4.774398e-009 9
0.000000e+000:1 9.998222e-005:2 9.997521e-005:3 9.997521e-005:4 9.997755e-005:5 9.997755e-005:6 
9.997755e-005:7 0.000000e+000:8 0.000000e+000:9 
#C 4.804894e-009 9
0.000000e+000:1 9.998222e-005:2 9.997521e-005:3 9.997521e-005:4 9.997755e-005:5 9.997755e-005:6 
9.997755e-005:7 0.000000e+000:8 0.000000e+000:9 
#C 4.850637e-009 9
0.000000e+000:1 9.998222e-005:2 9.997521e-005:3 9.997521e-005:4 9.997755e-005:5 9.997755e-005:6 
9.997755e-005:7 0.000000e+000:8 0.000000e+000:9 
#C 4.911629e-009 9
0.000000e+000:1 9.998222e-005:2 9.997521e-005:3 9.997521e-005:4 9.997755e-005:5 9.997755e-005:6 
9.997755e-005:7 0.000000e+000:8 0.000000e+000:9 
#C 4.933355e-009 9
0.000000e+000:1 9.998222e-005:2 9.997521e-005:3 9.997521e-005:4 9.997755e-005:5 9.997755e-005:6 
