#H
SOURCE='IsSpice4'	VERSION='ver. 8.11-SI-1.0.3   10/6/2010'
TITLE='* Thu Nov 05 20:24:49 2015, Generated by: 010328058, Server: None, Windows, INSTALLED_SOFTWARE_VERSION: 2015.07 Build 6, Engine: 2015.07rc1, GUI: 2015.07rc1'
SUBTITLE='pc'
TIME='20:25:25' DATE='Nov 05, 2015' TEMPERATURE='373.15'
ANALYSIS='Trans'	SERIALNO='01234567'
ALLVALUES='NO' COMPLEXVALUES='NO' NODES='8'
SWEEPVAR='time' SWEEPMODE='VAR_STEP' DGTLDATA='NO'
XBEGIN='0.000000e+000' XEND='1.740000e-007'
FORMAT='0 VOLTSorAMPS;EFLOAT : NODEorBRANCH;NODE'
#N
'V(v_stimulus)'
'V(designator1_pad)'
'V(designator2_pad)'
'V(designator3_pad)'
'V(designator1_pin)'
'V(designator2_pin)'
'V(designator3_pin)'
'V(designator2_z)'
#U
'Volts'
'Volts'
'Volts'
'Volts'
'Volts'
'Volts'
'Volts'
'Volts'
#C 0.000000e+000 8
0.000000e+000:1 8.720653e-005:2 8.720651e-005:3 8.720651e-005:4 8.720653e-005:5 8.720651e-005:6 
8.720651e-005:7 0.000000e+000:8 
#C 2.560000e-011 8
0.000000e+000:1 8.720653e-005:2 8.720651e-005:3 8.720651e-005:4 8.720653e-005:5 8.720651e-005:6 
8.720651e-005:7 0.000000e+000:8 
#C 5.440000e-011 8
0.000000e+000:1 8.720653e-005:2 8.720651e-005:3 8.720651e-005:4 8.720653e-005:5 8.720651e-005:6 
8.720651e-005:7 0.000000e+000:8 
#C 8.320000e-011 8
0.000000e+000:1 8.720653e-005:2 8.720651e-005:3 8.720651e-005:4 8.720653e-005:5 8.720651e-005:6 
8.720651e-005:7 0.000000e+000:8 
#C 1.088000e-010 8
0.000000e+000:1 8.720653e-005:2 8.720651e-005:3 8.720651e-005:4 8.720653e-005:5 8.720651e-005:6 
8.720651e-005:7 0.000000e+000:8 
#C 1.600000e-010 8
0.000000e+000:1 8.720653e-005:2 8.720651e-005:3 8.720651e-005:4 8.720653e-005:5 8.720651e-005:6 
8.720651e-005:7 0.000000e+000:8 
#C 2.442591e-010 8
0.000000e+000:1 8.720653e-005:2 8.720651e-005:3 8.720651e-005:4 8.720653e-005:5 8.720651e-005:6 
8.720651e-005:7 0.000000e+000:8 
#C 3.285183e-010 8
0.000000e+000:1 8.720653e-005:2 8.720651e-005:3 8.720651e-005:4 8.720653e-005:5 8.720651e-005:6 
8.720651e-005:7 0.000000e+000:8 
#C 4.127774e-010 8
0.000000e+000:1 8.720653e-005:2 8.720651e-005:3 8.720651e-005:4 8.720653e-005:5 8.720651e-005:6 
8.720651e-005:7 0.000000e+000:8 
#C 4.970366e-010 8
0.000000e+000:1 8.720653e-005:2 8.720651e-005:3 8.720651e-005:4 8.720653e-005:5 8.720651e-005:6 
8.720651e-005:7 0.000000e+000:8 
#C 5.812957e-010 8
0.000000e+000:1 8.720653e-005:2 8.720651e-005:3 8.720651e-005:4 8.720653e-005:5 8.720651e-005:6 
8.720651e-005:7 0.000000e+000:8 
#C 6.655549e-010 8
0.000000e+000:1 8.720653e-005:2 8.720651e-005:3 8.720651e-005:4 8.720653e-005:5 8.720651e-005:6 
8.720651e-005:7 0.000000e+000:8 
#C 7.498140e-010 8
0.000000e+000:1 8.720653e-005:2 8.720651e-005:3 8.720651e-005:4 8.720653e-005:5 8.720651e-005:6 
8.720651e-005:7 0.000000e+000:8 
#C 8.340732e-010 8
0.000000e+000:1 8.720653e-005:2 8.720651e-005:3 8.720651e-005:4 8.720653e-005:5 8.720651e-005:6 
8.720651e-005:7 0.000000e+000:8 
#C 8.632655e-010 8
0.000000e+000:1 8.720653e-005:2 8.720651e-005:3 8.720651e-005:4 8.720653e-005:5 8.720651e-005:6 
8.720651e-005:7 0.000000e+000:8 
#C 8.924579e-010 8
0.000000e+000:1 8.720653e-005:2 8.720651e-005:3 8.720651e-005:4 8.720653e-005:5 8.720651e-005:6 
8.720651e-005:7 0.000000e+000:8 
#C 9.292273e-010 8
0.000000e+000:1 8.720653e-005:2 8.720651e-005:3 8.720651e-005:4 8.720653e-005:5 8.720651e-005:6 
8.720651e-005:7 0.000000e+000:8 
#C 9.508426e-010 8
0.000000e+000:1 8.720653e-005:2 8.720651e-005:3 8.720651e-005:4 8.720653e-005:5 8.720651e-005:6 
8.720651e-005:7 0.000000e+000:8 
#C 9.800350e-010 8
0.000000e+000:1 8.720653e-005:2 8.720651e-005:3 8.720651e-005:4 8.720653e-005:5 8.720651e-005:6 
8.720651e-005:7 0.000000e+000:8 
#C 1.009227e-009 8
0.000000e+000:1 8.720653e-005:2 8.720651e-005:3 8.720651e-005:4 8.720653e-005:5 8.720651e-005:6 
8.720651e-005:7 0.000000e+000:8 
#C 1.030843e-009 8
0.000000e+000:1 8.720653e-005:2 8.720651e-005:3 8.720651e-005:4 8.720653e-005:5 8.720651e-005:6 
8.720651e-005:7 0.000000e+000:8 
#C 1.060035e-009 8
0.000000e+000:1 8.720653e-005:2 8.720651e-005:3 8.720651e-005:4 8.720653e-005:5 8.720651e-005:6 
8.720651e-005:7 0.000000e+000:8 
#C 1.089227e-009 8
0.000000e+000:1 8.720653e-005:2 8.720651e-005:3 8.720651e-005:4 8.720653e-005:5 8.720651e-005:6 
8.720651e-005:7 0.000000e+000:8 
#C 1.110843e-009 8
0.000000e+000:1 8.720653e-005:2 8.720651e-005:3 8.720651e-005:4 8.720653e-005:5 8.720651e-005:6 
8.720651e-005:7 0.000000e+000:8 
#C 1.140035e-009 8
0.000000e+000:1 8.720653e-005:2 8.720651e-005:3 8.720651e-005:4 8.720653e-005:5 8.720651e-005:6 
8.720651e-005:7 0.000000e+000:8 
#C 1.169227e-009 8
0.000000e+000:1 8.720653e-005:2 8.720651e-005:3 8.720651e-005:4 8.720653e-005:5 8.720651e-005:6 
8.720651e-005:7 0.000000e+000:8 
#C 1.190843e-009 8
0.000000e+000:1 8.720653e-005:2 8.720651e-005:3 8.720651e-005:4 8.720653e-005:5 8.720651e-005:6 
8.720651e-005:7 0.000000e+000:8 
#C 1.220035e-009 8
0.000000e+000:1 8.720653e-005:2 8.720651e-005:3 8.720651e-005:4 8.720653e-005:5 8.720651e-005:6 
8.720651e-005:7 0.000000e+000:8 
#C 1.249227e-009 8
0.000000e+000:1 8.720653e-005:2 8.720651e-005:3 8.720651e-005:4 8.720653e-005:5 8.720651e-005:6 
8.720651e-005:7 0.000000e+000:8 
#C 1.285997e-009 8
0.000000e+000:1 8.720653e-005:2 8.720651e-005:3 8.720651e-005:4 8.720653e-005:5 8.720651e-005:6 
8.720651e-005:7 0.000000e+000:8 
#C 1.322766e-009 8
0.000000e+000:1 8.720653e-005:2 8.720651e-005:3 8.720651e-005:4 8.720653e-005:5 8.720651e-005:6 
8.720651e-005:7 0.000000e+000:8 
#C 1.359536e-009 8
0.000000e+000:1 8.720653e-005:2 8.720651e-005:3 8.720651e-005:4 8.720653e-005:5 8.720651e-005:6 
8.720651e-005:7 0.000000e+000:8 
#C 1.382150e-009 8
0.000000e+000:1 8.720653e-005:2 8.720651e-005:3 8.720651e-005:4 8.720653e-005:5 8.720651e-005:6 
8.720651e-005:7 0.000000e+000:8 
#C 1.407994e-009 8
0.000000e+000:1 8.720653e-005:2 8.720651e-005:3 8.720651e-005:4 8.720653e-005:5 8.720651e-005:6 
8.720651e-005:7 0.000000e+000:8 
#C 1.441237e-009 8
0.000000e+000:1 8.720653e-005:2 8.720651e-005:3 8.720651e-005:4 8.720653e-005:5 8.720651e-005:6 
8.720651e-005:7 0.000000e+000:8 
#C 1.481237e-009 8
0.000000e+000:1 8.720653e-005:2 8.720651e-005:3 8.720651e-005:4 8.720653e-005:5 8.720651e-005:6 
8.720651e-005:7 0.000000e+000:8 
#C 1.510430e-009 8
0.000000e+000:1 8.720653e-005:2 8.720651e-005:3 8.720651e-005:4 8.720653e-005:5 8.720651e-005:6 
8.720651e-005:7 0.000000e+000:8 
#C 1.539622e-009 8
0.000000e+000:1 8.720653e-005:2 8.720651e-005:3 8.720651e-005:4 8.720653e-005:5 8.720651e-005:6 
8.720651e-005:7 0.000000e+000:8 
#C 1.561237e-009 8
0.000000e+000:1 8.720653e-005:2 8.720651e-005:3 8.720651e-005:4 8.720653e-005:5 8.720651e-005:6 
8.720651e-005:7 0.000000e+000:8 
#C 1.590430e-009 8
0.000000e+000:1 8.720653e-005:2 8.720651e-005:3 8.720651e-005:4 8.720653e-005:5 8.720651e-005:6 
8.720651e-005:7 0.000000e+000:8 
#C 1.619622e-009 8
0.000000e+000:1 8.720653e-005:2 8.720651e-005:3 8.720651e-005:4 8.720653e-005:5 8.720651e-005:6 
8.720651e-005:7 0.000000e+000:8 
#C 1.656391e-009 8
0.000000e+000:1 8.720653e-005:2 8.720651e-005:3 8.720651e-005:4 8.720653e-005:5 8.720651e-005:6 
8.720651e-005:7 0.000000e+000:8 
#C 1.693161e-009 8
0.000000e+000:1 8.720653e-005:2 8.720651e-005:3 8.720651e-005:4 8.720653e-005:5 8.720651e-005:6 
8.720651e-005:7 0.000000e+000:8 
#C 1.729930e-009 8
0.000000e+000:1 8.720653e-005:2 8.720651e-005:3 8.720651e-005:4 8.720653e-005:5 8.720651e-005:6 
8.720651e-005:7 0.000000e+000:8 
#C 1.766700e-009 8
0.000000e+000:1 8.720653e-005:2 8.720651e-005:3 8.720651e-005:4 8.720653e-005:5 8.720651e-005:6 
8.720651e-005:7 0.000000e+000:8 
#C 1.803469e-009 8
0.000000e+000:1 8.720653e-005:2 8.720651e-005:3 8.720651e-005:4 8.720653e-005:5 8.720651e-005:6 
8.720651e-005:7 0.000000e+000:8 
#C 1.840239e-009 8
0.000000e+000:1 8.720653e-005:2 8.720651e-005:3 8.720651e-005:4 8.720653e-005:5 8.720651e-005:6 
8.720651e-005:7 0.000000e+000:8 
#C 1.877008e-009 8
0.000000e+000:1 8.720653e-005:2 8.720651e-005:3 8.720651e-005:4 8.720653e-005:5 8.720651e-005:6 
8.720651e-005:7 0.000000e+000:8 
#C 1.913777e-009 8
0.000000e+000:1 8.720653e-005:2 8.720651e-005:3 8.720651e-005:4 8.720653e-005:5 8.720651e-005:6 
8.720651e-005:7 0.000000e+000:8 
#C 1.950547e-009 8
0.000000e+000:1 8.720653e-005:2 8.720651e-005:3 8.720651e-005:4 8.720653e-005:5 8.720651e-005:6 
8.720651e-005:7 0.000000e+000:8 
#C 2.024086e-009 8
0.000000e+000:1 8.720653e-005:2 8.720651e-005:3 8.720651e-005:4 8.720653e-005:5 8.720651e-005:6 
8.720651e-005:7 0.000000e+000:8 
#C 2.053278e-009 8
0.000000e+000:1 8.720653e-005:2 8.720651e-005:3 8.720651e-005:4 8.720653e-005:5 8.720651e-005:6 
8.720651e-005:7 0.000000e+000:8 
#C 2.082470e-009 8
0.000000e+000:1 8.720653e-005:2 8.720651e-005:3 8.720651e-005:4 8.720653e-005:5 8.720651e-005:6 
8.720651e-005:7 0.000000e+000:8 
#C 2.119240e-009 8
0.000000e+000:1 8.720653e-005:2 8.720651e-005:3 8.720651e-005:4 8.720653e-005:5 8.720651e-005:6 
8.720651e-005:7 0.000000e+000:8 
#C 2.140855e-009 8
0.000000e+000:1 8.720653e-005:2 8.720651e-005:3 8.720651e-005:4 8.720653e-005:5 8.720651e-005:6 
8.720651e-005:7 0.000000e+000:8 
#C 2.170047e-009 8
0.000000e+000:1 8.720653e-005:2 8.720651e-005:3 8.720651e-005:4 8.720653e-005:5 8.720651e-005:6 
8.720651e-005:7 0.000000e+000:8 
#C 2.199240e-009 8
0.000000e+000:1 8.720653e-005:2 8.720651e-005:3 8.720651e-005:4 8.720653e-005:5 8.720651e-005:6 
8.720651e-005:7 0.000000e+000:8 
#C 2.220855e-009 8
0.000000e+000:1 8.720653e-005:2 8.720651e-005:3 8.720651e-005:4 8.720653e-005:5 8.720651e-005:6 
8.720651e-005:7 0.000000e+000:8 
#C 2.250047e-009 8
0.000000e+000:1 8.720653e-005:2 8.720651e-005:3 8.720651e-005:4 8.720653e-005:5 8.720651e-005:6 
8.720651e-005:7 0.000000e+000:8 
#C 2.279240e-009 8
0.000000e+000:1 8.720653e-005:2 8.720651e-005:3 8.720651e-005:4 8.720653e-005:5 8.720651e-005:6 
8.720651e-005:7 0.000000e+000:8 
#C 2.300855e-009 8
0.000000e+000:1 8.720653e-005:2 8.720651e-005:3 8.720651e-005:4 8.720653e-005:5 8.720651e-005:6 
8.720651e-005:7 0.000000e+000:8 
#C 2.330047e-009 8
0.000000e+000:1 8.720653e-005:2 8.720651e-005:3 8.720651e-005:4 8.720653e-005:5 8.720651e-005:6 
8.720651e-005:7 0.000000e+000:8 
#C 2.359240e-009 8
0.000000e+000:1 8.720653e-005:2 8.720651e-005:3 8.720651e-005:4 8.720653e-005:5 8.720651e-005:6 
8.720651e-005:7 0.000000e+000:8 
#C 2.380855e-009 8
0.000000e+000:1 8.720653e-005:2 8.720651e-005:3 8.720651e-005:4 8.720653e-005:5 8.720651e-005:6 
8.720651e-005:7 0.000000e+000:8 
#C 2.410047e-009 8
0.000000e+000:1 8.720653e-005:2 8.720651e-005:3 8.720651e-005:4 8.720653e-005:5 8.720651e-005:6 
8.720651e-005:7 0.000000e+000:8 
#C 2.439240e-009 8
0.000000e+000:1 8.720653e-005:2 8.720651e-005:3 8.720651e-005:4 8.720653e-005:5 8.720651e-005:6 
8.720651e-005:7 0.000000e+000:8 
#C 2.460855e-009 8
0.000000e+000:1 8.720653e-005:2 8.720651e-005:3 8.720651e-005:4 8.720653e-005:5 8.720651e-005:6 
8.720651e-005:7 0.000000e+000:8 
#C 2.490047e-009 8
0.000000e+000:1 8.720653e-005:2 8.720651e-005:3 8.720651e-005:4 8.720653e-005:5 8.720651e-005:6 
8.720651e-005:7 0.000000e+000:8 
#C 2.519240e-009 8
0.000000e+000:1 8.720653e-005:2 8.720651e-005:3 8.720651e-005:4 8.720653e-005:5 8.720651e-005:6 
8.720651e-005:7 0.000000e+000:8 
#C 2.556009e-009 8
0.000000e+000:1 8.720653e-005:2 8.720651e-005:3 8.720651e-005:4 8.720653e-005:5 8.720651e-005:6 
8.720651e-005:7 0.000000e+000:8 
#C 2.592779e-009 8
0.000000e+000:1 8.720653e-005:2 8.720651e-005:3 8.720651e-005:4 8.720653e-005:5 8.720651e-005:6 
8.720651e-005:7 0.000000e+000:8 
#C 2.629548e-009 8
0.000000e+000:1 8.720653e-005:2 8.720651e-005:3 8.720651e-005:4 8.720653e-005:5 8.720651e-005:6 
8.720651e-005:7 0.000000e+000:8 
#C 2.652162e-009 8
0.000000e+000:1 8.720653e-005:2 8.720651e-005:3 8.720651e-005:4 8.720653e-005:5 8.720651e-005:6 
8.720651e-005:7 0.000000e+000:8 
#C 2.678007e-009 8
0.000000e+000:1 8.720653e-005:2 8.720651e-005:3 8.720651e-005:4 8.720653e-005:5 8.720651e-005:6 
8.720651e-005:7 0.000000e+000:8 
#C 2.711250e-009 8
0.000000e+000:1 8.720653e-005:2 8.720651e-005:3 8.720651e-005:4 8.720653e-005:5 8.720651e-005:6 
8.720651e-005:7 0.000000e+000:8 
#C 2.751250e-009 8
0.000000e+000:1 8.720653e-005:2 8.720651e-005:3 8.720651e-005:4 8.720653e-005:5 8.720651e-005:6 
8.720651e-005:7 0.000000e+000:8 
#C 2.780442e-009 8
0.000000e+000:1 8.720653e-005:2 8.720651e-005:3 8.720651e-005:4 8.720653e-005:5 8.720651e-005:6 
8.720651e-005:7 0.000000e+000:8 
#C 2.809635e-009 8
0.000000e+000:1 8.720653e-005:2 8.720651e-005:3 8.720651e-005:4 8.720653e-005:5 8.720651e-005:6 
8.720651e-005:7 0.000000e+000:8 
#C 2.831250e-009 8
0.000000e+000:1 8.720653e-005:2 8.720651e-005:3 8.720651e-005:4 8.720653e-005:5 8.720651e-005:6 
8.720651e-005:7 0.000000e+000:8 
#C 2.860442e-009 8
0.000000e+000:1 8.720653e-005:2 8.720651e-005:3 8.720651e-005:4 8.720653e-005:5 8.720651e-005:6 
8.720651e-005:7 0.000000e+000:8 
#C 2.889635e-009 8
0.000000e+000:1 8.720653e-005:2 8.720651e-005:3 8.720651e-005:4 8.720653e-005:5 8.720651e-005:6 
8.720651e-005:7 0.000000e+000:8 
#C 2.926404e-009 8
0.000000e+000:1 8.720653e-005:2 8.720651e-005:3 8.720651e-005:4 8.720653e-005:5 8.720651e-005:6 
8.720651e-005:7 0.000000e+000:8 
#C 2.963173e-009 8
0.000000e+000:1 8.720653e-005:2 8.720651e-005:3 8.720651e-005:4 8.720653e-005:5 8.720651e-005:6 
8.720651e-005:7 0.000000e+000:8 
#C 2.999943e-009 8
0.000000e+000:1 8.720653e-005:2 8.720651e-005:3 8.720651e-005:4 8.720653e-005:5 8.720651e-005:6 
8.720651e-005:7 0.000000e+000:8 
#C 3.036712e-009 8
0.000000e+000:1 8.720653e-005:2 8.720651e-005:3 8.720651e-005:4 8.720653e-005:5 8.720651e-005:6 
8.720651e-005:7 0.000000e+000:8 
#C 3.073482e-009 8
0.000000e+000:1 8.720653e-005:2 8.720651e-005:3 8.720651e-005:4 8.720653e-005:5 8.720651e-005:6 
8.720651e-005:7 0.000000e+000:8 
#C 3.110251e-009 8
0.000000e+000:1 8.720653e-005:2 8.720651e-005:3 8.720651e-005:4 8.720653e-005:5 8.720651e-005:6 
8.720651e-005:7 0.000000e+000:8 
#C 3.147020e-009 8
0.000000e+000:1 8.720653e-005:2 8.720651e-005:3 8.720651e-005:4 8.720653e-005:5 8.720651e-005:6 
8.720651e-005:7 0.000000e+000:8 
#C 3.187020e-009 8
0.000000e+000:1 8.720653e-005:2 8.720651e-005:3 8.720651e-005:4 8.720653e-005:5 8.720651e-005:6 
8.720651e-005:7 0.000000e+000:8 
#C 3.216213e-009 8
0.000000e+000:1 8.720653e-005:2 8.720651e-005:3 8.720651e-005:4 8.720653e-005:5 8.720651e-005:6 
8.720651e-005:7 0.000000e+000:8 
#C 3.245405e-009 8
0.000000e+000:1 8.720653e-005:2 8.720651e-005:3 8.720651e-005:4 8.720653e-005:5 8.720651e-005:6 
8.720651e-005:7 0.000000e+000:8 
#C 3.303790e-009 8
0.000000e+000:1 8.720653e-005:2 8.720651e-005:3 8.720651e-005:4 8.720653e-005:5 8.720651e-005:6 
8.720651e-005:7 0.000000e+000:8 
#C 3.332982e-009 8
0.000000e+000:1 8.720653e-005:2 8.720651e-005:3 8.720651e-005:4 8.720653e-005:5 8.720651e-005:6 
8.720651e-005:7 0.000000e+000:8 
#C 3.372982e-009 8
0.000000e+000:1 8.720653e-005:2 8.720651e-005:3 8.720651e-005:4 8.720653e-005:5 8.720651e-005:6 
8.720651e-005:7 0.000000e+000:8 
#C 3.402175e-009 8
0.000000e+000:1 8.720653e-005:2 8.720651e-005:3 8.720651e-005:4 8.720653e-005:5 8.720651e-005:6 
8.720651e-005:7 0.000000e+000:8 
#C 3.431367e-009 8
0.000000e+000:1 8.720653e-005:2 8.720651e-005:3 8.720651e-005:4 8.720653e-005:5 8.720651e-005:6 
8.720651e-005:7 0.000000e+000:8 
#C 3.489752e-009 8
0.000000e+000:1 8.720653e-005:2 8.720651e-005:3 8.720651e-005:4 8.720653e-005:5 8.720651e-005:6 
8.720651e-005:7 0.000000e+000:8 
#C 3.574011e-009 8
0.000000e+000:1 8.720653e-005:2 8.720651e-005:3 8.720651e-005:4 8.720653e-005:5 8.720651e-005:6 
8.720651e-005:7 0.000000e+000:8 
#C 3.658270e-009 8
0.000000e+000:1 8.720653e-005:2 8.720651e-005:3 8.720651e-005:4 8.720653e-005:5 8.720651e-005:6 
8.720651e-005:7 0.000000e+000:8 
#C 3.742529e-009 8
0.000000e+000:1 8.720653e-005:2 8.720651e-005:3 8.720651e-005:4 8.720653e-005:5 8.720651e-005:6 
8.720651e-005:7 0.000000e+000:8 
#C 3.771721e-009 8
0.000000e+000:1 8.720653e-005:2 8.720651e-005:3 8.720651e-005:4 8.720653e-005:5 8.720651e-005:6 
8.720651e-005:7 0.000000e+000:8 
#C 3.800914e-009 8
0.000000e+000:1 8.720653e-005:2 8.720651e-005:3 8.720651e-005:4 8.720653e-005:5 8.720651e-005:6 
8.720651e-005:7 0.000000e+000:8 
#C 3.837683e-009 8
0.000000e+000:1 8.720653e-005:2 8.720651e-005:3 8.720651e-005:4 8.720653e-005:5 8.720651e-005:6 
8.720651e-005:7 0.000000e+000:8 
#C 3.859299e-009 8
0.000000e+000:1 8.720653e-005:2 8.720651e-005:3 8.720651e-005:4 8.720653e-005:5 8.720651e-005:6 
8.720651e-005:7 0.000000e+000:8 
#C 3.888491e-009 8
0.000000e+000:1 8.720653e-005:2 8.720651e-005:3 8.720651e-005:4 8.720653e-005:5 8.720651e-005:6 
8.720651e-005:7 0.000000e+000:8 
#C 3.917683e-009 8
0.000000e+000:1 8.720653e-005:2 8.720651e-005:3 8.720651e-005:4 8.720653e-005:5 8.720651e-005:6 
8.720651e-005:7 0.000000e+000:8 
#C 3.939299e-009 8
0.000000e+000:1 8.720653e-005:2 8.720651e-005:3 8.720651e-005:4 8.720653e-005:5 8.720651e-005:6 
8.720651e-005:7 0.000000e+000:8 
#C 3.968491e-009 8
0.000000e+000:1 8.720653e-005:2 8.720651e-005:3 8.720651e-005:4 8.720653e-005:5 8.720651e-005:6 
8.720651e-005:7 0.000000e+000:8 
#C 3.997683e-009 8
0.000000e+000:1 8.720653e-005:2 8.720651e-005:3 8.720651e-005:4 8.720653e-005:5 8.720651e-005:6 
8.720651e-005:7 0.000000e+000:8 
#C 4.019299e-009 8
0.000000e+000:1 8.720653e-005:2 8.720651e-005:3 8.720651e-005:4 8.720653e-005:5 8.720651e-005:6 
8.720651e-005:7 0.000000e+000:8 
#C 4.048491e-009 8
0.000000e+000:1 8.720653e-005:2 8.720651e-005:3 8.720651e-005:4 8.720653e-005:5 8.720651e-005:6 
8.720651e-005:7 0.000000e+000:8 
#C 4.077683e-009 8
0.000000e+000:1 8.720653e-005:2 8.720651e-005:3 8.720651e-005:4 8.720653e-005:5 8.720651e-005:6 
8.720651e-005:7 0.000000e+000:8 
#C 4.114453e-009 8
0.000000e+000:1 8.720653e-005:2 8.720651e-005:3 8.720651e-005:4 8.720653e-005:5 8.720651e-005:6 
8.720651e-005:7 0.000000e+000:8 
#C 4.151222e-009 8
0.000000e+000:1 8.720653e-005:2 8.720651e-005:3 8.720651e-005:4 8.720653e-005:5 8.720651e-005:6 
8.720651e-005:7 0.000000e+000:8 
#C 4.187992e-009 8
0.000000e+000:1 8.720653e-005:2 8.720651e-005:3 8.720651e-005:4 8.720653e-005:5 8.720651e-005:6 
8.720651e-005:7 0.000000e+000:8 
#C 4.224761e-009 8
0.000000e+000:1 8.720653e-005:2 8.720651e-005:3 8.720651e-005:4 8.720653e-005:5 8.720651e-005:6 
8.720651e-005:7 0.000000e+000:8 
#C 4.261530e-009 8
0.000000e+000:1 8.720653e-005:2 8.720651e-005:3 8.720651e-005:4 8.720653e-005:5 8.720651e-005:6 
8.720651e-005:7 0.000000e+000:8 
#C 4.298300e-009 8
0.000000e+000:1 8.720653e-005:2 8.720651e-005:3 8.720651e-005:4 8.720653e-005:5 8.720651e-005:6 
8.720651e-005:7 0.000000e+000:8 
#C 4.335069e-009 8
0.000000e+000:1 8.720653e-005:2 8.720651e-005:3 8.720651e-005:4 8.720653e-005:5 8.720651e-005:6 
8.720651e-005:7 0.000000e+000:8 
#C 4.371839e-009 8
0.000000e+000:1 8.720653e-005:2 8.720651e-005:3 8.720651e-005:4 8.720653e-005:5 8.720651e-005:6 
8.720651e-005:7 0.000000e+000:8 
#C 4.408608e-009 8
0.000000e+000:1 8.720653e-005:2 8.720651e-005:3 8.720651e-005:4 8.720653e-005:5 8.720651e-005:6 
8.720651e-005:7 0.000000e+000:8 
#C 4.482147e-009 8
0.000000e+000:1 8.720653e-005:2 8.720651e-005:3 8.720651e-005:4 8.720653e-005:5 8.720651e-005:6 
8.720651e-005:7 0.000000e+000:8 
#C 4.511339e-009 8
0.000000e+000:1 8.720653e-005:2 8.720651e-005:3 8.720651e-005:4 8.720653e-005:5 8.720651e-005:6 
8.720651e-005:7 0.000000e+000:8 
#C 4.540532e-009 8
0.000000e+000:1 8.720653e-005:2 8.720651e-005:3 8.720651e-005:4 8.720653e-005:5 8.720651e-005:6 
8.720651e-005:7 0.000000e+000:8 
#C 4.577301e-009 8
0.000000e+000:1 8.720653e-005:2 8.720651e-005:3 8.720651e-005:4 8.720653e-005:5 8.720651e-005:6 
8.720651e-005:7 0.000000e+000:8 
#C 4.598916e-009 8
0.000000e+000:1 8.720653e-005:2 8.720651e-005:3 8.720651e-005:4 8.720653e-005:5 8.720651e-005:6 
8.720651e-005:7 0.000000e+000:8 
#C 4.628109e-009 8
0.000000e+000:1 8.720653e-005:2 8.720651e-005:3 8.720651e-005:4 8.720653e-005:5 8.720651e-005:6 
8.720651e-005:7 0.000000e+000:8 
#C 4.657301e-009 8
0.000000e+000:1 8.720653e-005:2 8.720651e-005:3 8.720651e-005:4 8.720653e-005:5 8.720651e-005:6 
8.720651e-005:7 0.000000e+000:8 
#C 4.678916e-009 8
0.000000e+000:1 8.720653e-005:2 8.720651e-005:3 8.720651e-005:4 8.720653e-005:5 8.720651e-005:6 
8.720651e-005:7 0.000000e+000:8 
#C 4.708109e-009 8
