#H
SOURCE='IsSpice4'	VERSION='ver. 8.11-SI-1.0.3   10/6/2010'
TITLE='* Thu Sep 24 20:37:03 2015, Generated by: 010328058, Server: None, Windows, INSTALLED_SOFTWARE_VERSION: 2015.07 Build 6, Engine: 2015.07rc1, GUI: 2015.07rc1'
SUBTITLE='pc'
TIME='20:37:06' DATE='Sep 24, 2015' TEMPERATURE='298.15'
ANALYSIS='Trans'	SERIALNO='01234567'
ALLVALUES='NO' COMPLEXVALUES='NO' NODES='10'
SWEEPVAR='time' SWEEPMODE='VAR_STEP' DGTLDATA='NO'
XBEGIN='0.000000e+000' XEND='1.140000e-007'
FORMAT='0 VOLTSorAMPS;EFLOAT : NODEorBRANCH;NODE'
#N
'V(v_stimulus)'
'V(designator2_pad)'
'V(designator2_l_pad)'
'V(designator1_pad)'
'V(designator1_l_pad)'
'V(designator2_pin)'
'V(designator2_l_pin)'
'V(designator1_pin)'
'V(designator1_l_pin)'
'V(designator1_z)'
#U
'Volts'
'Volts'
'Volts'
'Volts'
'Volts'
'Volts'
'Volts'
'Volts'
'Volts'
'Volts'
#C 0.000000e+000 10
0.000000e+000:1 2.019161e-004:2 3.299367e+000:3 2.034397e-004:4 3.299361e+000:5 2.026778e-004:6 
3.299364e+000:7 2.026779e-004:8 3.299364e+000:9 0.000000e+000:a 
#C 2.560000e-011 10
0.000000e+000:1 2.019161e-004:2 3.299367e+000:3 2.034397e-004:4 3.299361e+000:5 2.026778e-004:6 
3.299364e+000:7 2.026779e-004:8 3.299364e+000:9 0.000000e+000:a 
#C 5.440000e-011 10
0.000000e+000:1 2.019161e-004:2 3.299367e+000:3 2.034397e-004:4 3.299361e+000:5 2.026778e-004:6 
3.299364e+000:7 2.026779e-004:8 3.299364e+000:9 0.000000e+000:a 
#C 8.320000e-011 10
0.000000e+000:1 2.019161e-004:2 3.299366e+000:3 2.034397e-004:4 3.299361e+000:5 2.026778e-004:6 
3.299364e+000:7 2.026779e-004:8 3.299364e+000:9 0.000000e+000:a 
#C 1.088000e-010 10
0.000000e+000:1 2.019161e-004:2 3.299366e+000:3 2.034397e-004:4 3.299361e+000:5 2.026778e-004:6 
3.299364e+000:7 2.026779e-004:8 3.299364e+000:9 0.000000e+000:a 
#C 1.600000e-010 10
0.000000e+000:1 2.019161e-004:2 3.299366e+000:3 2.034397e-004:4 3.299361e+000:5 2.026778e-004:6 
3.299364e+000:7 2.026779e-004:8 3.299364e+000:9 0.000000e+000:a 
#C 2.600000e-010 10
0.000000e+000:1 2.019161e-004:2 3.299366e+000:3 2.034397e-004:4 3.299361e+000:5 2.026778e-004:6 
3.299364e+000:7 2.026779e-004:8 3.299364e+000:9 0.000000e+000:a 
#C 3.600000e-010 10
0.000000e+000:1 2.019161e-004:2 3.299366e+000:3 2.034397e-004:4 3.299361e+000:5 2.026778e-004:6 
3.299364e+000:7 2.026779e-004:8 3.299364e+000:9 0.000000e+000:a 
#C 4.600000e-010 10
0.000000e+000:1 2.019161e-004:2 3.299366e+000:3 2.034397e-004:4 3.299361e+000:5 2.026778e-004:6 
3.299364e+000:7 2.026779e-004:8 3.299364e+000:9 0.000000e+000:a 
#C 5.600000e-010 10
0.000000e+000:1 2.019161e-004:2 3.299366e+000:3 2.034397e-004:4 3.299361e+000:5 2.026778e-004:6 
3.299364e+000:7 2.026779e-004:8 3.299364e+000:9 0.000000e+000:a 
#C 6.600000e-010 10
0.000000e+000:1 2.019161e-004:2 3.299366e+000:3 2.034397e-004:4 3.299361e+000:5 2.026778e-004:6 
3.299364e+000:7 2.026779e-004:8 3.299364e+000:9 0.000000e+000:a 
#C 7.600000e-010 10
0.000000e+000:1 2.019161e-004:2 3.299366e+000:3 2.034397e-004:4 3.299361e+000:5 2.026778e-004:6 
3.299364e+000:7 2.026779e-004:8 3.299364e+000:9 0.000000e+000:a 
#C 8.600000e-010 10
0.000000e+000:1 2.019161e-004:2 3.299366e+000:3 2.034397e-004:4 3.299361e+000:5 2.026778e-004:6 
3.299364e+000:7 2.026779e-004:8 3.299364e+000:9 0.000000e+000:a 
#C 9.600000e-010 10
0.000000e+000:1 2.019161e-004:2 3.299366e+000:3 2.034397e-004:4 3.299361e+000:5 2.026778e-004:6 
3.299364e+000:7 2.026779e-004:8 3.299364e+000:9 0.000000e+000:a 
#C 9.982521e-010 10
0.000000e+000:1 2.019161e-004:2 3.299366e+000:3 2.034397e-004:4 3.299361e+000:5 2.026778e-004:6 
3.299364e+000:7 2.026779e-004:8 3.299364e+000:9 0.000000e+000:a 
#C 1.024471e-009 10
0.000000e+000:1 2.019161e-004:2 3.299366e+000:3 2.034397e-004:4 3.299361e+000:5 2.026778e-004:6 
3.299364e+000:7 2.026779e-004:8 3.299364e+000:9 0.000000e+000:a 
#C 1.052438e-009 10
0.000000e+000:1 2.019161e-004:2 3.299366e+000:3 2.034397e-004:4 3.299361e+000:5 2.026778e-004:6 
3.299364e+000:7 2.026779e-004:8 3.299364e+000:9 0.000000e+000:a 
#C 1.084307e-009 10
0.000000e+000:1 2.019161e-004:2 3.299366e+000:3 2.034397e-004:4 3.299361e+000:5 2.026778e-004:6 
3.299364e+000:7 2.026779e-004:8 3.299364e+000:9 0.000000e+000:a 
#C 1.108701e-009 10
0.000000e+000:1 2.019161e-004:2 3.299366e+000:3 2.034397e-004:4 3.299361e+000:5 2.026778e-004:6 
3.299364e+000:7 2.026779e-004:8 3.299364e+000:9 0.000000e+000:a 
#C 1.132438e-009 10
0.000000e+000:1 2.019161e-004:2 3.299366e+000:3 2.034397e-004:4 3.299361e+000:5 2.026778e-004:6 
3.299364e+000:7 2.026779e-004:8 3.299364e+000:9 0.000000e+000:a 
#C 1.162337e-009 10
0.000000e+000:1 2.019161e-004:2 3.299366e+000:3 2.034397e-004:4 3.299361e+000:5 2.026778e-004:6 
3.299364e+000:7 2.026779e-004:8 3.299364e+000:9 0.000000e+000:a 
#C 1.192642e-009 10
0.000000e+000:1 2.019161e-004:2 3.299366e+000:3 2.034397e-004:4 3.299361e+000:5 2.026778e-004:6 
3.299364e+000:7 2.026779e-004:8 3.299364e+000:9 0.000000e+000:a 
#C 1.232642e-009 10
0.000000e+000:1 2.019161e-004:2 3.299366e+000:3 2.034397e-004:4 3.299361e+000:5 2.026778e-004:6 
3.299364e+000:7 2.026779e-004:8 3.299364e+000:9 0.000000e+000:a 
#C 1.272642e-009 10
0.000000e+000:1 2.019161e-004:2 3.299366e+000:3 2.034397e-004:4 3.299361e+000:5 2.026778e-004:6 
3.299364e+000:7 2.026779e-004:8 3.299364e+000:9 0.000000e+000:a 
#C 1.312642e-009 10
0.000000e+000:1 2.019161e-004:2 3.299366e+000:3 2.034397e-004:4 3.299361e+000:5 2.026778e-004:6 
3.299364e+000:7 2.026779e-004:8 3.299364e+000:9 0.000000e+000:a 
#C 1.352642e-009 10
0.000000e+000:1 2.019161e-004:2 3.299366e+000:3 2.034397e-004:4 3.299361e+000:5 2.026778e-004:6 
3.299364e+000:7 2.026779e-004:8 3.299364e+000:9 0.000000e+000:a 
#C 1.392642e-009 10
0.000000e+000:1 2.019161e-004:2 3.299366e+000:3 2.034397e-004:4 3.299361e+000:5 2.026778e-004:6 
3.299364e+000:7 2.026779e-004:8 3.299364e+000:9 0.000000e+000:a 
#C 1.432642e-009 10
0.000000e+000:1 2.019161e-004:2 3.299366e+000:3 2.034397e-004:4 3.299361e+000:5 2.026778e-004:6 
3.299364e+000:7 2.026779e-004:8 3.299364e+000:9 0.000000e+000:a 
#C 1.472642e-009 10
0.000000e+000:1 2.019161e-004:2 3.299366e+000:3 2.034397e-004:4 3.299361e+000:5 2.026778e-004:6 
3.299364e+000:7 2.026779e-004:8 3.299364e+000:9 0.000000e+000:a 
#C 1.512642e-009 10
0.000000e+000:1 2.019161e-004:2 3.299366e+000:3 2.034397e-004:4 3.299361e+000:5 2.026778e-004:6 
3.299364e+000:7 2.026779e-004:8 3.299364e+000:9 0.000000e+000:a 
#C 1.552642e-009 10
0.000000e+000:1 2.019161e-004:2 3.299366e+000:3 2.034397e-004:4 3.299361e+000:5 2.026778e-004:6 
3.299364e+000:7 2.026779e-004:8 3.299364e+000:9 0.000000e+000:a 
#C 1.592642e-009 10
0.000000e+000:1 2.019161e-004:2 3.299366e+000:3 2.034397e-004:4 3.299361e+000:5 2.026778e-004:6 
3.299364e+000:7 2.026779e-004:8 3.299364e+000:9 0.000000e+000:a 
#C 1.632642e-009 10
0.000000e+000:1 2.019161e-004:2 3.299366e+000:3 2.034397e-004:4 3.299361e+000:5 2.026778e-004:6 
3.299364e+000:7 2.026779e-004:8 3.299364e+000:9 0.000000e+000:a 
#C 1.672642e-009 10
0.000000e+000:1 2.019161e-004:2 3.299366e+000:3 2.034397e-004:4 3.299361e+000:5 2.026778e-004:6 
3.299364e+000:7 2.026779e-004:8 3.299364e+000:9 0.000000e+000:a 
#C 1.712642e-009 10
0.000000e+000:1 2.019161e-004:2 3.299366e+000:3 2.034397e-004:4 3.299361e+000:5 2.026778e-004:6 
3.299364e+000:7 2.026779e-004:8 3.299364e+000:9 0.000000e+000:a 
#C 1.752642e-009 10
0.000000e+000:1 2.019161e-004:2 3.299366e+000:3 2.034397e-004:4 3.299361e+000:5 2.026778e-004:6 
3.299364e+000:7 2.026779e-004:8 3.299364e+000:9 0.000000e+000:a 
#C 1.792642e-009 10
0.000000e+000:1 2.019161e-004:2 3.299366e+000:3 2.034397e-004:4 3.299361e+000:5 2.026778e-004:6 
3.299364e+000:7 2.026779e-004:8 3.299364e+000:9 0.000000e+000:a 
#C 1.832642e-009 10
0.000000e+000:1 2.019161e-004:2 3.299366e+000:3 2.034397e-004:4 3.299361e+000:5 2.026778e-004:6 
3.299364e+000:7 2.026779e-004:8 3.299364e+000:9 0.000000e+000:a 
#C 1.872642e-009 10
0.000000e+000:1 2.019161e-004:2 3.299366e+000:3 2.034397e-004:4 3.299361e+000:5 2.026778e-004:6 
3.299364e+000:7 2.026779e-004:8 3.299364e+000:9 0.000000e+000:a 
#C 1.912642e-009 10
0.000000e+000:1 2.019161e-004:2 3.299366e+000:3 2.034397e-004:4 3.299361e+000:5 2.026778e-004:6 
3.299364e+000:7 2.026779e-004:8 3.299364e+000:9 0.000000e+000:a 
#C 1.952642e-009 10
0.000000e+000:1 2.019161e-004:2 3.299366e+000:3 2.034397e-004:4 3.299361e+000:5 2.026778e-004:6 
3.299364e+000:7 2.026779e-004:8 3.299364e+000:9 0.000000e+000:a 
#C 1.992642e-009 10
0.000000e+000:1 2.019161e-004:2 3.299366e+000:3 2.034397e-004:4 3.299361e+000:5 2.026778e-004:6 
3.299364e+000:7 2.026779e-004:8 3.299364e+000:9 0.000000e+000:a 
#C 2.032642e-009 10
0.000000e+000:1 2.019161e-004:2 3.299366e+000:3 2.034397e-004:4 3.299361e+000:5 2.026778e-004:6 
3.299364e+000:7 2.026779e-004:8 3.299364e+000:9 0.000000e+000:a 
#C 2.072642e-009 10
0.000000e+000:1 2.019161e-004:2 3.299366e+000:3 2.034397e-004:4 3.299361e+000:5 2.026778e-004:6 
3.299364e+000:7 2.026779e-004:8 3.299364e+000:9 0.000000e+000:a 
#C 2.112642e-009 10
0.000000e+000:1 2.019161e-004:2 3.299366e+000:3 2.034397e-004:4 3.299361e+000:5 2.026778e-004:6 
3.299364e+000:7 2.026779e-004:8 3.299364e+000:9 0.000000e+000:a 
#C 2.152642e-009 10
0.000000e+000:1 2.019161e-004:2 3.299366e+000:3 2.034397e-004:4 3.299361e+000:5 2.026778e-004:6 
3.299364e+000:7 2.026779e-004:8 3.299364e+000:9 0.000000e+000:a 
#C 2.192642e-009 10
0.000000e+000:1 2.019161e-004:2 3.299366e+000:3 2.034397e-004:4 3.299361e+000:5 2.026778e-004:6 
3.299364e+000:7 2.026779e-004:8 3.299364e+000:9 0.000000e+000:a 
#C 2.232642e-009 10
0.000000e+000:1 2.019161e-004:2 3.299366e+000:3 2.034397e-004:4 3.299361e+000:5 2.026778e-004:6 
3.299364e+000:7 2.026779e-004:8 3.299364e+000:9 0.000000e+000:a 
#C 2.272642e-009 10
0.000000e+000:1 2.019161e-004:2 3.299366e+000:3 2.034397e-004:4 3.299361e+000:5 2.026778e-004:6 
3.299364e+000:7 2.026779e-004:8 3.299364e+000:9 0.000000e+000:a 
#C 2.312642e-009 10
0.000000e+000:1 2.019161e-004:2 3.299366e+000:3 2.034397e-004:4 3.299361e+000:5 2.026778e-004:6 
3.299364e+000:7 2.026779e-004:8 3.299364e+000:9 0.000000e+000:a 
#C 2.352642e-009 10
0.000000e+000:1 2.019161e-004:2 3.299366e+000:3 2.034397e-004:4 3.299361e+000:5 2.026778e-004:6 
3.299364e+000:7 2.026779e-004:8 3.299364e+000:9 0.000000e+000:a 
#C 2.392642e-009 10
0.000000e+000:1 2.019161e-004:2 3.299366e+000:3 2.034397e-004:4 3.299361e+000:5 2.026778e-004:6 
3.299364e+000:7 2.026779e-004:8 3.299364e+000:9 0.000000e+000:a 
#C 2.432642e-009 10
0.000000e+000:1 2.019161e-004:2 3.299366e+000:3 2.034397e-004:4 3.299361e+000:5 2.026778e-004:6 
3.299364e+000:7 2.026779e-004:8 3.299364e+000:9 0.000000e+000:a 
#C 2.472642e-009 10
0.000000e+000:1 2.019161e-004:2 3.299366e+000:3 2.034397e-004:4 3.299361e+000:5 2.026778e-004:6 
3.299364e+000:7 2.026779e-004:8 3.299364e+000:9 0.000000e+000:a 
#C 2.512642e-009 10
0.000000e+000:1 2.019161e-004:2 3.299366e+000:3 2.034397e-004:4 3.299361e+000:5 2.026778e-004:6 
3.299364e+000:7 2.026779e-004:8 3.299364e+000:9 0.000000e+000:a 
#C 2.552642e-009 10
0.000000e+000:1 2.019161e-004:2 3.299366e+000:3 2.034397e-004:4 3.299361e+000:5 2.026778e-004:6 
3.299364e+000:7 2.026779e-004:8 3.299364e+000:9 0.000000e+000:a 
#C 2.592642e-009 10
0.000000e+000:1 2.019161e-004:2 3.299366e+000:3 2.034397e-004:4 3.299361e+000:5 2.026778e-004:6 
3.299364e+000:7 2.026779e-004:8 3.299364e+000:9 0.000000e+000:a 
#C 2.632642e-009 10
0.000000e+000:1 2.019161e-004:2 3.299366e+000:3 2.034397e-004:4 3.299361e+000:5 2.026778e-004:6 
3.299364e+000:7 2.026779e-004:8 3.299364e+000:9 0.000000e+000:a 
#C 2.672642e-009 10
0.000000e+000:1 2.019161e-004:2 3.299366e+000:3 2.034397e-004:4 3.299361e+000:5 2.026778e-004:6 
3.299364e+000:7 2.026779e-004:8 3.299364e+000:9 0.000000e+000:a 
#C 2.712642e-009 10
0.000000e+000:1 2.019161e-004:2 3.299366e+000:3 2.034397e-004:4 3.299361e+000:5 2.026778e-004:6 
3.299364e+000:7 2.026779e-004:8 3.299364e+000:9 0.000000e+000:a 
#C 2.752642e-009 10
0.000000e+000:1 2.019161e-004:2 3.299366e+000:3 2.034397e-004:4 3.299361e+000:5 2.026778e-004:6 
3.299364e+000:7 2.026779e-004:8 3.299364e+000:9 0.000000e+000:a 
#C 2.792642e-009 10
0.000000e+000:1 2.019161e-004:2 3.299366e+000:3 2.034397e-004:4 3.299361e+000:5 2.026778e-004:6 
3.299364e+000:7 2.026779e-004:8 3.299364e+000:9 0.000000e+000:a 
#C 2.832642e-009 10
0.000000e+000:1 2.019161e-004:2 3.299366e+000:3 2.034397e-004:4 3.299361e+000:5 2.026778e-004:6 
3.299364e+000:7 2.026779e-004:8 3.299364e+000:9 0.000000e+000:a 
#C 2.872642e-009 10
0.000000e+000:1 2.019161e-004:2 3.299366e+000:3 2.034397e-004:4 3.299361e+000:5 2.026778e-004:6 
3.299364e+000:7 2.026779e-004:8 3.299364e+000:9 0.000000e+000:a 
#C 2.912642e-009 10
0.000000e+000:1 2.019161e-004:2 3.299366e+000:3 2.034397e-004:4 3.299361e+000:5 2.026778e-004:6 
3.299364e+000:7 2.026779e-004:8 3.299364e+000:9 0.000000e+000:a 
#C 2.952642e-009 10
0.000000e+000:1 2.019161e-004:2 3.299366e+000:3 2.034397e-004:4 3.299361e+000:5 2.026778e-004:6 
3.299364e+000:7 2.026779e-004:8 3.299364e+000:9 0.000000e+000:a 
#C 2.992642e-009 10
0.000000e+000:1 2.019161e-004:2 3.299366e+000:3 2.034397e-004:4 3.299361e+000:5 2.026778e-004:6 
3.299364e+000:7 2.026779e-004:8 3.299364e+000:9 0.000000e+000:a 
#C 3.032642e-009 10
0.000000e+000:1 2.019161e-004:2 3.299366e+000:3 2.034397e-004:4 3.299361e+000:5 2.026778e-004:6 
3.299364e+000:7 2.026779e-004:8 3.299364e+000:9 0.000000e+000:a 
#C 3.072642e-009 10
0.000000e+000:1 2.019161e-004:2 3.299366e+000:3 2.034397e-004:4 3.299361e+000:5 2.026778e-004:6 
3.299364e+000:7 2.026779e-004:8 3.299364e+000:9 0.000000e+000:a 
#C 3.112642e-009 10
0.000000e+000:1 2.019161e-004:2 3.299366e+000:3 2.034397e-004:4 3.299361e+000:5 2.026778e-004:6 
3.299364e+000:7 2.026779e-004:8 3.299364e+000:9 0.000000e+000:a 
#C 3.152642e-009 10
0.000000e+000:1 2.019161e-004:2 3.299366e+000:3 2.034397e-004:4 3.299361e+000:5 2.026778e-004:6 
3.299364e+000:7 2.026779e-004:8 3.299364e+000:9 0.000000e+000:a 
#C 3.192642e-009 10
0.000000e+000:1 2.019161e-004:2 3.299366e+000:3 2.034397e-004:4 3.299361e+000:5 2.026778e-004:6 
3.299364e+000:7 2.026779e-004:8 3.299364e+000:9 0.000000e+000:a 
#C 3.232642e-009 10
0.000000e+000:1 2.019161e-004:2 3.299366e+000:3 2.034397e-004:4 3.299361e+000:5 2.026778e-004:6 
3.299364e+000:7 2.026779e-004:8 3.299364e+000:9 0.000000e+000:a 
#C 3.272642e-009 10
0.000000e+000:1 2.019161e-004:2 3.299366e+000:3 2.034397e-004:4 3.299361e+000:5 2.026778e-004:6 
3.299364e+000:7 2.026779e-004:8 3.299364e+000:9 0.000000e+000:a 
#C 3.312642e-009 10
0.000000e+000:1 2.019161e-004:2 3.299366e+000:3 2.034397e-004:4 3.299361e+000:5 2.026778e-004:6 
3.299364e+000:7 2.026779e-004:8 3.299364e+000:9 0.000000e+000:a 
#C 3.352642e-009 10
0.000000e+000:1 2.019161e-004:2 3.299366e+000:3 2.034397e-004:4 3.299361e+000:5 2.026778e-004:6 
3.299364e+000:7 2.026779e-004:8 3.299364e+000:9 0.000000e+000:a 
#C 3.392642e-009 10
0.000000e+000:1 2.019161e-004:2 3.299366e+000:3 2.034397e-004:4 3.299361e+000:5 2.026778e-004:6 
3.299364e+000:7 2.026779e-004:8 3.299364e+000:9 0.000000e+000:a 
#C 3.432642e-009 10
0.000000e+000:1 2.019161e-004:2 3.299366e+000:3 2.034397e-004:4 3.299361e+000:5 2.026778e-004:6 
3.299364e+000:7 2.026779e-004:8 3.299364e+000:9 0.000000e+000:a 
#C 3.472642e-009 10
0.000000e+000:1 2.019161e-004:2 3.299366e+000:3 2.034397e-004:4 3.299361e+000:5 2.026778e-004:6 
3.299364e+000:7 2.026779e-004:8 3.299364e+000:9 0.000000e+000:a 
#C 3.512642e-009 10
0.000000e+000:1 2.019161e-004:2 3.299366e+000:3 2.034397e-004:4 3.299361e+000:5 2.026778e-004:6 
3.299364e+000:7 2.026779e-004:8 3.299364e+000:9 0.000000e+000:a 
#C 3.552642e-009 10
0.000000e+000:1 2.019161e-004:2 3.299366e+000:3 2.034397e-004:4 3.299361e+000:5 2.026778e-004:6 
3.299364e+000:7 2.026779e-004:8 3.299364e+000:9 0.000000e+000:a 
#C 3.592642e-009 10
0.000000e+000:1 2.019161e-004:2 3.299366e+000:3 2.034397e-004:4 3.299361e+000:5 2.026778e-004:6 
3.299364e+000:7 2.026779e-004:8 3.299364e+000:9 0.000000e+000:a 
#C 3.632642e-009 10
0.000000e+000:1 2.019161e-004:2 3.299366e+000:3 2.034397e-004:4 3.299361e+000:5 2.026778e-004:6 
3.299364e+000:7 2.026779e-004:8 3.299364e+000:9 0.000000e+000:a 
#C 3.672642e-009 10
0.000000e+000:1 2.019161e-004:2 3.299366e+000:3 2.034397e-004:4 3.299361e+000:5 2.026778e-004:6 
3.299364e+000:7 2.026779e-004:8 3.299364e+000:9 0.000000e+000:a 
#C 3.712642e-009 10
0.000000e+000:1 2.019161e-004:2 3.299366e+000:3 2.034397e-004:4 3.299361e+000:5 2.026778e-004:6 
3.299364e+000:7 2.026779e-004:8 3.299364e+000:9 0.000000e+000:a 
#C 3.752642e-009 10
0.000000e+000:1 2.019161e-004:2 3.299366e+000:3 2.034397e-004:4 3.299361e+000:5 2.026778e-004:6 
3.299364e+000:7 2.026779e-004:8 3.299364e+000:9 0.000000e+000:a 
#C 3.792642e-009 10
0.000000e+000:1 2.019161e-004:2 3.299366e+000:3 2.034397e-004:4 3.299361e+000:5 2.026778e-004:6 
3.299364e+000:7 2.026779e-004:8 3.299364e+000:9 0.000000e+000:a 
#C 3.832642e-009 10
0.000000e+000:1 2.019161e-004:2 3.299366e+000:3 2.034397e-004:4 3.299361e+000:5 2.026778e-004:6 
3.299364e+000:7 2.026779e-004:8 3.299364e+000:9 0.000000e+000:a 
#C 3.872642e-009 10
0.000000e+000:1 2.019161e-004:2 3.299366e+000:3 2.034397e-004:4 3.299361e+000:5 2.026778e-004:6 
3.299364e+000:7 2.026779e-004:8 3.299364e+000:9 0.000000e+000:a 
#C 3.912642e-009 10
0.000000e+000:1 2.019161e-004:2 3.299366e+000:3 2.034397e-004:4 3.299361e+000:5 2.026778e-004:6 
3.299364e+000:7 2.026779e-004:8 3.299364e+000:9 0.000000e+000:a 
#C 3.952642e-009 10
0.000000e+000:1 2.019161e-004:2 3.299366e+000:3 2.034397e-004:4 3.299361e+000:5 2.026778e-004:6 
3.299364e+000:7 2.026779e-004:8 3.299364e+000:9 0.000000e+000:a 
#C 3.992642e-009 10
0.000000e+000:1 2.019161e-004:2 3.299366e+000:3 2.034397e-004:4 3.299361e+000:5 2.026778e-004:6 
3.299364e+000:7 2.026779e-004:8 3.299364e+000:9 0.000000e+000:a 
#C 4.032642e-009 10
0.000000e+000:1 2.019161e-004:2 3.299366e+000:3 2.034397e-004:4 3.299361e+000:5 2.026778e-004:6 
3.299364e+000:7 2.026779e-004:8 3.299364e+000:9 0.000000e+000:a 
#C 4.072642e-009 10
0.000000e+000:1 2.019161e-004:2 3.299366e+000:3 2.034397e-004:4 3.299361e+000:5 2.026778e-004:6 
3.299364e+000:7 2.026779e-004:8 3.299364e+000:9 0.000000e+000:a 
#C 4.112642e-009 10
0.000000e+000:1 2.019161e-004:2 3.299366e+000:3 2.034397e-004:4 3.299361e+000:5 2.026778e-004:6 
3.299364e+000:7 2.026779e-004:8 3.299364e+000:9 0.000000e+000:a 
#C 4.152642e-009 10
0.000000e+000:1 2.019161e-004:2 3.299366e+000:3 2.034397e-004:4 3.299361e+000:5 2.026778e-004:6 
3.299364e+000:7 2.026779e-004:8 3.299364e+000:9 0.000000e+000:a 
#C 4.192642e-009 10
0.000000e+000:1 2.019161e-004:2 3.299366e+000:3 2.034397e-004:4 3.299361e+000:5 2.026778e-004:6 
3.299364e+000:7 2.026779e-004:8 3.299364e+000:9 0.000000e+000:a 
#C 4.232642e-009 10
0.000000e+000:1 2.019161e-004:2 3.299366e+000:3 2.034397e-004:4 3.299361e+000:5 2.026778e-004:6 
3.299364e+000:7 2.026779e-004:8 3.299364e+000:9 0.000000e+000:a 
#C 4.272642e-009 10
0.000000e+000:1 2.019161e-004:2 3.299366e+000:3 2.034397e-004:4 3.299361e+000:5 2.026778e-004:6 
3.299364e+000:7 2.026779e-004:8 3.299364e+000:9 0.000000e+000:a 
#C 4.312642e-009 10
0.000000e+000:1 2.019161e-004:2 3.299366e+000:3 2.034397e-004:4 3.299361e+000:5 2.026778e-004:6 
3.299364e+000:7 2.026779e-004:8 3.299364e+000:9 0.000000e+000:a 
#C 4.352642e-009 10
0.000000e+000:1 2.019161e-004:2 3.299366e+000:3 2.034397e-004:4 3.299361e+000:5 2.026778e-004:6 
3.299364e+000:7 2.026779e-004:8 3.299364e+000:9 0.000000e+000:a 
#C 4.392642e-009 10
0.000000e+000:1 2.019161e-004:2 3.299366e+000:3 2.034397e-004:4 3.299361e+000:5 2.026778e-004:6 
3.299364e+000:7 2.026779e-004:8 3.299364e+000:9 0.000000e+000:a 
#C 4.432642e-009 10
0.000000e+000:1 2.019161e-004:2 3.299366e+000:3 2.034397e-004:4 3.299361e+000:5 2.026778e-004:6 
3.299364e+000:7 2.026779e-004:8 3.299364e+000:9 0.000000e+000:a 
#C 4.472642e-009 10
0.000000e+000:1 2.019161e-004:2 3.299366e+000:3 2.034397e-004:4 3.299361e+000:5 2.026778e-004:6 
3.299364e+000:7 2.026779e-004:8 3.299364e+000:9 0.000000e+000:a 
#C 4.512642e-009 10
0.000000e+000:1 2.019161e-004:2 3.299366e+000:3 2.034397e-004:4 3.299361e+000:5 2.026778e-004:6 
3.299364e+000:7 2.026779e-004:8 3.299364e+000:9 0.000000e+000:a 
#C 4.552642e-009 10
