#H
SOURCE='IsSpice4'	VERSION='ver. 8.11-SI-1.0.3   10/6/2010'
TITLE='* Thu Oct 29 20:50:00 2015, Generated by: 010328058, Server: None, Windows, INSTALLED_SOFTWARE_VERSION: 2015.07 Build 6, Engine: 2015.07rc1, GUI: 2015.07rc1'
SUBTITLE='pc'
TIME='20:51:17' DATE='Oct 29, 2015' TEMPERATURE='273.15'
ANALYSIS='Trans'	SERIALNO='01234567'
ALLVALUES='NO' COMPLEXVALUES='NO' NODES='6'
SWEEPVAR='time' SWEEPMODE='VAR_STEP' DGTLDATA='NO'
XBEGIN='0.000000e+000' XEND='1.690000e-007'
FORMAT='0 VOLTSorAMPS;EFLOAT : NODEorBRANCH;NODE'
#N
'V(v_stimulus)'
'V(stload_sl_wopkg_!load)'
'V(stload_sl_wpkg_!load)'
'V(stload_sl_wopkg_!pad)'
'V(stload_sl_wpkg_!pad)'
'V(stload_sl_wpkg_!pin)'
#U
'Volts'
'Volts'
'Volts'
'Volts'
'Volts'
'Volts'
#C 0.000000e+000 6
0.000000e+000:1 1.036236e-004:2 1.036236e-004:3 1.036236e-004:4 1.036236e-004:5 1.036236e-004:6 
#C 2.560000e-011 6
0.000000e+000:1 1.036236e-004:2 1.036236e-004:3 1.036236e-004:4 1.036236e-004:5 1.036236e-004:6 
#C 5.440000e-011 6
0.000000e+000:1 1.036236e-004:2 1.036236e-004:3 1.036236e-004:4 1.036236e-004:5 1.036236e-004:6 
#C 8.320000e-011 6
0.000000e+000:1 1.036236e-004:2 1.036236e-004:3 1.036236e-004:4 1.036236e-004:5 1.036236e-004:6 
#C 1.088000e-010 6
0.000000e+000:1 1.036236e-004:2 1.036236e-004:3 1.036236e-004:4 1.036236e-004:5 1.036236e-004:6 
#C 1.600000e-010 6
0.000000e+000:1 1.036236e-004:2 1.036236e-004:3 1.036236e-004:4 1.036236e-004:5 1.036236e-004:6 
#C 2.624000e-010 6
0.000000e+000:1 1.036236e-004:2 1.036236e-004:3 1.036236e-004:4 1.036236e-004:5 1.036236e-004:6 
#C 4.672000e-010 6
0.000000e+000:1 1.036236e-004:2 1.036236e-004:3 1.036236e-004:4 1.036236e-004:5 1.036236e-004:6 
#C 8.768000e-010 6
0.000000e+000:1 1.036236e-004:2 1.036236e-004:3 1.036236e-004:4 1.036236e-004:5 1.036236e-004:6 
#C 9.051535e-010 6
0.000000e+000:1 1.036236e-004:2 1.036236e-004:3 1.036236e-004:4 1.036236e-004:5 1.036236e-004:6 
#C 9.335070e-010 6
0.000000e+000:1 1.036236e-004:2 1.036236e-004:3 1.036236e-004:4 1.036236e-004:5 1.036236e-004:6 
#C 9.902140e-010 6
0.000000e+000:1 1.036236e-004:2 1.036236e-004:3 1.036236e-004:4 1.036236e-004:5 1.036236e-004:6 
#C 1.103628e-009 6
0.000000e+000:1 1.036236e-004:2 1.036236e-004:3 1.036236e-004:4 1.036236e-004:5 1.036236e-004:6 
#C 1.131981e-009 6
0.000000e+000:1 1.036236e-004:2 1.036236e-004:3 1.036236e-004:4 1.036236e-004:5 1.036236e-004:6 
#C 1.160335e-009 6
0.000000e+000:1 1.036236e-004:2 1.036236e-004:3 1.036236e-004:4 1.036236e-004:5 1.036236e-004:6 
#C 1.193749e-009 6
0.000000e+000:1 1.036236e-004:2 1.036236e-004:3 1.036236e-004:4 1.036236e-004:5 1.036236e-004:6 
#C 1.217042e-009 6
0.000000e+000:1 1.036236e-004:2 1.036236e-004:3 1.036236e-004:4 1.036236e-004:5 1.036236e-004:6 
#C 1.245395e-009 6
0.000000e+000:1 1.036236e-004:2 1.036236e-004:3 1.036236e-004:4 1.036236e-004:5 1.036236e-004:6 
#C 1.273749e-009 6
0.000000e+000:1 1.036236e-004:2 1.036236e-004:3 1.036236e-004:4 1.036236e-004:5 1.036236e-004:6 
#C 1.297042e-009 6
0.000000e+000:1 1.036236e-004:2 1.036236e-004:3 1.036236e-004:4 1.036236e-004:5 1.036236e-004:6 
#C 1.325395e-009 6
0.000000e+000:1 1.036236e-004:2 1.036236e-004:3 1.036236e-004:4 1.036236e-004:5 1.036236e-004:6 
#C 1.353749e-009 6
0.000000e+000:1 1.036236e-004:2 1.036236e-004:3 1.036236e-004:4 1.036236e-004:5 1.036236e-004:6 
#C 1.377042e-009 6
0.000000e+000:1 1.036236e-004:2 1.036236e-004:3 1.036236e-004:4 1.036236e-004:5 1.036236e-004:6 
#C 1.405395e-009 6
0.000000e+000:1 1.036236e-004:2 1.036236e-004:3 1.036236e-004:4 1.036236e-004:5 1.036236e-004:6 
#C 1.433749e-009 6
0.000000e+000:1 1.036236e-004:2 1.036236e-004:3 1.036236e-004:4 1.036236e-004:5 1.036236e-004:6 
#C 1.457042e-009 6
0.000000e+000:1 1.036236e-004:2 1.036236e-004:3 1.036236e-004:4 1.036236e-004:5 1.036236e-004:6 
#C 1.485395e-009 6
0.000000e+000:1 1.036236e-004:2 1.036236e-004:3 1.036236e-004:4 1.036236e-004:5 1.036236e-004:6 
#C 1.513749e-009 6
0.000000e+000:1 1.036236e-004:2 1.036236e-004:3 1.036236e-004:4 1.036236e-004:5 1.036236e-004:6 
#C 1.537042e-009 6
0.000000e+000:1 1.036236e-004:2 1.036236e-004:3 1.036236e-004:4 1.036236e-004:5 1.036236e-004:6 
#C 1.565395e-009 6
0.000000e+000:1 1.036236e-004:2 1.036236e-004:3 1.036236e-004:4 1.036236e-004:5 1.036236e-004:6 
#C 1.593749e-009 6
0.000000e+000:1 1.036236e-004:2 1.036236e-004:3 1.036236e-004:4 1.036236e-004:5 1.036236e-004:6 
#C 1.622102e-009 6
0.000000e+000:1 1.036236e-004:2 1.036236e-004:3 1.036236e-004:4 1.036236e-004:5 1.036236e-004:6 
#C 1.650456e-009 6
0.000000e+000:1 1.036236e-004:2 1.036236e-004:3 1.036236e-004:4 1.036236e-004:5 1.036236e-004:6 
#C 1.673749e-009 6
0.000000e+000:1 1.036236e-004:2 1.036236e-004:3 1.036236e-004:4 1.036236e-004:5 1.036236e-004:6 
#C 1.713265e-009 6
0.000000e+000:1 1.036236e-004:2 1.036236e-004:3 1.036236e-004:4 1.036236e-004:5 1.036236e-004:6 
#C 1.741619e-009 6
0.000000e+000:1 1.036236e-004:2 1.036236e-004:3 1.036236e-004:4 1.036236e-004:5 1.036236e-004:6 
#C 1.769972e-009 6
0.000000e+000:1 1.036236e-004:2 1.036236e-004:3 1.036236e-004:4 1.036236e-004:5 1.036236e-004:6 
#C 1.793265e-009 6
0.000000e+000:1 1.036236e-004:2 1.036236e-004:3 1.036236e-004:4 1.036236e-004:5 1.036236e-004:6 
#C 1.821619e-009 6
0.000000e+000:1 1.036236e-004:2 1.036236e-004:3 1.036236e-004:4 1.036236e-004:5 1.036236e-004:6 
#C 1.849972e-009 6
0.000000e+000:1 1.036236e-004:2 1.036236e-004:3 1.036236e-004:4 1.036236e-004:5 1.036236e-004:6 
#C 1.873265e-009 6
0.000000e+000:1 1.036236e-004:2 1.036236e-004:3 1.036236e-004:4 1.036236e-004:5 1.036236e-004:6 
#C 1.901619e-009 6
0.000000e+000:1 1.036236e-004:2 1.036236e-004:3 1.036236e-004:4 1.036236e-004:5 1.036236e-004:6 
#C 1.929972e-009 6
0.000000e+000:1 1.036236e-004:2 1.036236e-004:3 1.036236e-004:4 1.036236e-004:5 1.036236e-004:6 
#C 1.953265e-009 6
0.000000e+000:1 1.036236e-004:2 1.036236e-004:3 1.036236e-004:4 1.036236e-004:5 1.036236e-004:6 
#C 1.981619e-009 6
0.000000e+000:1 1.036236e-004:2 1.036236e-004:3 1.036236e-004:4 1.036236e-004:5 1.036236e-004:6 
#C 2.009972e-009 6
0.000000e+000:1 1.036236e-004:2 1.036236e-004:3 1.036236e-004:4 1.036236e-004:5 1.036236e-004:6 
#C 2.033265e-009 6
0.000000e+000:1 1.036236e-004:2 1.036236e-004:3 1.036236e-004:4 1.036236e-004:5 1.036236e-004:6 
#C 2.061619e-009 6
0.000000e+000:1 1.036236e-004:2 1.036236e-004:3 1.036236e-004:4 1.036236e-004:5 1.036236e-004:6 
#C 2.089972e-009 6
0.000000e+000:1 1.036236e-004:2 1.036236e-004:3 1.036236e-004:4 1.036236e-004:5 1.036236e-004:6 
#C 2.113265e-009 6
0.000000e+000:1 1.036236e-004:2 1.036236e-004:3 1.036236e-004:4 1.036236e-004:5 1.036236e-004:6 
#C 2.141618e-009 6
0.000000e+000:1 1.036236e-004:2 1.036236e-004:3 1.036236e-004:4 1.036236e-004:5 1.036236e-004:6 
#C 2.169972e-009 6
0.000000e+000:1 1.036236e-004:2 1.036236e-004:3 1.036236e-004:4 1.036236e-004:5 1.036236e-004:6 
#C 2.193265e-009 6
0.000000e+000:1 1.036236e-004:2 1.036236e-004:3 1.036236e-004:4 1.036236e-004:5 1.036236e-004:6 
#C 2.221618e-009 6
0.000000e+000:1 1.036236e-004:2 1.036236e-004:3 1.036236e-004:4 1.036236e-004:5 1.036236e-004:6 
#C 2.249972e-009 6
0.000000e+000:1 1.036236e-004:2 1.036236e-004:3 1.036236e-004:4 1.036236e-004:5 1.036236e-004:6 
#C 2.273265e-009 6
0.000000e+000:1 1.036236e-004:2 1.036236e-004:3 1.036236e-004:4 1.036236e-004:5 1.036236e-004:6 
#C 2.301618e-009 6
0.000000e+000:1 1.036236e-004:2 1.036236e-004:3 1.036236e-004:4 1.036236e-004:5 1.036236e-004:6 
#C 2.329972e-009 6
0.000000e+000:1 1.036236e-004:2 1.036236e-004:3 1.036236e-004:4 1.036236e-004:5 1.036236e-004:6 
#C 2.353265e-009 6
0.000000e+000:1 1.036236e-004:2 1.036236e-004:3 1.036236e-004:4 1.036236e-004:5 1.036236e-004:6 
#C 2.381618e-009 6
0.000000e+000:1 1.036236e-004:2 1.036236e-004:3 1.036236e-004:4 1.036236e-004:5 1.036236e-004:6 
#C 2.409972e-009 6
0.000000e+000:1 1.036236e-004:2 1.036236e-004:3 1.036236e-004:4 1.036236e-004:5 1.036236e-004:6 
#C 2.433265e-009 6
0.000000e+000:1 1.036236e-004:2 1.036236e-004:3 1.036236e-004:4 1.036236e-004:5 1.036236e-004:6 
#C 2.460093e-009 6
0.000000e+000:1 1.036236e-004:2 1.036236e-004:3 1.036236e-004:4 1.036236e-004:5 1.036236e-004:6 
#C 2.486437e-009 6
0.000000e+000:1 1.036236e-004:2 1.036236e-004:3 1.036236e-004:4 1.036236e-004:5 1.036236e-004:6 
#C 2.514791e-009 6
0.000000e+000:1 1.036236e-004:2 1.036236e-004:3 1.036236e-004:4 1.036236e-004:5 1.036236e-004:6 
#C 2.543144e-009 6
0.000000e+000:1 1.036236e-004:2 1.036236e-004:3 1.036236e-004:4 1.036236e-004:5 1.036236e-004:6 
#C 2.566437e-009 6
0.000000e+000:1 1.036236e-004:2 1.036236e-004:3 1.036236e-004:4 1.036236e-004:5 1.036236e-004:6 
#C 2.605953e-009 6
0.000000e+000:1 1.036236e-004:2 1.036236e-004:3 1.036236e-004:4 1.036236e-004:5 1.036236e-004:6 
#C 2.634307e-009 6
0.000000e+000:1 1.036236e-004:2 1.036236e-004:3 1.036236e-004:4 1.036236e-004:5 1.036236e-004:6 
#C 2.662660e-009 6
0.000000e+000:1 1.036236e-004:2 1.036236e-004:3 1.036236e-004:4 1.036236e-004:5 1.036236e-004:6 
#C 2.685953e-009 6
0.000000e+000:1 1.036236e-004:2 1.036236e-004:3 1.036236e-004:4 1.036236e-004:5 1.036236e-004:6 
#C 2.714307e-009 6
0.000000e+000:1 1.036236e-004:2 1.036236e-004:3 1.036236e-004:4 1.036236e-004:5 1.036236e-004:6 
#C 2.742660e-009 6
0.000000e+000:1 1.036236e-004:2 1.036236e-004:3 1.036236e-004:4 1.036236e-004:5 1.036236e-004:6 
#C 2.765953e-009 6
0.000000e+000:1 1.036236e-004:2 1.036236e-004:3 1.036236e-004:4 1.036236e-004:5 1.036236e-004:6 
#C 2.794307e-009 6
0.000000e+000:1 1.036236e-004:2 1.036236e-004:3 1.036236e-004:4 1.036236e-004:5 1.036236e-004:6 
#C 2.822660e-009 6
0.000000e+000:1 1.036236e-004:2 1.036236e-004:3 1.036236e-004:4 1.036236e-004:5 1.036236e-004:6 
#C 2.845953e-009 6
0.000000e+000:1 1.036236e-004:2 1.036236e-004:3 1.036236e-004:4 1.036236e-004:5 1.036236e-004:6 
#C 2.874307e-009 6
0.000000e+000:1 1.036236e-004:2 1.036236e-004:3 1.036236e-004:4 1.036236e-004:5 1.036236e-004:6 
#C 2.902660e-009 6
0.000000e+000:1 1.036236e-004:2 1.036236e-004:3 1.036236e-004:4 1.036236e-004:5 1.036236e-004:6 
#C 2.925953e-009 6
0.000000e+000:1 1.036236e-004:2 1.036236e-004:3 1.036236e-004:4 1.036236e-004:5 1.036236e-004:6 
#C 2.954307e-009 6
0.000000e+000:1 1.036236e-004:2 1.036236e-004:3 1.036236e-004:4 1.036236e-004:5 1.036236e-004:6 
#C 2.982660e-009 6
0.000000e+000:1 1.036236e-004:2 1.036236e-004:3 1.036236e-004:4 1.036236e-004:5 1.036236e-004:6 
#C 3.005953e-009 6
0.000000e+000:1 1.036236e-004:2 1.036236e-004:3 1.036236e-004:4 1.036236e-004:5 1.036236e-004:6 
#C 3.034307e-009 6
0.000000e+000:1 1.036236e-004:2 1.036236e-004:3 1.036236e-004:4 1.036236e-004:5 1.036236e-004:6 
#C 3.062660e-009 6
0.000000e+000:1 1.036236e-004:2 1.036236e-004:3 1.036236e-004:4 1.036236e-004:5 1.036236e-004:6 
#C 3.085953e-009 6
0.000000e+000:1 1.036236e-004:2 1.036236e-004:3 1.036236e-004:4 1.036236e-004:5 1.036236e-004:6 
#C 3.112781e-009 6
0.000000e+000:1 1.036236e-004:2 1.036236e-004:3 1.036236e-004:4 1.036236e-004:5 1.036236e-004:6 
#C 3.139125e-009 6
0.000000e+000:1 1.036236e-004:2 1.036236e-004:3 1.036236e-004:4 1.036236e-004:5 1.036236e-004:6 
#C 3.168373e-009 6
0.000000e+000:1 1.036236e-004:2 1.036236e-004:3 1.036236e-004:4 1.036236e-004:5 1.036236e-004:6 
#C 3.197620e-009 6
0.000000e+000:1 1.036236e-004:2 1.036236e-004:3 1.036236e-004:4 1.036236e-004:5 1.036236e-004:6 
#C 3.234609e-009 6
0.000000e+000:1 1.036236e-004:2 1.036236e-004:3 1.036236e-004:4 1.036236e-004:5 1.036236e-004:6 
#C 3.271599e-009 6
0.000000e+000:1 1.036236e-004:2 1.036236e-004:3 1.036236e-004:4 1.036236e-004:5 1.036236e-004:6 
#C 3.293104e-009 6
0.000000e+000:1 1.036236e-004:2 1.036236e-004:3 1.036236e-004:4 1.036236e-004:5 1.036236e-004:6 
#C 3.321458e-009 6
0.000000e+000:1 1.036236e-004:2 1.036236e-004:3 1.036236e-004:4 1.036236e-004:5 1.036236e-004:6 
#C 3.349811e-009 6
0.000000e+000:1 1.036236e-004:2 1.036236e-004:3 1.036236e-004:4 1.036236e-004:5 1.036236e-004:6 
#C 3.373104e-009 6
0.000000e+000:1 1.036236e-004:2 1.036236e-004:3 1.036236e-004:4 1.036236e-004:5 1.036236e-004:6 
#C 3.401458e-009 6
0.000000e+000:1 1.036236e-004:2 1.036236e-004:3 1.036236e-004:4 1.036236e-004:5 1.036236e-004:6 
#C 3.429811e-009 6
0.000000e+000:1 1.036236e-004:2 1.036236e-004:3 1.036236e-004:4 1.036236e-004:5 1.036236e-004:6 
#C 3.463225e-009 6
0.000000e+000:1 1.036236e-004:2 1.036236e-004:3 1.036236e-004:4 1.036236e-004:5 1.036236e-004:6 
#C 3.496639e-009 6
0.000000e+000:1 1.036236e-004:2 1.036236e-004:3 1.036236e-004:4 1.036236e-004:5 1.036236e-004:6 
#C 3.530053e-009 6
0.000000e+000:1 1.036236e-004:2 1.036236e-004:3 1.036236e-004:4 1.036236e-004:5 1.036236e-004:6 
#C 3.563467e-009 6
0.000000e+000:1 1.036236e-004:2 1.036236e-004:3 1.036236e-004:4 1.036236e-004:5 1.036236e-004:6 
#C 3.596881e-009 6
0.000000e+000:1 1.036236e-004:2 1.036236e-004:3 1.036236e-004:4 1.036236e-004:5 1.036236e-004:6 
#C 3.630295e-009 6
0.000000e+000:1 1.036236e-004:2 1.036236e-004:3 1.036236e-004:4 1.036236e-004:5 1.036236e-004:6 
#C 3.697123e-009 6
0.000000e+000:1 1.036236e-004:2 1.036236e-004:3 1.036236e-004:4 1.036236e-004:5 1.036236e-004:6 
#C 3.725476e-009 6
0.000000e+000:1 1.036236e-004:2 1.036236e-004:3 1.036236e-004:4 1.036236e-004:5 1.036236e-004:6 
#C 3.765476e-009 6
0.000000e+000:1 1.036236e-004:2 1.036236e-004:3 1.036236e-004:4 1.036236e-004:5 1.036236e-004:6 
#C 3.793830e-009 6
0.000000e+000:1 1.036236e-004:2 1.036236e-004:3 1.036236e-004:4 1.036236e-004:5 1.036236e-004:6 
#C 3.822183e-009 6
0.000000e+000:1 1.036236e-004:2 1.036236e-004:3 1.036236e-004:4 1.036236e-004:5 1.036236e-004:6 
#C 3.878890e-009 6
0.000000e+000:1 1.036236e-004:2 1.036236e-004:3 1.036236e-004:4 1.036236e-004:5 1.036236e-004:6 
#C 3.992304e-009 6
0.000000e+000:1 1.036236e-004:2 1.036236e-004:3 1.036236e-004:4 1.036236e-004:5 1.036236e-004:6 
#C 4.020658e-009 6
0.000000e+000:1 1.036236e-004:2 1.036236e-004:3 1.036236e-004:4 1.036236e-004:5 1.036236e-004:6 
#C 4.049011e-009 6
0.000000e+000:1 1.036236e-004:2 1.036236e-004:3 1.036236e-004:4 1.036236e-004:5 1.036236e-004:6 
#C 4.082425e-009 6
0.000000e+000:1 1.036236e-004:2 1.036236e-004:3 1.036236e-004:4 1.036236e-004:5 1.036236e-004:6 
#C 4.105718e-009 6
0.000000e+000:1 1.036236e-004:2 1.036236e-004:3 1.036236e-004:4 1.036236e-004:5 1.036236e-004:6 
#C 4.134072e-009 6
0.000000e+000:1 1.036236e-004:2 1.036236e-004:3 1.036236e-004:4 1.036236e-004:5 1.036236e-004:6 
#C 4.162425e-009 6
0.000000e+000:1 1.036236e-004:2 1.036236e-004:3 1.036236e-004:4 1.036236e-004:5 1.036236e-004:6 
#C 4.185718e-009 6
0.000000e+000:1 1.036236e-004:2 1.036236e-004:3 1.036236e-004:4 1.036236e-004:5 1.036236e-004:6 
#C 4.214072e-009 6
0.000000e+000:1 1.036236e-004:2 1.036236e-004:3 1.036236e-004:4 1.036236e-004:5 1.036236e-004:6 
#C 4.242425e-009 6
0.000000e+000:1 1.036236e-004:2 1.036236e-004:3 1.036236e-004:4 1.036236e-004:5 1.036236e-004:6 
#C 4.265718e-009 6
0.000000e+000:1 1.036236e-004:2 1.036236e-004:3 1.036236e-004:4 1.036236e-004:5 1.036236e-004:6 
#C 4.294072e-009 6
0.000000e+000:1 1.036236e-004:2 1.036236e-004:3 1.036236e-004:4 1.036236e-004:5 1.036236e-004:6 
#C 4.322425e-009 6
0.000000e+000:1 1.036236e-004:2 1.036236e-004:3 1.036236e-004:4 1.036236e-004:5 1.036236e-004:6 
#C 4.345718e-009 6
0.000000e+000:1 1.036236e-004:2 1.036236e-004:3 1.036236e-004:4 1.036236e-004:5 1.036236e-004:6 
#C 4.374072e-009 6
0.000000e+000:1 1.036236e-004:2 1.036236e-004:3 1.036236e-004:4 1.036236e-004:5 1.036236e-004:6 
#C 4.402425e-009 6
0.000000e+000:1 1.036236e-004:2 1.036236e-004:3 1.036236e-004:4 1.036236e-004:5 1.036236e-004:6 
#C 4.425718e-009 6
0.000000e+000:1 1.036236e-004:2 1.036236e-004:3 1.036236e-004:4 1.036236e-004:5 1.036236e-004:6 
#C 4.454072e-009 6
0.000000e+000:1 1.036236e-004:2 1.036236e-004:3 1.036236e-004:4 1.036236e-004:5 1.036236e-004:6 
#C 4.482425e-009 6
0.000000e+000:1 1.036236e-004:2 1.036236e-004:3 1.036236e-004:4 1.036236e-004:5 1.036236e-004:6 
#C 4.505718e-009 6
0.000000e+000:1 1.036236e-004:2 1.036236e-004:3 1.036236e-004:4 1.036236e-004:5 1.036236e-004:6 
#C 4.534072e-009 6
0.000000e+000:1 1.036236e-004:2 1.036236e-004:3 1.036236e-004:4 1.036236e-004:5 1.036236e-004:6 
#C 4.562425e-009 6
0.000000e+000:1 1.036236e-004:2 1.036236e-004:3 1.036236e-004:4 1.036236e-004:5 1.036236e-004:6 
#C 4.590779e-009 6
0.000000e+000:1 1.036236e-004:2 1.036236e-004:3 1.036236e-004:4 1.036236e-004:5 1.036236e-004:6 
#C 4.619132e-009 6
0.000000e+000:1 1.036236e-004:2 1.036236e-004:3 1.036236e-004:4 1.036236e-004:5 1.036236e-004:6 
#C 4.642425e-009 6
0.000000e+000:1 1.036236e-004:2 1.036236e-004:3 1.036236e-004:4 1.036236e-004:5 1.036236e-004:6 
#C 4.681941e-009 6
0.000000e+000:1 1.036236e-004:2 1.036236e-004:3 1.036236e-004:4 1.036236e-004:5 1.036236e-004:6 
#C 4.710295e-009 6
0.000000e+000:1 1.036236e-004:2 1.036236e-004:3 1.036236e-004:4 1.036236e-004:5 1.036236e-004:6 
#C 4.738648e-009 6
0.000000e+000:1 1.036236e-004:2 1.036236e-004:3 1.036236e-004:4 1.036236e-004:5 1.036236e-004:6 
#C 4.761941e-009 6
0.000000e+000:1 1.036236e-004:2 1.036236e-004:3 1.036236e-004:4 1.036236e-004:5 1.036236e-004:6 
#C 4.790295e-009 6
0.000000e+000:1 1.036236e-004:2 1.036236e-004:3 1.036236e-004:4 1.036236e-004:5 1.036236e-004:6 
#C 4.818648e-009 6
0.000000e+000:1 1.036236e-004:2 1.036236e-004:3 1.036236e-004:4 1.036236e-004:5 1.036236e-004:6 
#C 4.841941e-009 6
0.000000e+000:1 1.036236e-004:2 1.036236e-004:3 1.036236e-004:4 1.036236e-004:5 1.036236e-004:6 
#C 4.870295e-009 6
0.000000e+000:1 1.036236e-004:2 1.036236e-004:3 1.036236e-004:4 1.036236e-004:5 1.036236e-004:6 
#C 4.898648e-009 6
0.000000e+000:1 1.036236e-004:2 1.036236e-004:3 1.036236e-004:4 1.036236e-004:5 1.036236e-004:6 
#C 4.921941e-009 6
0.000000e+000:1 1.036236e-004:2 1.036236e-004:3 1.036236e-004:4 1.036236e-004:5 1.036236e-004:6 
#C 4.950295e-009 6
0.000000e+000:1 1.036236e-004:2 1.036236e-004:3 1.036236e-004:4 1.036236e-004:5 1.036236e-004:6 
#C 4.978648e-009 6
0.000000e+000:1 1.036236e-004:2 1.036236e-004:3 1.036236e-004:4 1.036236e-004:5 1.036236e-004:6 
#C 5.001941e-009 6
0.000000e+000:1 1.036236e-004:2 1.036236e-004:3 1.036236e-004:4 1.036236e-004:5 1.036236e-004:6 
#C 5.030295e-009 6
0.000000e+000:1 1.036236e-004:2 1.036236e-004:3 1.036236e-004:4 1.036236e-004:5 1.036236e-004:6 
#C 5.058648e-009 6
0.000000e+000:1 1.036236e-004:2 1.036236e-004:3 1.036236e-004:4 1.036236e-004:5 1.036236e-004:6 
#C 5.081941e-009 6
0.000000e+000:1 1.036236e-004:2 1.036236e-004:3 1.036236e-004:4 1.036236e-004:5 1.036236e-004:6 
#C 5.110295e-009 6
0.000000e+000:1 1.036236e-004:2 1.036236e-004:3 1.036236e-004:4 1.036236e-004:5 1.036236e-004:6 
#C 5.138648e-009 6
0.000000e+000:1 1.036236e-004:2 1.036236e-004:3 1.036236e-004:4 1.036236e-004:5 1.036236e-004:6 
#C 5.161941e-009 6
0.000000e+000:1 1.036236e-004:2 1.036236e-004:3 1.036236e-004:4 1.036236e-004:5 1.036236e-004:6 
#C 5.190295e-009 6
0.000000e+000:1 1.036236e-004:2 1.036236e-004:3 1.036236e-004:4 1.036236e-004:5 1.036236e-004:6 
#C 5.218648e-009 6
0.000000e+000:1 1.036236e-004:2 1.036236e-004:3 1.036236e-004:4 1.036236e-004:5 1.036236e-004:6 
#C 5.241941e-009 6
0.000000e+000:1 1.036236e-004:2 1.036236e-004:3 1.036236e-004:4 1.036236e-004:5 1.036236e-004:6 
#C 5.270295e-009 6
0.000000e+000:1 1.036236e-004:2 1.036236e-004:3 1.036236e-004:4 1.036236e-004:5 1.036236e-004:6 
#C 5.298648e-009 6
0.000000e+000:1 1.036236e-004:2 1.036236e-004:3 1.036236e-004:4 1.036236e-004:5 1.036236e-004:6 
#C 5.321941e-009 6
0.000000e+000:1 1.036236e-004:2 1.036236e-004:3 1.036236e-004:4 1.036236e-004:5 1.036236e-004:6 
#C 5.350295e-009 6
0.000000e+000:1 1.036236e-004:2 1.036236e-004:3 1.036236e-004:4 1.036236e-004:5 1.036236e-004:6 
#C 5.378648e-009 6
0.000000e+000:1 1.036236e-004:2 1.036236e-004:3 1.036236e-004:4 1.036236e-004:5 1.036236e-004:6 
#C 5.412062e-009 6
0.000000e+000:1 1.036236e-004:2 1.036236e-004:3 1.036236e-004:4 1.036236e-004:5 1.036236e-004:6 
#C 5.445476e-009 6
0.000000e+000:1 1.036236e-004:2 1.036236e-004:3 1.036236e-004:4 1.036236e-004:5 1.036236e-004:6 
#C 5.472788e-009 6
0.000000e+000:1 1.036236e-004:2 1.036236e-004:3 1.036236e-004:4 1.036236e-004:5 1.036236e-004:6 
#C 5.498165e-009 6
0.000000e+000:1 1.036236e-004:2 1.036236e-004:3 1.036236e-004:4 1.036236e-004:5 1.036236e-004:6 
#C 5.535154e-009 6
