#H
SOURCE='IsSpice4'	VERSION='ver. 8.11-SI-1.0.3   10/6/2010'
TITLE='* Thu Oct 29 20:50:00 2015, Generated by: 010328058, Server: None, Windows, INSTALLED_SOFTWARE_VERSION: 2015.07 Build 6, Engine: 2015.07rc1, GUI: 2015.07rc1'
SUBTITLE='pc'
TIME='20:51:18' DATE='Oct 29, 2015' TEMPERATURE='373.15'
ANALYSIS='Trans'	SERIALNO='01234567'
ALLVALUES='NO' COMPLEXVALUES='NO' NODES='6'
SWEEPVAR='time' SWEEPMODE='VAR_STEP' DGTLDATA='NO'
XBEGIN='0.000000e+000' XEND='1.690000e-007'
FORMAT='0 VOLTSorAMPS;EFLOAT : NODEorBRANCH;NODE'
#N
'V(v_stimulus)'
'V(stload_sl_wopkg_!load)'
'V(stload_sl_wpkg_!load)'
'V(stload_sl_wopkg_!pad)'
'V(stload_sl_wpkg_!pad)'
'V(stload_sl_wpkg_!pin)'
#U
'Volts'
'Volts'
'Volts'
'Volts'
'Volts'
'Volts'
#C 0.000000e+000 6
0.000000e+000:1 1.000440e-004:2 1.000439e-004:3 1.000440e-004:4 1.000440e-004:5 1.000439e-004:6 
#C 2.560000e-011 6
0.000000e+000:1 1.000440e-004:2 1.000439e-004:3 1.000440e-004:4 1.000440e-004:5 1.000439e-004:6 
#C 5.440000e-011 6
0.000000e+000:1 1.000440e-004:2 1.000439e-004:3 1.000440e-004:4 1.000440e-004:5 1.000439e-004:6 
#C 8.320000e-011 6
0.000000e+000:1 1.000440e-004:2 1.000439e-004:3 1.000440e-004:4 1.000440e-004:5 1.000439e-004:6 
#C 1.088000e-010 6
0.000000e+000:1 1.000440e-004:2 1.000439e-004:3 1.000440e-004:4 1.000440e-004:5 1.000439e-004:6 
#C 1.600000e-010 6
0.000000e+000:1 1.000440e-004:2 1.000439e-004:3 1.000440e-004:4 1.000440e-004:5 1.000439e-004:6 
#C 2.624000e-010 6
0.000000e+000:1 1.000440e-004:2 1.000439e-004:3 1.000440e-004:4 1.000440e-004:5 1.000439e-004:6 
#C 4.672000e-010 6
0.000000e+000:1 1.000440e-004:2 1.000439e-004:3 1.000440e-004:4 1.000440e-004:5 1.000439e-004:6 
#C 8.768000e-010 6
0.000000e+000:1 1.000440e-004:2 1.000439e-004:3 1.000440e-004:4 1.000440e-004:5 1.000439e-004:6 
#C 9.051535e-010 6
0.000000e+000:1 1.000440e-004:2 1.000439e-004:3 1.000440e-004:4 1.000440e-004:5 1.000439e-004:6 
#C 9.335070e-010 6
0.000000e+000:1 1.000440e-004:2 1.000439e-004:3 1.000440e-004:4 1.000440e-004:5 1.000439e-004:6 
#C 9.902140e-010 6
0.000000e+000:1 1.000440e-004:2 1.000439e-004:3 1.000440e-004:4 1.000440e-004:5 1.000439e-004:6 
#C 1.103628e-009 6
0.000000e+000:1 1.000440e-004:2 1.000439e-004:3 1.000440e-004:4 1.000440e-004:5 1.000439e-004:6 
#C 1.131981e-009 6
0.000000e+000:1 1.000440e-004:2 1.000439e-004:3 1.000440e-004:4 1.000440e-004:5 1.000439e-004:6 
#C 1.160335e-009 6
0.000000e+000:1 1.000440e-004:2 1.000439e-004:3 1.000440e-004:4 1.000440e-004:5 1.000439e-004:6 
#C 1.193749e-009 6
0.000000e+000:1 1.000440e-004:2 1.000439e-004:3 1.000440e-004:4 1.000440e-004:5 1.000439e-004:6 
#C 1.217042e-009 6
0.000000e+000:1 1.000440e-004:2 1.000439e-004:3 1.000440e-004:4 1.000440e-004:5 1.000439e-004:6 
#C 1.245395e-009 6
0.000000e+000:1 1.000440e-004:2 1.000439e-004:3 1.000440e-004:4 1.000440e-004:5 1.000439e-004:6 
#C 1.273749e-009 6
0.000000e+000:1 1.000440e-004:2 1.000439e-004:3 1.000440e-004:4 1.000440e-004:5 1.000439e-004:6 
#C 1.297042e-009 6
0.000000e+000:1 1.000440e-004:2 1.000439e-004:3 1.000440e-004:4 1.000440e-004:5 1.000439e-004:6 
#C 1.325395e-009 6
0.000000e+000:1 1.000440e-004:2 1.000439e-004:3 1.000440e-004:4 1.000440e-004:5 1.000439e-004:6 
#C 1.353749e-009 6
0.000000e+000:1 1.000440e-004:2 1.000439e-004:3 1.000440e-004:4 1.000440e-004:5 1.000439e-004:6 
#C 1.377042e-009 6
0.000000e+000:1 1.000440e-004:2 1.000439e-004:3 1.000440e-004:4 1.000440e-004:5 1.000439e-004:6 
#C 1.405395e-009 6
0.000000e+000:1 1.000440e-004:2 1.000439e-004:3 1.000440e-004:4 1.000440e-004:5 1.000439e-004:6 
#C 1.433749e-009 6
0.000000e+000:1 1.000440e-004:2 1.000439e-004:3 1.000440e-004:4 1.000440e-004:5 1.000439e-004:6 
#C 1.457042e-009 6
0.000000e+000:1 1.000440e-004:2 1.000439e-004:3 1.000440e-004:4 1.000440e-004:5 1.000439e-004:6 
#C 1.485395e-009 6
0.000000e+000:1 1.000440e-004:2 1.000439e-004:3 1.000440e-004:4 1.000440e-004:5 1.000439e-004:6 
#C 1.513749e-009 6
0.000000e+000:1 1.000440e-004:2 1.000439e-004:3 1.000440e-004:4 1.000440e-004:5 1.000439e-004:6 
#C 1.542102e-009 6
0.000000e+000:1 1.000440e-004:2 1.000439e-004:3 1.000440e-004:4 1.000440e-004:5 1.000439e-004:6 
#C 1.570456e-009 6
0.000000e+000:1 1.000440e-004:2 1.000439e-004:3 1.000440e-004:4 1.000440e-004:5 1.000439e-004:6 
#C 1.593749e-009 6
0.000000e+000:1 1.000440e-004:2 1.000439e-004:3 1.000440e-004:4 1.000440e-004:5 1.000439e-004:6 
#C 1.633265e-009 6
0.000000e+000:1 1.000440e-004:2 1.000439e-004:3 1.000440e-004:4 1.000440e-004:5 1.000439e-004:6 
#C 1.661619e-009 6
0.000000e+000:1 1.000440e-004:2 1.000439e-004:3 1.000440e-004:4 1.000440e-004:5 1.000439e-004:6 
#C 1.689972e-009 6
0.000000e+000:1 1.000440e-004:2 1.000439e-004:3 1.000440e-004:4 1.000440e-004:5 1.000439e-004:6 
#C 1.713265e-009 6
0.000000e+000:1 1.000440e-004:2 1.000439e-004:3 1.000440e-004:4 1.000440e-004:5 1.000439e-004:6 
#C 1.741619e-009 6
0.000000e+000:1 1.000440e-004:2 1.000439e-004:3 1.000440e-004:4 1.000440e-004:5 1.000439e-004:6 
#C 1.769972e-009 6
0.000000e+000:1 1.000440e-004:2 1.000439e-004:3 1.000440e-004:4 1.000440e-004:5 1.000439e-004:6 
#C 1.793265e-009 6
0.000000e+000:1 1.000440e-004:2 1.000439e-004:3 1.000440e-004:4 1.000440e-004:5 1.000439e-004:6 
#C 1.821619e-009 6
0.000000e+000:1 1.000440e-004:2 1.000439e-004:3 1.000440e-004:4 1.000440e-004:5 1.000439e-004:6 
#C 1.849972e-009 6
0.000000e+000:1 1.000440e-004:2 1.000439e-004:3 1.000440e-004:4 1.000440e-004:5 1.000439e-004:6 
#C 1.873265e-009 6
0.000000e+000:1 1.000440e-004:2 1.000439e-004:3 1.000440e-004:4 1.000440e-004:5 1.000439e-004:6 
#C 1.901619e-009 6
0.000000e+000:1 1.000440e-004:2 1.000439e-004:3 1.000440e-004:4 1.000440e-004:5 1.000439e-004:6 
#C 1.929972e-009 6
0.000000e+000:1 1.000440e-004:2 1.000439e-004:3 1.000440e-004:4 1.000440e-004:5 1.000439e-004:6 
#C 1.953265e-009 6
0.000000e+000:1 1.000440e-004:2 1.000439e-004:3 1.000440e-004:4 1.000440e-004:5 1.000439e-004:6 
#C 1.981619e-009 6
0.000000e+000:1 1.000440e-004:2 1.000439e-004:3 1.000440e-004:4 1.000440e-004:5 1.000439e-004:6 
#C 2.009972e-009 6
0.000000e+000:1 1.000440e-004:2 1.000439e-004:3 1.000440e-004:4 1.000440e-004:5 1.000439e-004:6 
#C 2.033265e-009 6
0.000000e+000:1 1.000440e-004:2 1.000439e-004:3 1.000440e-004:4 1.000440e-004:5 1.000439e-004:6 
#C 2.061619e-009 6
0.000000e+000:1 1.000440e-004:2 1.000439e-004:3 1.000440e-004:4 1.000440e-004:5 1.000439e-004:6 
#C 2.089972e-009 6
0.000000e+000:1 1.000440e-004:2 1.000439e-004:3 1.000440e-004:4 1.000440e-004:5 1.000439e-004:6 
#C 2.113265e-009 6
0.000000e+000:1 1.000440e-004:2 1.000439e-004:3 1.000440e-004:4 1.000440e-004:5 1.000439e-004:6 
#C 2.141618e-009 6
0.000000e+000:1 1.000440e-004:2 1.000439e-004:3 1.000440e-004:4 1.000440e-004:5 1.000439e-004:6 
#C 2.169972e-009 6
0.000000e+000:1 1.000440e-004:2 1.000439e-004:3 1.000440e-004:4 1.000440e-004:5 1.000439e-004:6 
#C 2.193265e-009 6
0.000000e+000:1 1.000440e-004:2 1.000439e-004:3 1.000440e-004:4 1.000440e-004:5 1.000439e-004:6 
#C 2.221618e-009 6
0.000000e+000:1 1.000440e-004:2 1.000439e-004:3 1.000440e-004:4 1.000440e-004:5 1.000439e-004:6 
#C 2.249972e-009 6
0.000000e+000:1 1.000440e-004:2 1.000439e-004:3 1.000440e-004:4 1.000440e-004:5 1.000439e-004:6 
#C 2.273265e-009 6
0.000000e+000:1 1.000440e-004:2 1.000439e-004:3 1.000440e-004:4 1.000440e-004:5 1.000439e-004:6 
#C 2.301618e-009 6
0.000000e+000:1 1.000440e-004:2 1.000439e-004:3 1.000440e-004:4 1.000440e-004:5 1.000439e-004:6 
#C 2.329972e-009 6
0.000000e+000:1 1.000440e-004:2 1.000439e-004:3 1.000440e-004:4 1.000440e-004:5 1.000439e-004:6 
#C 2.353265e-009 6
0.000000e+000:1 1.000440e-004:2 1.000439e-004:3 1.000440e-004:4 1.000440e-004:5 1.000439e-004:6 
#C 2.381618e-009 6
0.000000e+000:1 1.000440e-004:2 1.000439e-004:3 1.000440e-004:4 1.000440e-004:5 1.000439e-004:6 
#C 2.409972e-009 6
0.000000e+000:1 1.000440e-004:2 1.000439e-004:3 1.000440e-004:4 1.000440e-004:5 1.000439e-004:6 
#C 2.433265e-009 6
0.000000e+000:1 1.000440e-004:2 1.000439e-004:3 1.000440e-004:4 1.000440e-004:5 1.000439e-004:6 
#C 2.461618e-009 6
0.000000e+000:1 1.000440e-004:2 1.000439e-004:3 1.000440e-004:4 1.000440e-004:5 1.000439e-004:6 
#C 2.489972e-009 6
0.000000e+000:1 1.000440e-004:2 1.000439e-004:3 1.000440e-004:4 1.000440e-004:5 1.000439e-004:6 
#C 2.513265e-009 6
0.000000e+000:1 1.000440e-004:2 1.000439e-004:3 1.000440e-004:4 1.000440e-004:5 1.000439e-004:6 
#C 2.541618e-009 6
0.000000e+000:1 1.000440e-004:2 1.000439e-004:3 1.000440e-004:4 1.000440e-004:5 1.000439e-004:6 
#C 2.569972e-009 6
0.000000e+000:1 1.000440e-004:2 1.000439e-004:3 1.000440e-004:4 1.000440e-004:5 1.000439e-004:6 
#C 2.598325e-009 6
0.000000e+000:1 1.000440e-004:2 1.000439e-004:3 1.000440e-004:4 1.000440e-004:5 1.000439e-004:6 
#C 2.626679e-009 6
0.000000e+000:1 1.000440e-004:2 1.000439e-004:3 1.000440e-004:4 1.000440e-004:5 1.000439e-004:6 
#C 2.649972e-009 6
0.000000e+000:1 1.000440e-004:2 1.000439e-004:3 1.000440e-004:4 1.000440e-004:5 1.000439e-004:6 
#C 2.689488e-009 6
0.000000e+000:1 1.000440e-004:2 1.000439e-004:3 1.000440e-004:4 1.000440e-004:5 1.000439e-004:6 
#C 2.717842e-009 6
0.000000e+000:1 1.000440e-004:2 1.000439e-004:3 1.000440e-004:4 1.000440e-004:5 1.000439e-004:6 
#C 2.746195e-009 6
0.000000e+000:1 1.000440e-004:2 1.000439e-004:3 1.000440e-004:4 1.000440e-004:5 1.000439e-004:6 
#C 2.769488e-009 6
0.000000e+000:1 1.000440e-004:2 1.000439e-004:3 1.000440e-004:4 1.000440e-004:5 1.000439e-004:6 
#C 2.797842e-009 6
0.000000e+000:1 1.000440e-004:2 1.000439e-004:3 1.000440e-004:4 1.000440e-004:5 1.000439e-004:6 
#C 2.826195e-009 6
0.000000e+000:1 1.000440e-004:2 1.000439e-004:3 1.000440e-004:4 1.000440e-004:5 1.000439e-004:6 
#C 2.849488e-009 6
0.000000e+000:1 1.000440e-004:2 1.000439e-004:3 1.000440e-004:4 1.000440e-004:5 1.000439e-004:6 
#C 2.877842e-009 6
0.000000e+000:1 1.000440e-004:2 1.000439e-004:3 1.000440e-004:4 1.000440e-004:5 1.000439e-004:6 
#C 2.906195e-009 6
0.000000e+000:1 1.000440e-004:2 1.000439e-004:3 1.000440e-004:4 1.000440e-004:5 1.000439e-004:6 
#C 2.929488e-009 6
0.000000e+000:1 1.000440e-004:2 1.000439e-004:3 1.000440e-004:4 1.000440e-004:5 1.000439e-004:6 
#C 2.957842e-009 6
0.000000e+000:1 1.000440e-004:2 1.000439e-004:3 1.000440e-004:4 1.000440e-004:5 1.000439e-004:6 
#C 2.986195e-009 6
0.000000e+000:1 1.000440e-004:2 1.000439e-004:3 1.000440e-004:4 1.000440e-004:5 1.000439e-004:6 
#C 3.009488e-009 6
0.000000e+000:1 1.000440e-004:2 1.000439e-004:3 1.000440e-004:4 1.000440e-004:5 1.000439e-004:6 
#C 3.037842e-009 6
0.000000e+000:1 1.000440e-004:2 1.000439e-004:3 1.000440e-004:4 1.000440e-004:5 1.000439e-004:6 
#C 3.066195e-009 6
0.000000e+000:1 1.000440e-004:2 1.000439e-004:3 1.000440e-004:4 1.000440e-004:5 1.000439e-004:6 
#C 3.089488e-009 6
0.000000e+000:1 1.000440e-004:2 1.000439e-004:3 1.000440e-004:4 1.000440e-004:5 1.000439e-004:6 
#C 3.117842e-009 6
0.000000e+000:1 1.000440e-004:2 1.000439e-004:3 1.000440e-004:4 1.000440e-004:5 1.000439e-004:6 
#C 3.146195e-009 6
0.000000e+000:1 1.000440e-004:2 1.000439e-004:3 1.000440e-004:4 1.000440e-004:5 1.000439e-004:6 
#C 3.169488e-009 6
0.000000e+000:1 1.000440e-004:2 1.000439e-004:3 1.000440e-004:4 1.000440e-004:5 1.000439e-004:6 
#C 3.197842e-009 6
0.000000e+000:1 1.000440e-004:2 1.000439e-004:3 1.000440e-004:4 1.000440e-004:5 1.000439e-004:6 
#C 3.226195e-009 6
0.000000e+000:1 1.000440e-004:2 1.000439e-004:3 1.000440e-004:4 1.000440e-004:5 1.000439e-004:6 
#C 3.249488e-009 6
0.000000e+000:1 1.000440e-004:2 1.000439e-004:3 1.000440e-004:4 1.000440e-004:5 1.000439e-004:6 
#C 3.277842e-009 6
0.000000e+000:1 1.000440e-004:2 1.000439e-004:3 1.000440e-004:4 1.000440e-004:5 1.000439e-004:6 
#C 3.306195e-009 6
0.000000e+000:1 1.000440e-004:2 1.000439e-004:3 1.000440e-004:4 1.000440e-004:5 1.000439e-004:6 
#C 3.329488e-009 6
0.000000e+000:1 1.000440e-004:2 1.000439e-004:3 1.000440e-004:4 1.000440e-004:5 1.000439e-004:6 
#C 3.357842e-009 6
0.000000e+000:1 1.000440e-004:2 1.000439e-004:3 1.000440e-004:4 1.000440e-004:5 1.000439e-004:6 
#C 3.386195e-009 6
0.000000e+000:1 1.000440e-004:2 1.000439e-004:3 1.000440e-004:4 1.000440e-004:5 1.000439e-004:6 
#C 3.409488e-009 6
0.000000e+000:1 1.000440e-004:2 1.000439e-004:3 1.000440e-004:4 1.000440e-004:5 1.000439e-004:6 
#C 3.437842e-009 6
0.000000e+000:1 1.000440e-004:2 1.000439e-004:3 1.000440e-004:4 1.000440e-004:5 1.000439e-004:6 
#C 3.466195e-009 6
0.000000e+000:1 1.000440e-004:2 1.000439e-004:3 1.000440e-004:4 1.000440e-004:5 1.000439e-004:6 
#C 3.499609e-009 6
0.000000e+000:1 1.000440e-004:2 1.000439e-004:3 1.000440e-004:4 1.000440e-004:5 1.000439e-004:6 
#C 3.533023e-009 6
0.000000e+000:1 1.000440e-004:2 1.000439e-004:3 1.000440e-004:4 1.000440e-004:5 1.000439e-004:6 
#C 3.560335e-009 6
0.000000e+000:1 1.000440e-004:2 1.000439e-004:3 1.000440e-004:4 1.000440e-004:5 1.000439e-004:6 
#C 3.585711e-009 6
0.000000e+000:1 1.000440e-004:2 1.000439e-004:3 1.000440e-004:4 1.000440e-004:5 1.000439e-004:6 
#C 3.622701e-009 6
0.000000e+000:1 1.000440e-004:2 1.000439e-004:3 1.000440e-004:4 1.000440e-004:5 1.000439e-004:6 
#C 3.659690e-009 6
0.000000e+000:1 1.000440e-004:2 1.000439e-004:3 1.000440e-004:4 1.000440e-004:5 1.000439e-004:6 
#C 3.680764e-009 6
0.000000e+000:1 1.000440e-004:2 1.000439e-004:3 1.000440e-004:4 1.000440e-004:5 1.000439e-004:6 
#C 3.704848e-009 6
0.000000e+000:1 1.000440e-004:2 1.000439e-004:3 1.000440e-004:4 1.000440e-004:5 1.000439e-004:6 
#C 3.737523e-009 6
0.000000e+000:1 1.000440e-004:2 1.000439e-004:3 1.000440e-004:4 1.000440e-004:5 1.000439e-004:6 
#C 3.759499e-009 6
0.000000e+000:1 1.000440e-004:2 1.000439e-004:3 1.000440e-004:4 1.000440e-004:5 1.000439e-004:6 
#C 3.784848e-009 6
0.000000e+000:1 1.000440e-004:2 1.000439e-004:3 1.000440e-004:4 1.000440e-004:5 1.000439e-004:6 
#C 3.813202e-009 6
0.000000e+000:1 1.000440e-004:2 1.000439e-004:3 1.000440e-004:4 1.000440e-004:5 1.000439e-004:6 
#C 3.841555e-009 6
0.000000e+000:1 1.000440e-004:2 1.000439e-004:3 1.000440e-004:4 1.000440e-004:5 1.000439e-004:6 
#C 3.864848e-009 6
0.000000e+000:1 1.000440e-004:2 1.000439e-004:3 1.000440e-004:4 1.000440e-004:5 1.000439e-004:6 
#C 3.904364e-009 6
0.000000e+000:1 1.000440e-004:2 1.000439e-004:3 1.000440e-004:4 1.000440e-004:5 1.000439e-004:6 
#C 3.932718e-009 6
0.000000e+000:1 1.000440e-004:2 1.000439e-004:3 1.000440e-004:4 1.000440e-004:5 1.000439e-004:6 
#C 3.961071e-009 6
0.000000e+000:1 1.000440e-004:2 1.000439e-004:3 1.000440e-004:4 1.000440e-004:5 1.000439e-004:6 
#C 3.984364e-009 6
0.000000e+000:1 1.000440e-004:2 1.000439e-004:3 1.000440e-004:4 1.000440e-004:5 1.000439e-004:6 
#C 4.012718e-009 6
0.000000e+000:1 1.000440e-004:2 1.000439e-004:3 1.000440e-004:4 1.000440e-004:5 1.000439e-004:6 
#C 4.041071e-009 6
0.000000e+000:1 1.000440e-004:2 1.000439e-004:3 1.000440e-004:4 1.000440e-004:5 1.000439e-004:6 
#C 4.064364e-009 6
0.000000e+000:1 1.000440e-004:2 1.000439e-004:3 1.000440e-004:4 1.000440e-004:5 1.000439e-004:6 
#C 4.092718e-009 6
0.000000e+000:1 1.000440e-004:2 1.000439e-004:3 1.000440e-004:4 1.000440e-004:5 1.000439e-004:6 
#C 4.121071e-009 6
0.000000e+000:1 1.000440e-004:2 1.000439e-004:3 1.000440e-004:4 1.000440e-004:5 1.000439e-004:6 
#C 4.144364e-009 6
0.000000e+000:1 1.000440e-004:2 1.000439e-004:3 1.000440e-004:4 1.000440e-004:5 1.000439e-004:6 
#C 4.172718e-009 6
0.000000e+000:1 1.000440e-004:2 1.000439e-004:3 1.000440e-004:4 1.000440e-004:5 1.000439e-004:6 
#C 4.201071e-009 6
0.000000e+000:1 1.000440e-004:2 1.000439e-004:3 1.000440e-004:4 1.000440e-004:5 1.000439e-004:6 
#C 4.224364e-009 6
0.000000e+000:1 1.000440e-004:2 1.000439e-004:3 1.000440e-004:4 1.000440e-004:5 1.000439e-004:6 
#C 4.252718e-009 6
0.000000e+000:1 1.000440e-004:2 1.000439e-004:3 1.000440e-004:4 1.000440e-004:5 1.000439e-004:6 
#C 4.281071e-009 6
0.000000e+000:1 1.000440e-004:2 1.000439e-004:3 1.000440e-004:4 1.000440e-004:5 1.000439e-004:6 
#C 4.304364e-009 6
0.000000e+000:1 1.000440e-004:2 1.000439e-004:3 1.000440e-004:4 1.000440e-004:5 1.000439e-004:6 
#C 4.331192e-009 6
0.000000e+000:1 1.000440e-004:2 1.000439e-004:3 1.000440e-004:4 1.000440e-004:5 1.000439e-004:6 
#C 4.357536e-009 6
0.000000e+000:1 1.000440e-004:2 1.000439e-004:3 1.000440e-004:4 1.000440e-004:5 1.000439e-004:6 
#C 4.386784e-009 6
0.000000e+000:1 1.000440e-004:2 1.000439e-004:3 1.000440e-004:4 1.000440e-004:5 1.000439e-004:6 
#C 4.416031e-009 6
0.000000e+000:1 1.000440e-004:2 1.000439e-004:3 1.000440e-004:4 1.000440e-004:5 1.000439e-004:6 
#C 4.453021e-009 6
0.000000e+000:1 1.000440e-004:2 1.000439e-004:3 1.000440e-004:4 1.000440e-004:5 1.000439e-004:6 
#C 4.490010e-009 6
0.000000e+000:1 1.000440e-004:2 1.000439e-004:3 1.000440e-004:4 1.000440e-004:5 1.000439e-004:6 
#C 4.511515e-009 6
0.000000e+000:1 1.000440e-004:2 1.000439e-004:3 1.000440e-004:4 1.000440e-004:5 1.000439e-004:6 
#C 4.539869e-009 6
0.000000e+000:1 1.000440e-004:2 1.000439e-004:3 1.000440e-004:4 1.000440e-004:5 1.000439e-004:6 
#C 4.568222e-009 6
0.000000e+000:1 1.000440e-004:2 1.000439e-004:3 1.000440e-004:4 1.000440e-004:5 1.000439e-004:6 
#C 4.601636e-009 6
0.000000e+000:1 1.000440e-004:2 1.000439e-004:3 1.000440e-004:4 1.000440e-004:5 1.000439e-004:6 
#C 4.635050e-009 6
0.000000e+000:1 1.000440e-004:2 1.000439e-004:3 1.000440e-004:4 1.000440e-004:5 1.000439e-004:6 
#C 4.685171e-009 6
0.000000e+000:1 1.000440e-004:2 1.000439e-004:3 1.000440e-004:4 1.000440e-004:5 1.000439e-004:6 
#C 4.751999e-009 6
0.000000e+000:1 1.000440e-004:2 1.000439e-004:3 1.000440e-004:4 1.000440e-004:5 1.000439e-004:6 
#C 4.780353e-009 6
0.000000e+000:1 1.000440e-004:2 1.000439e-004:3 1.000440e-004:4 1.000440e-004:5 1.000439e-004:6 
#C 4.820353e-009 6
0.000000e+000:1 1.000440e-004:2 1.000439e-004:3 1.000440e-004:4 1.000440e-004:5 1.000439e-004:6 
#C 4.871999e-009 6
0.000000e+000:1 1.000440e-004:2 1.000439e-004:3 1.000440e-004:4 1.000440e-004:5 1.000439e-004:6 
#C 4.900353e-009 6
0.000000e+000:1 1.000440e-004:2 1.000439e-004:3 1.000440e-004:4 1.000440e-004:5 1.000439e-004:6 
#C 4.940353e-009 6
0.000000e+000:1 1.000440e-004:2 1.000439e-004:3 1.000440e-004:4 1.000440e-004:5 1.000439e-004:6 
#C 4.991999e-009 6
0.000000e+000:1 1.000440e-004:2 1.000439e-004:3 1.000440e-004:4 1.000440e-004:5 1.000439e-004:6 
#C 5.020353e-009 6
0.000000e+000:1 1.000440e-004:2 1.000439e-004:3 1.000440e-004:4 1.000440e-004:5 1.000439e-004:6 
#C 5.060353e-009 6
0.000000e+000:1 1.000440e-004:2 1.000439e-004:3 1.000440e-004:4 1.000440e-004:5 1.000439e-004:6 
#C 5.111999e-009 6
0.000000e+000:1 1.000440e-004:2 1.000439e-004:3 1.000440e-004:4 1.000440e-004:5 1.000439e-004:6 
#C 5.140353e-009 6
0.000000e+000:1 1.000440e-004:2 1.000439e-004:3 1.000440e-004:4 1.000440e-004:5 1.000439e-004:6 
#C 5.180353e-009 6
0.000000e+000:1 1.000440e-004:2 1.000439e-004:3 1.000440e-004:4 1.000440e-004:5 1.000439e-004:6 
#C 5.231999e-009 6
0.000000e+000:1 1.000440e-004:2 1.000439e-004:3 1.000440e-004:4 1.000440e-004:5 1.000439e-004:6 
#C 5.260353e-009 6
0.000000e+000:1 1.000440e-004:2 1.000439e-004:3 1.000440e-004:4 1.000440e-004:5 1.000439e-004:6 
#C 5.300353e-009 6
0.000000e+000:1 1.000440e-004:2 1.000439e-004:3 1.000440e-004:4 1.000440e-004:5 1.000439e-004:6 
#C 5.351999e-009 6
0.000000e+000:1 1.000440e-004:2 1.000439e-004:3 1.000440e-004:4 1.000440e-004:5 1.000439e-004:6 
#C 5.380353e-009 6
0.000000e+000:1 1.000440e-004:2 1.000439e-004:3 1.000440e-004:4 1.000440e-004:5 1.000439e-004:6 
#C 5.420353e-009 6
0.000000e+000:1 1.000440e-004:2 1.000439e-004:3 1.000440e-004:4 1.000440e-004:5 1.000439e-004:6 
#C 5.471999e-009 6
0.000000e+000:1 1.000440e-004:2 1.000439e-004:3 1.000440e-004:4 1.000440e-004:5 1.000439e-004:6 
#C 5.500353e-009 6
0.000000e+000:1 1.000440e-004:2 1.000439e-004:3 1.000440e-004:4 1.000440e-004:5 1.000439e-004:6 
#C 5.540353e-009 6
0.000000e+000:1 1.000440e-004:2 1.000439e-004:3 1.000440e-004:4 1.000440e-004:5 1.000439e-004:6 
#C 5.591999e-009 6
0.000000e+000:1 1.000440e-004:2 1.000439e-004:3 1.000440e-004:4 1.000440e-004:5 1.000439e-004:6 
#C 5.620353e-009 6
0.000000e+000:1 1.000440e-004:2 1.000439e-004:3 1.000440e-004:4 1.000440e-004:5 1.000439e-004:6 
#C 5.660353e-009 6
0.000000e+000:1 1.000440e-004:2 1.000439e-004:3 1.000440e-004:4 1.000440e-004:5 1.000439e-004:6 
#C 5.711999e-009 6
