#H
SOURCE='IsSpice4'	VERSION='ver. 8.11-SI-1.0.3   10/6/2010'
TITLE='* Thu Oct 01 20:45:45 2015, Generated by: 010328058, Server: None, Windows, INSTALLED_SOFTWARE_VERSION: 2015.07 Build 6, Engine: 2015.07rc1, GUI: 2015.07rc1'
SUBTITLE='pc'
TIME='20:45:48' DATE='Oct 01, 2015' TEMPERATURE='298.15'
ANALYSIS='Trans'	SERIALNO='01234567'
ALLVALUES='NO' COMPLEXVALUES='NO' NODES='6'
SWEEPVAR='time' SWEEPMODE='VAR_STEP' DGTLDATA='NO'
XBEGIN='0.000000e+000' XEND='7.900000e-008'
FORMAT='0 VOLTSorAMPS;EFLOAT : NODEorBRANCH;NODE'
#N
'V(v_stimulus)'
'V(designator1_pad)'
'V(designator2_pad)'
'V(designator1_pin)'
'V(designator2_pin)'
'V(designator2_z)'
#U
'Volts'
'Volts'
'Volts'
'Volts'
'Volts'
'Volts'
#C 0.000000e+000 6
0.000000e+000:1 8.455034e-003:2 8.455034e-003:3 8.455034e-003:4 8.455034e-003:5 0.000000e+000:6 
#C 2.560000e-011 6
0.000000e+000:1 8.455034e-003:2 8.455034e-003:3 8.455034e-003:4 8.455034e-003:5 0.000000e+000:6 
#C 5.440000e-011 6
0.000000e+000:1 8.455034e-003:2 8.455034e-003:3 8.455034e-003:4 8.455034e-003:5 0.000000e+000:6 
#C 8.320000e-011 6
0.000000e+000:1 8.455034e-003:2 8.455034e-003:3 8.455034e-003:4 8.455034e-003:5 0.000000e+000:6 
#C 1.088000e-010 6
0.000000e+000:1 8.455034e-003:2 8.455034e-003:3 8.455034e-003:4 8.455034e-003:5 0.000000e+000:6 
#C 1.600000e-010 6
0.000000e+000:1 8.455034e-003:2 8.455034e-003:3 8.455034e-003:4 8.455034e-003:5 0.000000e+000:6 
#C 2.600000e-010 6
0.000000e+000:1 8.455034e-003:2 8.455034e-003:3 8.455034e-003:4 8.455034e-003:5 0.000000e+000:6 
#C 3.600000e-010 6
0.000000e+000:1 8.455034e-003:2 8.455034e-003:3 8.455034e-003:4 8.455034e-003:5 0.000000e+000:6 
#C 4.600000e-010 6
0.000000e+000:1 8.455034e-003:2 8.455034e-003:3 8.455034e-003:4 8.455034e-003:5 0.000000e+000:6 
#C 5.600000e-010 6
0.000000e+000:1 8.455034e-003:2 8.455034e-003:3 8.455034e-003:4 8.455034e-003:5 0.000000e+000:6 
#C 6.600000e-010 6
0.000000e+000:1 8.455034e-003:2 8.455034e-003:3 8.455034e-003:4 8.455034e-003:5 0.000000e+000:6 
#C 7.600000e-010 6
0.000000e+000:1 8.455034e-003:2 8.455034e-003:3 8.455034e-003:4 8.455034e-003:5 0.000000e+000:6 
#C 8.600000e-010 6
0.000000e+000:1 8.455034e-003:2 8.455034e-003:3 8.455034e-003:4 8.455034e-003:5 0.000000e+000:6 
#C 9.600000e-010 6
0.000000e+000:1 8.455034e-003:2 8.455034e-003:3 8.455034e-003:4 8.455034e-003:5 0.000000e+000:6 
#C 9.865080e-010 6
0.000000e+000:1 8.455034e-003:2 8.455034e-003:3 8.455034e-003:4 8.455034e-003:5 0.000000e+000:6 
#C 1.013016e-009 6
0.000000e+000:1 8.455034e-003:2 8.455034e-003:3 8.455034e-003:4 8.455034e-003:5 0.000000e+000:6 
#C 1.040952e-009 6
0.000000e+000:1 8.455034e-003:2 8.455034e-003:3 8.455034e-003:4 8.455034e-003:5 0.000000e+000:6 
#C 1.068888e-009 6
0.000000e+000:1 8.455034e-003:2 8.455034e-003:3 8.455034e-003:4 8.455034e-003:5 0.000000e+000:6 
#C 1.093016e-009 6
0.000000e+000:1 8.455034e-003:2 8.455034e-003:3 8.455034e-003:4 8.455034e-003:5 0.000000e+000:6 
#C 1.126040e-009 6
0.000000e+000:1 8.455034e-003:2 8.455034e-003:3 8.455034e-003:4 8.455034e-003:5 0.000000e+000:6 
#C 1.146968e-009 6
0.000000e+000:1 8.455034e-003:2 8.455034e-003:3 8.455034e-003:4 8.455034e-003:5 0.000000e+000:6 
#C 1.174871e-009 6
0.000000e+000:1 8.455034e-003:2 8.455034e-003:3 8.455034e-003:4 8.455034e-003:5 0.000000e+000:6 
#C 1.206484e-009 6
0.000000e+000:1 8.455034e-003:2 8.455034e-003:3 8.455034e-003:4 8.455034e-003:5 0.000000e+000:6 
#C 1.230678e-009 6
0.000000e+000:1 8.455034e-003:2 8.455034e-003:3 8.455034e-003:4 8.455034e-003:5 0.000000e+000:6 
#C 1.257186e-009 6
0.000000e+000:1 8.455034e-003:2 8.455034e-003:3 8.455034e-003:4 8.455034e-003:5 0.000000e+000:6 
#C 1.283694e-009 6
0.000000e+000:1 8.455034e-003:2 8.455034e-003:3 8.455034e-003:4 8.455034e-003:5 0.000000e+000:6 
#C 1.309726e-009 6
0.000000e+000:1 8.455034e-003:2 8.455034e-003:3 8.455034e-003:4 8.455034e-003:5 0.000000e+000:6 
#C 1.336234e-009 6
0.000000e+000:1 8.455034e-003:2 8.455034e-003:3 8.455034e-003:4 8.455034e-003:5 0.000000e+000:6 
#C 1.362742e-009 6
0.000000e+000:1 8.455034e-003:2 8.455034e-003:3 8.455034e-003:4 8.455034e-003:5 0.000000e+000:6 
#C 1.388774e-009 6
0.000000e+000:1 8.455034e-003:2 8.455034e-003:3 8.455034e-003:4 8.455034e-003:5 0.000000e+000:6 
#C 1.420518e-009 6
0.000000e+000:1 8.455034e-003:2 8.455034e-003:3 8.455034e-003:4 8.455034e-003:5 0.000000e+000:6 
#C 1.444646e-009 6
0.000000e+000:1 8.455034e-003:2 8.455034e-003:3 8.455034e-003:4 8.455034e-003:5 0.000000e+000:6 
#C 1.468134e-009 6
0.000000e+000:1 8.455034e-003:2 8.455034e-003:3 8.455034e-003:4 8.455034e-003:5 0.000000e+000:6 
#C 1.496037e-009 6
0.000000e+000:1 8.455034e-003:2 8.455034e-003:3 8.455034e-003:4 8.455034e-003:5 0.000000e+000:6 
#C 1.522085e-009 6
0.000000e+000:1 8.455034e-003:2 8.455034e-003:3 8.455034e-003:4 8.455034e-003:5 0.000000e+000:6 
#C 1.553699e-009 6
0.000000e+000:1 8.455034e-003:2 8.455034e-003:3 8.455034e-003:4 8.455034e-003:5 0.000000e+000:6 
#C 1.578859e-009 6
0.000000e+000:1 8.455034e-003:2 8.455034e-003:3 8.455034e-003:4 8.455034e-003:5 0.000000e+000:6 
#C 1.612405e-009 6
0.000000e+000:1 8.455034e-003:2 8.455034e-003:3 8.455034e-003:4 8.455034e-003:5 0.000000e+000:6 
#C 1.635632e-009 6
0.000000e+000:1 8.455034e-003:2 8.455034e-003:3 8.455034e-003:4 8.455034e-003:5 0.000000e+000:6 
#C 1.662140e-009 6
0.000000e+000:1 8.455034e-003:2 8.455034e-003:3 8.455034e-003:4 8.455034e-003:5 0.000000e+000:6 
#C 1.688648e-009 6
0.000000e+000:1 8.455034e-003:2 8.455034e-003:3 8.455034e-003:4 8.455034e-003:5 0.000000e+000:6 
#C 1.716584e-009 6
0.000000e+000:1 8.455034e-003:2 8.455034e-003:3 8.455034e-003:4 8.455034e-003:5 0.000000e+000:6 
#C 1.744520e-009 6
0.000000e+000:1 8.455034e-003:2 8.455034e-003:3 8.455034e-003:4 8.455034e-003:5 0.000000e+000:6 
#C 1.776264e-009 6
0.000000e+000:1 8.455034e-003:2 8.455034e-003:3 8.455034e-003:4 8.455034e-003:5 0.000000e+000:6 
#C 1.800392e-009 6
0.000000e+000:1 8.455034e-003:2 8.455034e-003:3 8.455034e-003:4 8.455034e-003:5 0.000000e+000:6 
#C 1.826900e-009 6
0.000000e+000:1 8.455034e-003:2 8.455034e-003:3 8.455034e-003:4 8.455034e-003:5 0.000000e+000:6 
#C 1.853408e-009 6
0.000000e+000:1 8.455034e-003:2 8.455034e-003:3 8.455034e-003:4 8.455034e-003:5 0.000000e+000:6 
#C 1.879440e-009 6
0.000000e+000:1 8.455034e-003:2 8.455034e-003:3 8.455034e-003:4 8.455034e-003:5 0.000000e+000:6 
#C 1.905948e-009 6
0.000000e+000:1 8.455034e-003:2 8.455034e-003:3 8.455034e-003:4 8.455034e-003:5 0.000000e+000:6 
#C 1.932456e-009 6
0.000000e+000:1 8.455034e-003:2 8.455034e-003:3 8.455034e-003:4 8.455034e-003:5 0.000000e+000:6 
#C 1.960392e-009 6
0.000000e+000:1 8.455034e-003:2 8.455034e-003:3 8.455034e-003:4 8.455034e-003:5 0.000000e+000:6 
#C 1.988328e-009 6
0.000000e+000:1 8.455034e-003:2 8.455034e-003:3 8.455034e-003:4 8.455034e-003:5 0.000000e+000:6 
#C 2.020072e-009 6
0.000000e+000:1 8.455034e-003:2 8.455034e-003:3 8.455034e-003:4 8.455034e-003:5 0.000000e+000:6 
#C 2.044200e-009 6
0.000000e+000:1 8.455034e-003:2 8.455034e-003:3 8.455034e-003:4 8.455034e-003:5 0.000000e+000:6 
#C 2.070708e-009 6
0.000000e+000:1 8.455034e-003:2 8.455034e-003:3 8.455034e-003:4 8.455034e-003:5 0.000000e+000:6 
#C 2.097216e-009 6
0.000000e+000:1 8.455034e-003:2 8.455034e-003:3 8.455034e-003:4 8.455034e-003:5 0.000000e+000:6 
#C 2.123248e-009 6
0.000000e+000:1 8.455034e-003:2 8.455034e-003:3 8.455034e-003:4 8.455034e-003:5 0.000000e+000:6 
#C 2.149756e-009 6
0.000000e+000:1 8.455034e-003:2 8.455034e-003:3 8.455034e-003:4 8.455034e-003:5 0.000000e+000:6 
#C 2.176264e-009 6
0.000000e+000:1 8.455034e-003:2 8.455034e-003:3 8.455034e-003:4 8.455034e-003:5 0.000000e+000:6 
#C 2.204200e-009 6
0.000000e+000:1 8.455034e-003:2 8.455034e-003:3 8.455034e-003:4 8.455034e-003:5 0.000000e+000:6 
#C 2.232136e-009 6
0.000000e+000:1 8.455034e-003:2 8.455034e-003:3 8.455034e-003:4 8.455034e-003:5 0.000000e+000:6 
#C 2.263880e-009 6
0.000000e+000:1 8.455034e-003:2 8.455034e-003:3 8.455034e-003:4 8.455034e-003:5 0.000000e+000:6 
#C 2.288008e-009 6
0.000000e+000:1 8.455034e-003:2 8.455034e-003:3 8.455034e-003:4 8.455034e-003:5 0.000000e+000:6 
#C 2.314516e-009 6
0.000000e+000:1 8.455034e-003:2 8.455034e-003:3 8.455034e-003:4 8.455034e-003:5 0.000000e+000:6 
#C 2.341500e-009 6
0.000000e+000:1 8.455034e-003:2 8.455034e-003:3 8.455034e-003:4 8.455034e-003:5 0.000000e+000:6 
#C 2.368008e-009 6
0.000000e+000:1 8.455034e-003:2 8.455034e-003:3 8.455034e-003:4 8.455034e-003:5 0.000000e+000:6 
#C 2.394516e-009 6
0.000000e+000:1 8.455034e-003:2 8.455034e-003:3 8.455034e-003:4 8.455034e-003:5 0.000000e+000:6 
#C 2.421024e-009 6
0.000000e+000:1 8.455034e-003:2 8.455034e-003:3 8.455034e-003:4 8.455034e-003:5 0.000000e+000:6 
#C 2.448960e-009 6
0.000000e+000:1 8.455034e-003:2 8.455034e-003:3 8.455034e-003:4 8.455034e-003:5 0.000000e+000:6 
#C 2.485152e-009 6
0.000000e+000:1 8.455034e-003:2 8.455034e-003:3 8.455034e-003:4 8.455034e-003:5 0.000000e+000:6 
#C 2.511660e-009 6
0.000000e+000:1 8.455034e-003:2 8.455034e-003:3 8.455034e-003:4 8.455034e-003:5 0.000000e+000:6 
#C 2.538168e-009 6
0.000000e+000:1 8.455034e-003:2 8.455034e-003:3 8.455034e-003:4 8.455034e-003:5 0.000000e+000:6 
#C 2.566104e-009 6
0.000000e+000:1 8.455034e-003:2 8.455034e-003:3 8.455034e-003:4 8.455034e-003:5 0.000000e+000:6 
#C 2.594040e-009 6
0.000000e+000:1 8.455034e-003:2 8.455034e-003:3 8.455034e-003:4 8.455034e-003:5 0.000000e+000:6 
#C 2.625784e-009 6
0.000000e+000:1 8.455034e-003:2 8.455034e-003:3 8.455034e-003:4 8.455034e-003:5 0.000000e+000:6 
#C 2.657528e-009 6
0.000000e+000:1 8.455034e-003:2 8.455034e-003:3 8.455034e-003:4 8.455034e-003:5 0.000000e+000:6 
#C 2.721016e-009 6
0.000000e+000:1 8.455034e-003:2 8.455034e-003:3 8.455034e-003:4 8.455034e-003:5 0.000000e+000:6 
#C 2.747524e-009 6
0.000000e+000:1 8.455034e-003:2 8.455034e-003:3 8.455034e-003:4 8.455034e-003:5 0.000000e+000:6 
#C 2.774032e-009 6
0.000000e+000:1 8.455034e-003:2 8.455034e-003:3 8.455034e-003:4 8.455034e-003:5 0.000000e+000:6 
#C 2.800064e-009 6
0.000000e+000:1 8.455034e-003:2 8.455034e-003:3 8.455034e-003:4 8.455034e-003:5 0.000000e+000:6 
#C 2.826572e-009 6
0.000000e+000:1 8.455034e-003:2 8.455034e-003:3 8.455034e-003:4 8.455034e-003:5 0.000000e+000:6 
#C 2.853556e-009 6
0.000000e+000:1 8.455034e-003:2 8.455034e-003:3 8.455034e-003:4 8.455034e-003:5 0.000000e+000:6 
#C 2.880064e-009 6
0.000000e+000:1 8.455034e-003:2 8.455034e-003:3 8.455034e-003:4 8.455034e-003:5 0.000000e+000:6 
#C 2.906572e-009 6
0.000000e+000:1 8.455034e-003:2 8.455034e-003:3 8.455034e-003:4 8.455034e-003:5 0.000000e+000:6 
#C 2.933080e-009 6
0.000000e+000:1 8.455034e-003:2 8.455034e-003:3 8.455034e-003:4 8.455034e-003:5 0.000000e+000:6 
#C 2.959112e-009 6
0.000000e+000:1 8.455034e-003:2 8.455034e-003:3 8.455034e-003:4 8.455034e-003:5 0.000000e+000:6 
#C 2.985620e-009 6
0.000000e+000:1 8.455034e-003:2 8.455034e-003:3 8.455034e-003:4 8.455034e-003:5 0.000000e+000:6 
#C 3.007952e-009 6
7.952400e-002:1 8.455034e-003:2 8.455034e-003:3 8.455034e-003:4 8.455034e-003:5 0.000000e+000:6 
#C 3.039762e-009 6
3.976200e-001:1 8.455034e-003:2 8.455034e-003:3 8.455034e-003:4 8.455034e-003:5 0.000000e+000:6 
#C 3.061128e-009 6
6.195506e-001:1 7.738446e-002:2 8.455034e-003:3 1.154991e-002:4 8.455034e-003:5 0.000000e+000:6 
#C 3.085704e-009 6
8.600817e-001:1 2.159368e-001:2 8.455034e-003:3 6.806569e-002:4 8.455034e-003:5 0.000000e+000:6 
#C 3.107085e-009 6
1.000000e+000:1 3.244530e-001:2 8.455034e-003:3 1.682826e-001:4 8.455034e-003:5 0.000000e+000:6 
#C 3.135424e-009 6
1.000000e+000:1 4.569834e-001:2 8.455034e-003:3 3.214420e-001:4 8.455034e-003:5 0.000000e+000:6 
#C 3.173210e-009 6
1.000000e+000:1 6.248465e-001:2 8.455034e-003:3 5.082257e-001:4 8.455034e-003:5 0.000000e+000:6 
#C 3.248781e-009 6
1.000000e+000:1 9.528277e-001:2 8.455034e-003:3 8.373098e-001:4 8.455034e-003:5 0.000000e+000:6 
#C 3.275289e-009 6
1.000000e+000:1 1.067557e+000:2 8.455034e-003:3 9.493123e-001:4 8.455034e-003:5 0.000000e+000:6 
#C 3.301797e-009 6
1.000000e+000:1 1.184586e+000:2 8.455034e-003:3 1.064251e+000:4 8.455034e-003:5 0.000000e+000:6 
#C 3.354813e-009 6
1.000000e+000:1 1.420928e+000:2 8.455034e-003:3 1.298869e+000:4 8.455034e-003:5 0.000000e+000:6 
#C 3.454813e-009 6
1.000000e+000:1 1.869369e+000:2 8.455034e-003:3 1.746860e+000:4 8.455034e-003:5 0.000000e+000:6 
#C 3.481321e-009 6
1.000000e+000:1 1.989088e+000:2 8.455034e-003:3 1.865948e+000:4 8.455034e-003:5 0.000000e+000:6 
#C 3.507829e-009 6
1.000000e+000:1 2.107847e+000:2 8.455034e-003:3 1.985201e+000:4 8.455034e-003:5 0.000000e+000:6 
#C 3.535765e-009 6
1.000000e+000:1 2.232368e+000:2 8.455034e-003:3 2.110440e+000:4 8.455034e-003:5 0.000000e+000:6 
#C 3.563701e-009 6
1.000000e+000:1 2.356304e+000:2 8.455034e-003:3 2.234942e+000:4 8.455034e-003:5 0.000000e+000:6 
#C 3.587829e-009 6
1.000000e+000:1 2.462981e+000:2 8.455034e-003:3 2.341929e+000:4 8.455034e-003:5 0.000000e+000:6 
#C 3.620853e-009 6
1.000000e+000:1 2.605752e+000:2 8.455034e-003:3 2.487551e+000:4 8.455034e-003:5 0.000000e+000:6 
#C 3.641780e-009 6
1.000000e+000:1 2.634360e+000:2 8.455034e-003:3 2.571799e+000:4 8.455034e-003:5 0.000000e+000:6 
#C 3.669684e-009 6
1.000000e+000:1 2.638502e+000:2 8.455034e-003:3 2.635093e+000:4 8.455034e-003:5 0.000000e+000:6 
#C 3.701297e-009 6
1.000000e+000:1 2.641205e+000:2 8.455034e-003:3 2.646791e+000:4 8.455034e-003:5 0.000000e+000:6 
#C 3.725491e-009 6
1.000000e+000:1 2.643099e+000:2 8.455034e-003:3 2.643349e+000:4 8.455034e-003:5 0.000000e+000:6 
#C 3.751999e-009 6
1.000000e+000:1 2.644805e+000:2 8.455034e-003:3 2.641218e+000:4 8.455034e-003:5 0.000000e+000:6 
#C 3.778507e-009 6
1.000000e+000:1 2.645956e+000:2 8.455034e-003:3 2.642260e+000:4 8.455034e-003:5 0.000000e+000:6 
#C 3.804539e-009 6
1.000000e+000:1 2.646668e+000:2 8.455034e-003:3 2.643855e+000:4 8.455034e-003:5 0.000000e+000:6 
#C 3.831047e-009 6
1.000000e+000:1 2.647115e+000:2 8.455034e-003:3 2.644970e+000:4 8.455034e-003:5 0.000000e+000:6 
#C 3.857555e-009 6
1.000000e+000:1 2.647411e+000:2 8.455034e-003:3 2.645485e+000:4 8.455034e-003:5 0.000000e+000:6 
#C 3.883587e-009 6
1.000000e+000:1 2.647611e+000:2 8.455034e-003:3 2.645733e+000:4 8.455034e-003:5 0.000000e+000:6 
#C 3.910095e-009 6
1.000000e+000:1 2.647750e+000:2 8.455034e-003:3 2.645891e+000:4 8.455034e-003:5 0.000000e+000:6 
#C 3.936603e-009 6
1.000000e+000:1 2.647842e+000:2 8.455034e-003:3 2.646018e+000:4 8.455034e-003:5 0.000000e+000:6 
#C 3.964539e-009 6
1.000000e+000:1 2.647907e+000:2 8.455034e-003:3 2.646117e+000:4 8.455034e-003:5 0.000000e+000:6 
#C 3.992475e-009 6
1.000000e+000:1 2.647948e+000:2 8.455034e-003:3 2.646182e+000:4 8.455034e-003:5 0.000000e+000:6 
#C 4.016603e-009 6
1.000000e+000:1 2.647972e+000:2 8.455034e-003:3 2.646218e+000:4 8.455034e-003:5 0.000000e+000:6 
#C 4.040090e-009 6
1.000000e+000:1 2.647988e+000:2 8.455034e-003:3 2.646241e+000:4 8.455034e-003:5 0.000000e+000:6 
#C 4.067994e-009 6
1.000000e+000:1 2.648001e+000:2 8.455034e-003:3 2.646260e+000:4 8.455034e-003:5 0.000000e+000:6 
#C 4.094042e-009 6
1.000000e+000:1 2.648010e+000:2 8.455034e-003:3 2.646272e+000:4 8.455034e-003:5 0.000000e+000:6 
#C 4.120550e-009 6
1.000000e+000:1 2.648015e+000:2 8.455034e-003:3 2.646280e+000:4 8.455034e-003:5 0.000000e+000:6 
#C 4.147534e-009 6
1.000000e+000:1 2.648019e+000:2 8.463517e-003:3 2.646286e+000:4 1.028721e-002:5 0.000000e+000:6 
#C 4.176151e-009 6
1.000000e+000:1 2.648021e+000:2 8.916261e-003:3 2.646289e+000:4 4.346400e-002:5 0.000000e+000:6 
#C 4.212072e-009 6
1.000000e+000:1 2.648023e+000:2 1.512430e-002:3 2.646292e+000:4 1.744185e-001:5 0.000000e+000:6 
#C 4.240628e-009 6
1.000000e+000:1 2.648024e+000:2 3.341980e-002:3 2.646294e+000:4 3.214744e-001:5 0.000000e+000:6 
#C 4.262720e-009 6
1.000000e+000:1 2.648025e+000:2 6.238703e-002:3 2.646295e+000:4 4.365685e-001:5 0.000000e+000:6 
#C 4.292177e-009 6
1.000000e+000:1 2.648025e+000:2 1.284760e-001:3 2.646295e+000:4 5.762107e-001:5 0.000000e+000:6 
#C 4.321633e-009 6
1.000000e+000:1 2.648026e+000:2 2.310997e-001:3 2.646296e+000:4 6.938387e-001:5 0.000000e+000:6 
#C 4.359459e-009 6
1.000000e+000:1 2.648026e+000:2 4.177877e-001:3 2.646296e+000:4 8.200271e-001:5 0.000000e+000:6 
#C 4.397285e-009 6
1.000000e+000:1 2.648026e+000:2 6.584276e-001:3 2.646296e+000:4 9.453288e-001:5 0.000000e+000:6 
#C 4.418372e-009 6
1.000000e+000:1 2.648026e+000:2 8.104684e-001:3 2.646296e+000:4 1.023847e+000:5 0.000000e+000:6 
#C 4.444880e-009 6
1.000000e+000:1 2.648026e+000:2 1.014211e+000:3 2.646296e+000:4 1.136664e+000:5 0.000000e+000:6 
#C 4.471864e-009 6
1.000000e+000:1 2.648026e+000:2 1.229883e+000:3 2.646296e+000:4 1.270565e+000:5 0.000000e+000:6 
#C 4.498848e-009 6
1.000000e+000:1 2.648026e+000:2 1.448342e+000:3 2.646296e+000:4 1.424512e+000:5 1.000000e+000:6 
#C 4.525832e-009 6
1.000000e+000:1 2.648026e+000:2 1.665115e+000:3 2.646296e+000:4 1.597510e+000:5 1.000000e+000:6 
#C 4.552816e-009 6
1.000000e+000:1 2.648026e+000:2 1.877154e+000:3 2.646296e+000:4 1.786828e+000:5 1.000000e+000:6 
#C 4.579324e-009 6
1.000000e+000:1 2.648026e+000:2 2.079298e+000:3 2.646296e+000:4 1.984604e+000:5 1.000000e+000:6 
#C 4.605832e-009 6
1.000000e+000:1 2.648026e+000:2 2.275049e+000:3 2.646296e+000:4 2.190603e+000:5 1.000000e+000:6 
#C 4.632340e-009 6
1.000000e+000:1 2.648026e+000:2 2.465017e+000:3 2.646296e+000:4 2.400394e+000:5 1.000000e+000:6 
#C 4.658372e-009 6
1.000000e+000:1 2.648026e+000:2 2.647198e+000:3 2.646296e+000:4 2.606648e+000:5 1.000000e+000:6 
#C 4.690116e-009 6
1.000000e+000:1 2.648026e+000:2 2.865748e+000:3 2.646296e+000:4 2.854798e+000:5 1.000000e+000:6 
#C 4.721860e-009 6
1.000000e+000:1 2.648026e+000:2 3.082929e+000:3 2.646296e+000:4 3.095047e+000:5 1.000000e+000:6 
#C 4.753604e-009 6
1.000000e+000:1 2.648026e+000:2 3.300650e+000:3 2.646296e+000:4 3.302937e+000:5 1.000000e+000:6 
#C 4.785348e-009 6
1.000000e+000:1 2.648026e+000:2 3.517562e+000:3 2.646296e+000:4 3.446680e+000:5 1.000000e+000:6 
#C 4.832964e-009 6
1.000000e+000:1 2.648026e+000:2 3.824714e+000:3 2.646296e+000:4 3.579995e+000:5 1.000000e+000:6 
#C 4.896452e-009 6
1.000000e+000:1 2.648026e+000:2 4.145829e+000:3 2.646296e+000:4 3.747809e+000:5 1.000000e+000:6 
#C 4.922960e-009 6
1.000000e+000:1 2.648026e+000:2 4.239360e+000:3 2.646296e+000:4 3.831110e+000:5 1.000000e+000:6 
#C 4.949468e-009 6
1.000000e+000:1 2.648026e+000:2 4.302884e+000:3 2.646296e+000:4 3.921641e+000:5 1.000000e+000:6 
#C 5.002484e-009 6
1.000000e+000:1 2.648026e+000:2 4.352235e+000:3 2.646296e+000:4 4.100366e+000:5 1.000000e+000:6 
#C 5.072057e-009 6
1.000000e+000:1 2.648026e+000:2 4.324095e+000:3 2.646296e+000:4 4.278664e+000:5 1.000000e+000:6 
#C 5.152562e-009 6
1.000000e+000:1 2.648026e+000:2 4.269408e+000:3 2.646296e+000:4 4.361576e+000:5 1.000000e+000:6 
#C 5.179070e-009 6
1.000000e+000:1 2.648026e+000:2 4.259404e+000:3 2.646296e+000:4 4.360329e+000:5 1.000000e+000:6 
#C 5.206054e-009 6
1.000000e+000:1 2.648026e+000:2 4.256424e+000:3 2.646277e+000:4 4.350088e+000:5 1.000000e+000:6 
#C 5.233038e-009 6
1.000000e+000:1 2.647956e+000:2 4.259865e+000:3 2.637455e+000:4 4.334798e+000:5 1.000000e+000:6 
#C 5.260022e-009 6
1.000000e+000:1 2.646828e+000:2 4.268150e+000:3 2.593522e+000:4 4.318106e+000:5 1.000000e+000:6 
#C 5.286530e-009 6
1.000000e+000:1 2.642425e+000:2 4.279117e+000:3 2.574700e+000:4 4.303137e+000:5 1.000000e+000:6 
#C 5.314466e-009 6
1.000000e+000:1 2.634685e+000:2 4.291610e+000:3 2.628721e+000:4 4.290945e+000:5 1.000000e+000:6 
#C 5.342402e-009 6
1.000000e+000:1 2.628888e+000:2 4.303186e+000:3 2.689435e+000:4 4.283485e+000:5 1.000000e+000:6 
#C 5.366530e-009 6
1.000000e+000:1 2.628786e+000:2 4.311372e+000:3 2.702537e+000:4 4.280956e+000:5 1.000000e+000:6 
#C 5.399554e-009 6
1.000000e+000:1 2.635346e+000:2 4.318973e+000:3 2.679126e+000:4 4.282582e+000:5 1.000000e+000:6 
#C 5.420482e-009 6
1.000000e+000:1 2.641304e+000:2 4.321542e+000:3 2.658238e+000:4 4.285934e+000:5 1.000000e+000:6 
#C 5.448385e-009 6
1.000000e+000:1 2.648436e+000:2 4.322502e+000:3 2.634745e+000:4 4.292066e+000:5 1.000000e+000:6 
#C 5.479998e-009 6
1.000000e+000:1 2.653165e+000:2 4.320940e+000:3 2.629157e+000:4 4.299831e+000:5 1.000000e+000:6 
#C 5.504192e-009 6
