#H
SOURCE='IsSpice4'	VERSION='ver. 8.11-SI-1.0.3   10/6/2010'
TITLE='* Thu Oct 08 20:35:18 2015, Generated by: 010328058, Server: None, Windows, INSTALLED_SOFTWARE_VERSION: 2015.07 Build 6, Engine: 2015.07rc1, GUI: 2015.07rc1'
SUBTITLE='pc'
TIME='20:35:21' DATE='Oct 08, 2015' TEMPERATURE='298.15'
ANALYSIS='Trans'	SERIALNO='01234567'
ALLVALUES='NO' COMPLEXVALUES='NO' NODES='6'
SWEEPVAR='time' SWEEPMODE='VAR_STEP' DGTLDATA='NO'
XBEGIN='0.000000e+000' XEND='3.700000e-008'
FORMAT='0 VOLTSorAMPS;EFLOAT : NODEorBRANCH;NODE'
#N
'V(v_stimulus)'
'V(stload_sl_wopkg_!load)'
'V(stload_sl_wpkg_!load)'
'V(stload_sl_wopkg_!pad)'
'V(stload_sl_wpkg_!pad)'
'V(stload_sl_wpkg_!pin)'
#U
'Volts'
'Volts'
'Volts'
'Volts'
'Volts'
'Volts'
#C 0.000000e+000 6
0.000000e+000:1 8.455035e-003:2 8.455035e-003:3 8.455035e-003:4 8.455035e-003:5 8.455035e-003:6 
#C 2.560000e-011 6
0.000000e+000:1 8.455035e-003:2 8.455035e-003:3 8.455035e-003:4 8.455035e-003:5 8.455035e-003:6 
#C 5.440000e-011 6
0.000000e+000:1 8.455035e-003:2 8.455035e-003:3 8.455035e-003:4 8.455035e-003:5 8.455035e-003:6 
#C 8.320000e-011 6
0.000000e+000:1 8.455035e-003:2 8.455035e-003:3 8.455035e-003:4 8.455035e-003:5 8.455035e-003:6 
#C 1.088000e-010 6
0.000000e+000:1 8.455035e-003:2 8.455035e-003:3 8.455035e-003:4 8.455035e-003:5 8.455035e-003:6 
#C 1.600000e-010 6
0.000000e+000:1 8.455035e-003:2 8.455035e-003:3 8.455035e-003:4 8.455035e-003:5 8.455035e-003:6 
#C 2.624000e-010 6
0.000000e+000:1 8.455035e-003:2 8.455035e-003:3 8.455035e-003:4 8.455035e-003:5 8.455035e-003:6 
#C 4.672000e-010 6
0.000000e+000:1 8.455035e-003:2 8.455035e-003:3 8.455035e-003:4 8.455035e-003:5 8.455035e-003:6 
#C 8.768000e-010 6
0.000000e+000:1 8.455035e-003:2 8.455035e-003:3 8.455035e-003:4 8.455035e-003:5 8.455035e-003:6 
#C 9.016303e-010 6
0.000000e+000:1 8.455035e-003:2 8.455035e-003:3 8.455035e-003:4 8.455035e-003:5 8.455035e-003:6 
#C 9.264606e-010 6
0.000000e+000:1 8.455035e-003:2 8.455035e-003:3 8.455035e-003:4 8.455035e-003:5 8.455035e-003:6 
#C 9.761211e-010 6
0.000000e+000:1 8.455035e-003:2 8.455035e-003:3 8.455035e-003:4 8.455035e-003:5 8.455035e-003:6 
#C 1.075442e-009 6
0.000000e+000:1 8.455035e-003:2 8.455035e-003:3 8.455035e-003:4 8.455035e-003:5 8.455035e-003:6 
#C 1.100273e-009 6
0.000000e+000:1 8.455035e-003:2 8.455035e-003:3 8.455035e-003:4 8.455035e-003:5 8.455035e-003:6 
#C 1.130612e-009 6
0.000000e+000:1 8.455035e-003:2 8.455035e-003:3 8.455035e-003:4 8.455035e-003:5 8.455035e-003:6 
#C 1.160951e-009 6
0.000000e+000:1 8.455035e-003:2 8.455035e-003:3 8.455035e-003:4 8.455035e-003:5 8.455035e-003:6 
#C 1.189933e-009 6
0.000000e+000:1 8.455035e-003:2 8.455035e-003:3 8.455035e-003:4 8.455035e-003:5 8.455035e-003:6 
#C 1.210612e-009 6
0.000000e+000:1 8.455035e-003:2 8.455035e-003:3 8.455035e-003:4 8.455035e-003:5 8.455035e-003:6 
#C 1.250612e-009 6
0.000000e+000:1 8.455035e-003:2 8.455035e-003:3 8.455035e-003:4 8.455035e-003:5 8.455035e-003:6 
#C 1.290612e-009 6
0.000000e+000:1 8.455035e-003:2 8.455035e-003:3 8.455035e-003:4 8.455035e-003:5 8.455035e-003:6 
#C 1.330612e-009 6
0.000000e+000:1 8.455035e-003:2 8.455035e-003:3 8.455035e-003:4 8.455035e-003:5 8.455035e-003:6 
#C 1.370612e-009 6
0.000000e+000:1 8.455035e-003:2 8.455035e-003:3 8.455035e-003:4 8.455035e-003:5 8.455035e-003:6 
#C 1.410612e-009 6
0.000000e+000:1 8.455035e-003:2 8.455035e-003:3 8.455035e-003:4 8.455035e-003:5 8.455035e-003:6 
#C 1.450612e-009 6
0.000000e+000:1 8.455035e-003:2 8.455035e-003:3 8.455035e-003:4 8.455035e-003:5 8.455035e-003:6 
#C 1.490612e-009 6
0.000000e+000:1 8.455035e-003:2 8.455035e-003:3 8.455035e-003:4 8.455035e-003:5 8.455035e-003:6 
#C 1.530612e-009 6
0.000000e+000:1 8.455035e-003:2 8.455035e-003:3 8.455035e-003:4 8.455035e-003:5 8.455035e-003:6 
#C 1.570612e-009 6
0.000000e+000:1 8.455035e-003:2 8.455035e-003:3 8.455035e-003:4 8.455035e-003:5 8.455035e-003:6 
#C 1.610612e-009 6
0.000000e+000:1 8.455035e-003:2 8.455035e-003:3 8.455035e-003:4 8.455035e-003:5 8.455035e-003:6 
#C 1.650612e-009 6
0.000000e+000:1 8.455035e-003:2 8.455035e-003:3 8.455035e-003:4 8.455035e-003:5 8.455035e-003:6 
#C 1.690612e-009 6
0.000000e+000:1 8.455035e-003:2 8.455035e-003:3 8.455035e-003:4 8.455035e-003:5 8.455035e-003:6 
#C 1.730612e-009 6
0.000000e+000:1 8.455035e-003:2 8.455035e-003:3 8.455035e-003:4 8.455035e-003:5 8.455035e-003:6 
#C 1.770612e-009 6
0.000000e+000:1 8.455035e-003:2 8.455035e-003:3 8.455035e-003:4 8.455035e-003:5 8.455035e-003:6 
#C 1.810612e-009 6
0.000000e+000:1 8.455035e-003:2 8.455035e-003:3 8.455035e-003:4 8.455035e-003:5 8.455035e-003:6 
#C 1.850612e-009 6
0.000000e+000:1 8.455035e-003:2 8.455035e-003:3 8.455035e-003:4 8.455035e-003:5 8.455035e-003:6 
#C 1.890612e-009 6
0.000000e+000:1 8.455035e-003:2 8.455035e-003:3 8.455035e-003:4 8.455035e-003:5 8.455035e-003:6 
#C 1.930612e-009 6
0.000000e+000:1 8.455035e-003:2 8.455035e-003:3 8.455035e-003:4 8.455035e-003:5 8.455035e-003:6 
#C 1.970612e-009 6
0.000000e+000:1 8.455035e-003:2 8.455035e-003:3 8.455035e-003:4 8.455035e-003:5 8.455035e-003:6 
#C 2.010612e-009 6
0.000000e+000:1 8.455035e-003:2 8.455035e-003:3 8.455035e-003:4 8.455035e-003:5 8.455035e-003:6 
#C 2.050612e-009 6
0.000000e+000:1 8.455035e-003:2 8.455035e-003:3 8.455035e-003:4 8.455035e-003:5 8.455035e-003:6 
#C 2.090612e-009 6
0.000000e+000:1 8.455035e-003:2 8.455035e-003:3 8.455035e-003:4 8.455035e-003:5 8.455035e-003:6 
#C 2.130612e-009 6
0.000000e+000:1 8.455035e-003:2 8.455035e-003:3 8.455035e-003:4 8.455035e-003:5 8.455035e-003:6 
#C 2.170612e-009 6
0.000000e+000:1 8.455035e-003:2 8.455035e-003:3 8.455035e-003:4 8.455035e-003:5 8.455035e-003:6 
#C 2.210612e-009 6
0.000000e+000:1 8.455035e-003:2 8.455035e-003:3 8.455035e-003:4 8.455035e-003:5 8.455035e-003:6 
#C 2.250612e-009 6
0.000000e+000:1 8.455035e-003:2 8.455035e-003:3 8.455035e-003:4 8.455035e-003:5 8.455035e-003:6 
#C 2.290612e-009 6
0.000000e+000:1 8.455035e-003:2 8.455035e-003:3 8.455035e-003:4 8.455035e-003:5 8.455035e-003:6 
#C 2.330612e-009 6
0.000000e+000:1 8.455035e-003:2 8.455035e-003:3 8.455035e-003:4 8.455035e-003:5 8.455035e-003:6 
#C 2.370612e-009 6
0.000000e+000:1 8.455035e-003:2 8.455035e-003:3 8.455035e-003:4 8.455035e-003:5 8.455035e-003:6 
#C 2.410612e-009 6
0.000000e+000:1 8.455035e-003:2 8.455035e-003:3 8.455035e-003:4 8.455035e-003:5 8.455035e-003:6 
#C 2.450612e-009 6
0.000000e+000:1 8.455035e-003:2 8.455035e-003:3 8.455035e-003:4 8.455035e-003:5 8.455035e-003:6 
#C 2.490612e-009 6
0.000000e+000:1 8.455035e-003:2 8.455035e-003:3 8.455035e-003:4 8.455035e-003:5 8.455035e-003:6 
#C 2.530612e-009 6
0.000000e+000:1 8.455035e-003:2 8.455035e-003:3 8.455035e-003:4 8.455035e-003:5 8.455035e-003:6 
#C 2.570612e-009 6
0.000000e+000:1 8.455035e-003:2 8.455035e-003:3 8.455035e-003:4 8.455035e-003:5 8.455035e-003:6 
#C 2.610612e-009 6
0.000000e+000:1 8.455035e-003:2 8.455035e-003:3 8.455035e-003:4 8.455035e-003:5 8.455035e-003:6 
#C 2.650612e-009 6
0.000000e+000:1 8.455035e-003:2 8.455035e-003:3 8.455035e-003:4 8.455035e-003:5 8.455035e-003:6 
#C 2.690612e-009 6
0.000000e+000:1 8.455035e-003:2 8.455035e-003:3 8.455035e-003:4 8.455035e-003:5 8.455035e-003:6 
#C 2.730612e-009 6
0.000000e+000:1 8.455035e-003:2 8.455035e-003:3 8.455035e-003:4 8.455035e-003:5 8.455035e-003:6 
#C 2.770612e-009 6
0.000000e+000:1 8.455035e-003:2 8.455035e-003:3 8.455035e-003:4 8.455035e-003:5 8.455035e-003:6 
#C 2.810612e-009 6
0.000000e+000:1 8.455035e-003:2 8.455035e-003:3 8.455035e-003:4 8.455035e-003:5 8.455035e-003:6 
#C 2.850612e-009 6
0.000000e+000:1 8.455035e-003:2 8.455035e-003:3 8.455035e-003:4 8.455035e-003:5 8.455035e-003:6 
#C 2.890612e-009 6
0.000000e+000:1 8.455035e-003:2 8.455035e-003:3 8.455035e-003:4 8.455035e-003:5 8.455035e-003:6 
#C 2.930612e-009 6
0.000000e+000:1 8.455035e-003:2 8.455035e-003:3 8.455035e-003:4 8.455035e-003:5 8.455035e-003:6 
#C 2.970612e-009 6
0.000000e+000:1 8.455035e-003:2 8.455035e-003:3 8.455035e-003:4 8.455035e-003:5 8.455035e-003:6 
#C 3.010612e-009 6
0.000000e+000:1 8.455035e-003:2 8.455035e-003:3 8.455035e-003:4 8.455035e-003:5 8.455035e-003:6 
#C 3.050612e-009 6
0.000000e+000:1 8.455035e-003:2 8.455035e-003:3 8.455035e-003:4 8.455035e-003:5 8.455035e-003:6 
#C 3.090612e-009 6
0.000000e+000:1 8.455035e-003:2 8.455035e-003:3 8.455035e-003:4 8.455035e-003:5 8.455035e-003:6 
#C 3.130612e-009 6
0.000000e+000:1 8.455035e-003:2 8.455035e-003:3 8.455035e-003:4 8.455035e-003:5 8.455035e-003:6 
#C 3.170612e-009 6
0.000000e+000:1 8.455035e-003:2 8.455035e-003:3 8.455035e-003:4 8.455035e-003:5 8.455035e-003:6 
#C 3.210612e-009 6
0.000000e+000:1 8.455035e-003:2 8.455035e-003:3 8.455035e-003:4 8.455035e-003:5 8.455035e-003:6 
#C 3.250612e-009 6
0.000000e+000:1 8.455035e-003:2 8.455035e-003:3 8.455035e-003:4 8.455035e-003:5 8.455035e-003:6 
#C 3.290612e-009 6
0.000000e+000:1 8.455035e-003:2 8.455035e-003:3 8.455035e-003:4 8.455035e-003:5 8.455035e-003:6 
#C 3.330612e-009 6
0.000000e+000:1 8.455035e-003:2 8.455035e-003:3 8.455035e-003:4 8.455035e-003:5 8.455035e-003:6 
#C 3.370612e-009 6
0.000000e+000:1 8.455035e-003:2 8.455035e-003:3 8.455035e-003:4 8.455035e-003:5 8.455035e-003:6 
#C 3.410612e-009 6
0.000000e+000:1 8.455035e-003:2 8.455035e-003:3 8.455035e-003:4 8.455035e-003:5 8.455035e-003:6 
#C 3.450612e-009 6
0.000000e+000:1 8.455035e-003:2 8.455035e-003:3 8.455035e-003:4 8.455035e-003:5 8.455035e-003:6 
#C 3.490612e-009 6
0.000000e+000:1 8.455035e-003:2 8.455035e-003:3 8.455035e-003:4 8.455035e-003:5 8.455035e-003:6 
#C 3.530612e-009 6
0.000000e+000:1 8.455035e-003:2 8.455035e-003:3 8.455035e-003:4 8.455035e-003:5 8.455035e-003:6 
#C 3.570612e-009 6
0.000000e+000:1 8.455035e-003:2 8.455035e-003:3 8.455035e-003:4 8.455035e-003:5 8.455035e-003:6 
#C 3.610612e-009 6
0.000000e+000:1 8.455035e-003:2 8.455035e-003:3 8.455035e-003:4 8.455035e-003:5 8.455035e-003:6 
#C 3.650612e-009 6
0.000000e+000:1 8.455035e-003:2 8.455035e-003:3 8.455035e-003:4 8.455035e-003:5 8.455035e-003:6 
#C 3.690612e-009 6
0.000000e+000:1 8.455035e-003:2 8.455035e-003:3 8.455035e-003:4 8.455035e-003:5 8.455035e-003:6 
#C 3.730612e-009 6
0.000000e+000:1 8.455035e-003:2 8.455035e-003:3 8.455035e-003:4 8.455035e-003:5 8.455035e-003:6 
#C 3.770612e-009 6
0.000000e+000:1 8.455035e-003:2 8.455035e-003:3 8.455035e-003:4 8.455035e-003:5 8.455035e-003:6 
#C 3.810612e-009 6
0.000000e+000:1 8.455035e-003:2 8.455035e-003:3 8.455035e-003:4 8.455035e-003:5 8.455035e-003:6 
#C 3.850612e-009 6
0.000000e+000:1 8.455035e-003:2 8.455035e-003:3 8.455035e-003:4 8.455035e-003:5 8.455035e-003:6 
#C 3.890612e-009 6
0.000000e+000:1 8.455035e-003:2 8.455035e-003:3 8.455035e-003:4 8.455035e-003:5 8.455035e-003:6 
#C 3.930612e-009 6
0.000000e+000:1 8.455035e-003:2 8.455035e-003:3 8.455035e-003:4 8.455035e-003:5 8.455035e-003:6 
#C 3.970612e-009 6
0.000000e+000:1 8.455035e-003:2 8.455035e-003:3 8.455035e-003:4 8.455035e-003:5 8.455035e-003:6 
#C 4.010612e-009 6
0.000000e+000:1 8.455035e-003:2 8.455035e-003:3 8.455035e-003:4 8.455035e-003:5 8.455035e-003:6 
#C 4.050612e-009 6
0.000000e+000:1 8.455035e-003:2 8.455035e-003:3 8.455035e-003:4 8.455035e-003:5 8.455035e-003:6 
#C 4.090612e-009 6
0.000000e+000:1 8.455035e-003:2 8.455035e-003:3 8.455035e-003:4 8.455035e-003:5 8.455035e-003:6 
#C 4.130612e-009 6
0.000000e+000:1 8.455035e-003:2 8.455035e-003:3 8.455035e-003:4 8.455035e-003:5 8.455035e-003:6 
#C 4.170612e-009 6
0.000000e+000:1 8.455035e-003:2 8.455035e-003:3 8.455035e-003:4 8.455035e-003:5 8.455035e-003:6 
#C 4.210612e-009 6
0.000000e+000:1 8.455035e-003:2 8.455035e-003:3 8.455035e-003:4 8.455035e-003:5 8.455035e-003:6 
#C 4.250612e-009 6
0.000000e+000:1 8.455035e-003:2 8.455035e-003:3 8.455035e-003:4 8.455035e-003:5 8.455035e-003:6 
#C 4.290612e-009 6
0.000000e+000:1 8.455035e-003:2 8.455035e-003:3 8.455035e-003:4 8.455035e-003:5 8.455035e-003:6 
#C 4.330612e-009 6
0.000000e+000:1 8.455035e-003:2 8.455035e-003:3 8.455035e-003:4 8.455035e-003:5 8.455035e-003:6 
#C 4.370612e-009 6
0.000000e+000:1 8.455035e-003:2 8.455035e-003:3 8.455035e-003:4 8.455035e-003:5 8.455035e-003:6 
#C 4.410612e-009 6
0.000000e+000:1 8.455035e-003:2 8.455035e-003:3 8.455035e-003:4 8.455035e-003:5 8.455035e-003:6 
#C 4.450612e-009 6
0.000000e+000:1 8.455035e-003:2 8.455035e-003:3 8.455035e-003:4 8.455035e-003:5 8.455035e-003:6 
#C 4.490612e-009 6
0.000000e+000:1 8.455035e-003:2 8.455035e-003:3 8.455035e-003:4 8.455035e-003:5 8.455035e-003:6 
#C 4.530612e-009 6
0.000000e+000:1 8.455035e-003:2 8.455035e-003:3 8.455035e-003:4 8.455035e-003:5 8.455035e-003:6 
#C 4.570612e-009 6
0.000000e+000:1 8.455035e-003:2 8.455035e-003:3 8.455035e-003:4 8.455035e-003:5 8.455035e-003:6 
#C 4.610612e-009 6
0.000000e+000:1 8.455035e-003:2 8.455035e-003:3 8.455035e-003:4 8.455035e-003:5 8.455035e-003:6 
#C 4.650612e-009 6
0.000000e+000:1 8.455035e-003:2 8.455035e-003:3 8.455035e-003:4 8.455035e-003:5 8.455035e-003:6 
#C 4.690612e-009 6
0.000000e+000:1 8.455035e-003:2 8.455035e-003:3 8.455035e-003:4 8.455035e-003:5 8.455035e-003:6 
#C 4.730612e-009 6
0.000000e+000:1 8.455035e-003:2 8.455035e-003:3 8.455035e-003:4 8.455035e-003:5 8.455035e-003:6 
#C 4.770612e-009 6
0.000000e+000:1 8.455035e-003:2 8.455035e-003:3 8.455035e-003:4 8.455035e-003:5 8.455035e-003:6 
#C 4.810612e-009 6
0.000000e+000:1 8.455035e-003:2 8.455035e-003:3 8.455035e-003:4 8.455035e-003:5 8.455035e-003:6 
#C 4.850612e-009 6
0.000000e+000:1 8.455035e-003:2 8.455035e-003:3 8.455035e-003:4 8.455035e-003:5 8.455035e-003:6 
#C 4.890612e-009 6
0.000000e+000:1 8.455035e-003:2 8.455035e-003:3 8.455035e-003:4 8.455035e-003:5 8.455035e-003:6 
#C 4.930612e-009 6
0.000000e+000:1 8.455035e-003:2 8.455035e-003:3 8.455035e-003:4 8.455035e-003:5 8.455035e-003:6 
#C 4.970612e-009 6
0.000000e+000:1 8.455035e-003:2 8.455035e-003:3 8.455035e-003:4 8.455035e-003:5 8.455035e-003:6 
#C 5.010612e-009 6
0.000000e+000:1 8.455035e-003:2 8.455035e-003:3 8.455035e-003:4 8.455035e-003:5 8.455035e-003:6 
#C 5.050612e-009 6
0.000000e+000:1 8.455035e-003:2 8.455035e-003:3 8.455035e-003:4 8.455035e-003:5 8.455035e-003:6 
#C 5.090612e-009 6
0.000000e+000:1 8.455035e-003:2 8.455035e-003:3 8.455035e-003:4 8.455035e-003:5 8.455035e-003:6 
#C 5.130612e-009 6
0.000000e+000:1 8.455035e-003:2 8.455035e-003:3 8.455035e-003:4 8.455035e-003:5 8.455035e-003:6 
#C 5.170612e-009 6
0.000000e+000:1 8.455035e-003:2 8.455035e-003:3 8.455035e-003:4 8.455035e-003:5 8.455035e-003:6 
#C 5.210612e-009 6
0.000000e+000:1 8.455035e-003:2 8.455035e-003:3 8.455035e-003:4 8.455035e-003:5 8.455035e-003:6 
#C 5.250612e-009 6
0.000000e+000:1 8.455035e-003:2 8.455035e-003:3 8.455035e-003:4 8.455035e-003:5 8.455035e-003:6 
#C 5.290612e-009 6
0.000000e+000:1 8.455035e-003:2 8.455035e-003:3 8.455035e-003:4 8.455035e-003:5 8.455035e-003:6 
#C 5.330612e-009 6
0.000000e+000:1 8.455035e-003:2 8.455035e-003:3 8.455035e-003:4 8.455035e-003:5 8.455035e-003:6 
#C 5.370612e-009 6
0.000000e+000:1 8.455035e-003:2 8.455035e-003:3 8.455035e-003:4 8.455035e-003:5 8.455035e-003:6 
#C 5.410612e-009 6
0.000000e+000:1 8.455035e-003:2 8.455035e-003:3 8.455035e-003:4 8.455035e-003:5 8.455035e-003:6 
#C 5.450612e-009 6
0.000000e+000:1 8.455035e-003:2 8.455035e-003:3 8.455035e-003:4 8.455035e-003:5 8.455035e-003:6 
#C 5.490612e-009 6
0.000000e+000:1 8.455035e-003:2 8.455035e-003:3 8.455035e-003:4 8.455035e-003:5 8.455035e-003:6 
#C 5.530612e-009 6
0.000000e+000:1 8.455035e-003:2 8.455035e-003:3 8.455035e-003:4 8.455035e-003:5 8.455035e-003:6 
#C 5.570612e-009 6
0.000000e+000:1 8.455035e-003:2 8.455035e-003:3 8.455035e-003:4 8.455035e-003:5 8.455035e-003:6 
#C 5.610612e-009 6
0.000000e+000:1 8.455035e-003:2 8.455035e-003:3 8.455035e-003:4 8.455035e-003:5 8.455035e-003:6 
#C 5.650612e-009 6
0.000000e+000:1 8.455035e-003:2 8.455035e-003:3 8.455035e-003:4 8.455035e-003:5 8.455035e-003:6 
#C 5.690612e-009 6
0.000000e+000:1 8.455035e-003:2 8.455035e-003:3 8.455035e-003:4 8.455035e-003:5 8.455035e-003:6 
#C 5.730612e-009 6
0.000000e+000:1 8.455035e-003:2 8.455035e-003:3 8.455035e-003:4 8.455035e-003:5 8.455035e-003:6 
#C 5.770612e-009 6
0.000000e+000:1 8.455035e-003:2 8.455035e-003:3 8.455035e-003:4 8.455035e-003:5 8.455035e-003:6 
#C 5.810612e-009 6
0.000000e+000:1 8.455035e-003:2 8.455035e-003:3 8.455035e-003:4 8.455035e-003:5 8.455035e-003:6 
#C 5.850612e-009 6
0.000000e+000:1 8.455035e-003:2 8.455035e-003:3 8.455035e-003:4 8.455035e-003:5 8.455035e-003:6 
#C 5.890612e-009 6
0.000000e+000:1 8.455035e-003:2 8.455035e-003:3 8.455035e-003:4 8.455035e-003:5 8.455035e-003:6 
#C 5.930612e-009 6
0.000000e+000:1 8.455035e-003:2 8.455035e-003:3 8.455035e-003:4 8.455035e-003:5 8.455035e-003:6 
#C 5.970612e-009 6
0.000000e+000:1 8.455035e-003:2 8.455035e-003:3 8.455035e-003:4 8.455035e-003:5 8.455035e-003:6 
#C 6.000000e-009 6
0.000000e+000:1 8.455035e-003:2 8.455035e-003:3 8.455035e-003:4 8.455035e-003:5 8.455035e-003:6 
#C 6.031018e-009 6
3.101832e-001:1 8.455035e-003:2 8.455035e-003:3 8.455035e-003:4 8.455035e-003:5 8.455035e-003:6 
#C 6.051100e-009 6
5.110000e-001:1 1.038449e-002:2 8.455137e-003:3 1.038453e-002:4 1.609385e-002:5 8.455137e-003:6 
#C 6.085704e-009 6
8.600817e-001:1 7.622018e-002:2 1.037340e-002:3 7.622024e-002:4 2.152945e-001:5 1.037341e-002:6 
#C 6.107085e-009 6
1.000000e+000:1 1.272743e-001:2 1.584482e-002:3 1.272744e-001:4 3.205248e-001:5 1.584482e-002:6 
#C 6.135424e-009 6
1.000000e+000:1 2.058751e-001:2 3.181608e-002:3 2.058752e-001:4 4.399394e-001:5 3.181609e-002:6 
#C 6.168640e-009 6
1.000000e+000:1 3.124686e-001:2 6.709018e-002:3 3.124687e-001:4 5.553108e-001:5 6.709020e-002:6 
#C 6.190925e-009 6
1.000000e+000:1 3.913702e-001:2 1.025128e-001:3 3.913704e-001:4 6.219949e-001:5 1.025128e-001:6 
#C 6.215755e-009 6
1.000000e+000:1 4.849916e-001:2 1.539526e-001:3 4.849917e-001:4 6.889133e-001:5 1.539526e-001:6 
#C 6.240585e-009 6
1.000000e+000:1 5.828277e-001:2 2.184230e-001:3 5.828278e-001:4 7.509215e-001:5 2.184231e-001:6 
#C 6.261264e-009 6
1.000000e+000:1 6.662301e-001:2 2.820101e-001:3 6.662302e-001:4 8.001262e-001:5 2.820101e-001:6 
#C 6.301997e-009 6
1.000000e+000:1 8.311258e-001:2 4.324185e-001:3 8.311260e-001:4 8.900097e-001:5 4.324185e-001:6 
#C 6.326827e-009 6
1.000000e+000:1 9.293821e-001:2 5.390908e-001:3 9.293822e-001:4 9.363328e-001:5 5.390909e-001:6 
#C 6.351658e-009 6
1.000000e+000:1 1.025086e+000:2 6.552449e-001:3 1.025086e+000:4 9.757827e-001:5 6.552449e-001:6 
#C 6.376488e-009 6
1.000000e+000:1 1.118411e+000:2 7.792657e-001:3 1.118411e+000:4 1.007983e+000:5 7.792658e-001:6 
#C 6.401318e-009 6
1.000000e+000:1 1.210200e+000:2 9.087625e-001:3 1.210200e+000:4 1.036123e+000:5 9.087626e-001:6 
#C 6.421997e-009 6
1.000000e+000:1 1.286116e+000:2 1.018981e+000:3 1.286116e+000:4 1.058794e+000:5 1.018981e+000:6 
#C 6.459282e-009 6
1.000000e+000:1 1.423678e+000:2 1.218383e+000:3 1.423678e+000:4 1.107692e+000:5 1.218383e+000:6 
#C 6.495833e-009 6
1.000000e+000:1 1.561680e+000:2 1.407955e+000:3 1.561680e+000:4 1.182788e+000:5 1.407955e+000:6 
#C 6.517557e-009 6
1.000000e+000:1 1.646039e+000:2 1.515315e+000:3 1.646039e+000:4 1.248250e+000:5 1.515315e+000:6 
#C 6.542388e-009 6
1.000000e+000:1 1.744860e+000:2 1.631933e+000:3 1.744860e+000:4 1.346318e+000:5 1.631933e+000:6 
#C 6.567218e-009 6
1.000000e+000:1 1.846500e+000:2 1.741583e+000:3 1.846500e+000:4 1.472052e+000:5 1.741583e+000:6 
#C 6.587897e-009 6
1.000000e+000:1 1.933320e+000:2 1.827876e+000:3 1.933321e+000:4 1.597242e+000:5 1.827876e+000:6 
#C 6.625181e-009 6
1.000000e+000:1 2.089989e+000:2 1.974161e+000:3 2.089989e+000:4 1.842214e+000:5 1.974161e+000:6 
#C 6.661733e-009 6
1.000000e+000:1 2.216104e+000:2 2.109704e+000:3 2.216104e+000:4 1.992222e+000:5 2.109704e+000:6 
#C 6.698285e-009 6
1.000000e+000:1 2.329517e+000:2 2.238802e+000:3 2.329517e+000:4 2.114942e+000:5 2.238802e+000:6 
#C 6.720009e-009 6
1.000000e+000:1 2.392669e+000:2 2.312374e+000:3 2.392669e+000:4 2.182471e+000:5 2.312374e+000:6 
#C 6.744839e-009 6
1.000000e+000:1 2.460947e+000:2 2.393429e+000:3 2.460947e+000:4 2.255050e+000:5 2.393429e+000:6 
#C 6.769669e-009 6
1.000000e+000:1 2.525104e+000:2 2.471039e+000:3 2.525105e+000:4 2.323316e+000:5 2.471039e+000:6 
#C 6.809669e-009 6
