#H
SOURCE='IsSpice4'	VERSION='ver. 8.11-SI-1.0.3   10/6/2010'
TITLE='* Wed Oct 21 17:53:44 2015, Generated by: 010328058, Server: None, Windows, INSTALLED_SOFTWARE_VERSION: 2015.07 Build 6, Engine: 2015.07rc1, GUI: 2015.07rc1'
SUBTITLE='pc'
TIME='17:53:48' DATE='Oct 21, 2015' TEMPERATURE='298.15'
ANALYSIS='Trans'	SERIALNO='01234567'
ALLVALUES='NO' COMPLEXVALUES='NO' NODES='6'
SWEEPVAR='time' SWEEPMODE='VAR_STEP' DGTLDATA='NO'
XBEGIN='0.000000e+000' XEND='3.700000e-008'
FORMAT='0 VOLTSorAMPS;EFLOAT : NODEorBRANCH;NODE'
#N
'V(v_stimulus)'
'V(designator1_pad)'
'V(designator2_pad)'
'V(designator1_pin)'
'V(designator2_pin)'
'V(designator2_z)'
#U
'Volts'
'Volts'
'Volts'
'Volts'
'Volts'
'Volts'
#C 0.000000e+000 6
0.000000e+000:1 4.539217e-006:2 4.539216e-006:3 4.539216e-006:4 4.539216e-006:5 0.000000e+000:6 
#C 2.560000e-011 6
0.000000e+000:1 4.539217e-006:2 4.539216e-006:3 4.539216e-006:4 4.539216e-006:5 0.000000e+000:6 
#C 5.440000e-011 6
0.000000e+000:1 4.539216e-006:2 4.539216e-006:3 4.539216e-006:4 4.539216e-006:5 0.000000e+000:6 
#C 8.320000e-011 6
0.000000e+000:1 4.539216e-006:2 4.539217e-006:3 4.539216e-006:4 4.539216e-006:5 0.000000e+000:6 
#C 1.088000e-010 6
0.000000e+000:1 4.539216e-006:2 4.539217e-006:3 4.539216e-006:4 4.539216e-006:5 0.000000e+000:6 
#C 1.600000e-010 6
0.000000e+000:1 4.539216e-006:2 4.539217e-006:3 4.539216e-006:4 4.539216e-006:5 0.000000e+000:6 
#C 2.600000e-010 6
0.000000e+000:1 4.539216e-006:2 4.539216e-006:3 4.539216e-006:4 4.539216e-006:5 0.000000e+000:6 
#C 3.600000e-010 6
0.000000e+000:1 4.539216e-006:2 4.539216e-006:3 4.539216e-006:4 4.539216e-006:5 0.000000e+000:6 
#C 4.600000e-010 6
0.000000e+000:1 4.539216e-006:2 4.539216e-006:3 4.539216e-006:4 4.539216e-006:5 0.000000e+000:6 
#C 5.600000e-010 6
0.000000e+000:1 4.539216e-006:2 4.539216e-006:3 4.539216e-006:4 4.539216e-006:5 0.000000e+000:6 
#C 6.600000e-010 6
0.000000e+000:1 4.539216e-006:2 4.539216e-006:3 4.539216e-006:4 4.539216e-006:5 0.000000e+000:6 
#C 7.600000e-010 6
0.000000e+000:1 4.539216e-006:2 4.539216e-006:3 4.539216e-006:4 4.539216e-006:5 0.000000e+000:6 
#C 8.600000e-010 6
0.000000e+000:1 4.539216e-006:2 4.539216e-006:3 4.539216e-006:4 4.539216e-006:5 0.000000e+000:6 
#C 9.600000e-010 6
0.000000e+000:1 4.539216e-006:2 4.539216e-006:3 4.539216e-006:4 4.539217e-006:5 0.000000e+000:6 
#C 9.848303e-010 6
0.000000e+000:1 4.539216e-006:2 4.539216e-006:3 4.539216e-006:4 4.539217e-006:5 0.000000e+000:6 
#C 1.009661e-009 6
0.000000e+000:1 4.539216e-006:2 4.539216e-006:3 4.539216e-006:4 4.539216e-006:5 0.000000e+000:6 
#C 1.049661e-009 6
0.000000e+000:1 4.539216e-006:2 4.539216e-006:3 4.539216e-006:4 4.539216e-006:5 0.000000e+000:6 
#C 1.089661e-009 6
0.000000e+000:1 4.539216e-006:2 4.539216e-006:3 4.539216e-006:4 4.539216e-006:5 0.000000e+000:6 
#C 1.129661e-009 6
0.000000e+000:1 4.539216e-006:2 4.539216e-006:3 4.539216e-006:4 4.539216e-006:5 0.000000e+000:6 
#C 1.169661e-009 6
0.000000e+000:1 4.539216e-006:2 4.539216e-006:3 4.539216e-006:4 4.539216e-006:5 0.000000e+000:6 
#C 1.209661e-009 6
0.000000e+000:1 4.539216e-006:2 4.539216e-006:3 4.539216e-006:4 4.539216e-006:5 0.000000e+000:6 
#C 1.249661e-009 6
0.000000e+000:1 4.539216e-006:2 4.539216e-006:3 4.539216e-006:4 4.539216e-006:5 0.000000e+000:6 
#C 1.289661e-009 6
0.000000e+000:1 4.539216e-006:2 4.539216e-006:3 4.539216e-006:4 4.539216e-006:5 0.000000e+000:6 
#C 1.329661e-009 6
0.000000e+000:1 4.539216e-006:2 4.539216e-006:3 4.539216e-006:4 4.539216e-006:5 0.000000e+000:6 
#C 1.369661e-009 6
0.000000e+000:1 4.539216e-006:2 4.539216e-006:3 4.539216e-006:4 4.539216e-006:5 0.000000e+000:6 
#C 1.409661e-009 6
0.000000e+000:1 4.539216e-006:2 4.539216e-006:3 4.539216e-006:4 4.539216e-006:5 0.000000e+000:6 
#C 1.449661e-009 6
0.000000e+000:1 4.539216e-006:2 4.539216e-006:3 4.539216e-006:4 4.539216e-006:5 0.000000e+000:6 
#C 1.489661e-009 6
0.000000e+000:1 4.539216e-006:2 4.539216e-006:3 4.539216e-006:4 4.539216e-006:5 0.000000e+000:6 
#C 1.529661e-009 6
0.000000e+000:1 4.539216e-006:2 4.539216e-006:3 4.539216e-006:4 4.539216e-006:5 0.000000e+000:6 
#C 1.569661e-009 6
0.000000e+000:1 4.539216e-006:2 4.539216e-006:3 4.539216e-006:4 4.539216e-006:5 0.000000e+000:6 
#C 1.609661e-009 6
0.000000e+000:1 4.539216e-006:2 4.539216e-006:3 4.539216e-006:4 4.539216e-006:5 0.000000e+000:6 
#C 1.649661e-009 6
0.000000e+000:1 4.539216e-006:2 4.539216e-006:3 4.539216e-006:4 4.539216e-006:5 0.000000e+000:6 
#C 1.689661e-009 6
0.000000e+000:1 4.539216e-006:2 4.539216e-006:3 4.539216e-006:4 4.539216e-006:5 0.000000e+000:6 
#C 1.729661e-009 6
0.000000e+000:1 4.539216e-006:2 4.539216e-006:3 4.539217e-006:4 4.539216e-006:5 0.000000e+000:6 
#C 1.769661e-009 6
0.000000e+000:1 4.539216e-006:2 4.539216e-006:3 4.539216e-006:4 4.539216e-006:5 0.000000e+000:6 
#C 1.809661e-009 6
0.000000e+000:1 4.539216e-006:2 4.539216e-006:3 4.539216e-006:4 4.539216e-006:5 0.000000e+000:6 
#C 1.849661e-009 6
0.000000e+000:1 4.539216e-006:2 4.539216e-006:3 4.539216e-006:4 4.539216e-006:5 0.000000e+000:6 
#C 1.889661e-009 6
0.000000e+000:1 4.539216e-006:2 4.539216e-006:3 4.539216e-006:4 4.539216e-006:5 0.000000e+000:6 
#C 1.929661e-009 6
0.000000e+000:1 4.539216e-006:2 4.539216e-006:3 4.539216e-006:4 4.539216e-006:5 0.000000e+000:6 
#C 1.969661e-009 6
0.000000e+000:1 4.539216e-006:2 4.539216e-006:3 4.539216e-006:4 4.539216e-006:5 0.000000e+000:6 
#C 2.009661e-009 6
0.000000e+000:1 4.539216e-006:2 4.539216e-006:3 4.539216e-006:4 4.539216e-006:5 0.000000e+000:6 
#C 2.049661e-009 6
0.000000e+000:1 4.539216e-006:2 4.539216e-006:3 4.539216e-006:4 4.539216e-006:5 0.000000e+000:6 
#C 2.089661e-009 6
0.000000e+000:1 4.539216e-006:2 4.539216e-006:3 4.539216e-006:4 4.539216e-006:5 0.000000e+000:6 
#C 2.129661e-009 6
0.000000e+000:1 4.539216e-006:2 4.539216e-006:3 4.539216e-006:4 4.539216e-006:5 0.000000e+000:6 
#C 2.169661e-009 6
0.000000e+000:1 4.539216e-006:2 4.539216e-006:3 4.539216e-006:4 4.539216e-006:5 0.000000e+000:6 
#C 2.209661e-009 6
0.000000e+000:1 4.539216e-006:2 4.539216e-006:3 4.539216e-006:4 4.539216e-006:5 0.000000e+000:6 
#C 2.249661e-009 6
0.000000e+000:1 4.539216e-006:2 4.539216e-006:3 4.539216e-006:4 4.539216e-006:5 0.000000e+000:6 
#C 2.289661e-009 6
0.000000e+000:1 4.539216e-006:2 4.539216e-006:3 4.539216e-006:4 4.539216e-006:5 0.000000e+000:6 
#C 2.329661e-009 6
0.000000e+000:1 4.539216e-006:2 4.539216e-006:3 4.539216e-006:4 4.539216e-006:5 0.000000e+000:6 
#C 2.369661e-009 6
0.000000e+000:1 4.539216e-006:2 4.539216e-006:3 4.539216e-006:4 4.539216e-006:5 0.000000e+000:6 
#C 2.409661e-009 6
0.000000e+000:1 4.539216e-006:2 4.539216e-006:3 4.539216e-006:4 4.539216e-006:5 0.000000e+000:6 
#C 2.449661e-009 6
0.000000e+000:1 4.539216e-006:2 4.539216e-006:3 4.539216e-006:4 4.539216e-006:5 0.000000e+000:6 
#C 2.489661e-009 6
0.000000e+000:1 4.539216e-006:2 4.539216e-006:3 4.539216e-006:4 4.539216e-006:5 0.000000e+000:6 
#C 2.529661e-009 6
0.000000e+000:1 4.539216e-006:2 4.539216e-006:3 4.539216e-006:4 4.539216e-006:5 0.000000e+000:6 
#C 2.569661e-009 6
0.000000e+000:1 4.539216e-006:2 4.539216e-006:3 4.539216e-006:4 4.539216e-006:5 0.000000e+000:6 
#C 2.609661e-009 6
0.000000e+000:1 4.539216e-006:2 4.539216e-006:3 4.539216e-006:4 4.539216e-006:5 0.000000e+000:6 
#C 2.649661e-009 6
0.000000e+000:1 4.539216e-006:2 4.539216e-006:3 4.539216e-006:4 4.539216e-006:5 0.000000e+000:6 
#C 2.689661e-009 6
0.000000e+000:1 4.539216e-006:2 4.539216e-006:3 4.539216e-006:4 4.539216e-006:5 0.000000e+000:6 
#C 2.729661e-009 6
0.000000e+000:1 4.539216e-006:2 4.539216e-006:3 4.539216e-006:4 4.539216e-006:5 0.000000e+000:6 
#C 2.769661e-009 6
0.000000e+000:1 4.539216e-006:2 4.539216e-006:3 4.539216e-006:4 4.539216e-006:5 0.000000e+000:6 
#C 2.809661e-009 6
0.000000e+000:1 4.539216e-006:2 4.539216e-006:3 4.539216e-006:4 4.539216e-006:5 0.000000e+000:6 
#C 2.849661e-009 6
0.000000e+000:1 4.539216e-006:2 4.539216e-006:3 4.539216e-006:4 4.539216e-006:5 0.000000e+000:6 
#C 2.889661e-009 6
0.000000e+000:1 4.539216e-006:2 4.539216e-006:3 4.539216e-006:4 4.539216e-006:5 0.000000e+000:6 
#C 2.929661e-009 6
0.000000e+000:1 4.539216e-006:2 4.539216e-006:3 4.539216e-006:4 4.539216e-006:5 0.000000e+000:6 
#C 2.969661e-009 6
0.000000e+000:1 4.539216e-006:2 4.539216e-006:3 4.539216e-006:4 4.539216e-006:5 0.000000e+000:6 
#C 3.000000e-009 6
0.000000e+000:1 4.539216e-006:2 4.539216e-006:3 4.539216e-006:4 4.539216e-006:5 0.000000e+000:6 
#C 3.031018e-009 6
3.101832e-001:1 4.539216e-006:2 4.539216e-006:3 4.539216e-006:4 4.539216e-006:5 0.000000e+000:6 
#C 3.051100e-009 6
5.110000e-001:1 1.093733e-006:2 4.539216e-006:3 4.538680e-006:4 4.539216e-006:5 0.000000e+000:6 
#C 3.085704e-009 6
8.600817e-001:1 -2.852596e-004:2 4.539216e-006:3 -2.292785e-005:4 4.539216e-006:5 0.000000e+000:6 
#C 3.107085e-009 6
1.000000e+000:1 -4.422354e-004:2 4.539216e-006:3 -8.945267e-005:4 4.539216e-006:5 0.000000e+000:6 
#C 3.135424e-009 6
1.000000e+000:1 -6.371057e-004:2 4.539216e-006:3 -2.376570e-004:4 4.539216e-006:5 0.000000e+000:6 
#C 3.173210e-009 6
1.000000e+000:1 -8.917927e-004:2 4.539216e-006:3 -5.020729e-004:4 4.539216e-006:5 0.000000e+000:6 
#C 3.210995e-009 6
1.000000e+000:1 -1.177666e-003:2 4.539216e-006:3 -7.917600e-004:4 4.539216e-006:5 0.000000e+000:6 
#C 3.248781e-009 6
1.000000e+000:1 -2.383541e-003:2 4.539216e-006:3 -1.181728e-003:4 4.539216e-006:5 0.000000e+000:6 
#C 3.269888e-009 6
1.000000e+000:1 -2.836877e-003:2 4.539216e-006:3 -1.539621e-003:4 4.539216e-006:5 0.000000e+000:6 
#C 3.294718e-009 6
1.000000e+000:1 -3.395291e-003:2 4.539216e-006:3 -2.079146e-003:4 4.539216e-006:5 0.000000e+000:6 
#C 3.319549e-009 6
1.000000e+000:1 -4.073594e-003:2 4.539216e-006:3 -2.689756e-003:4 4.539216e-006:5 0.000000e+000:6 
#C 3.359549e-009 6
1.000000e+000:1 -5.449757e-003:2 4.539216e-006:3 -3.781723e-003:4 4.539216e-006:5 0.000000e+000:6 
#C 3.399549e-009 6
1.000000e+000:1 -8.501610e-003:2 4.539216e-006:3 -5.208684e-003:4 4.539216e-006:5 0.000000e+000:6 
#C 3.439549e-009 6
1.000000e+000:1 -1.012340e-002:2 4.539216e-006:3 -7.334437e-003:4 4.539216e-006:5 0.000000e+000:6 
#C 3.479549e-009 6
1.000000e+000:1 -1.176342e-002:2 4.539216e-006:3 -9.573242e-003:4 4.539216e-006:5 0.000000e+000:6 
#C 3.519549e-009 6
1.000000e+000:1 -1.439152e-002:2 4.539216e-006:3 -1.159729e-002:4 4.539216e-006:5 0.000000e+000:6 
#C 3.559549e-009 6
1.000000e+000:1 -1.895222e-002:2 4.539216e-006:3 -1.401945e-002:4 4.539216e-006:5 0.000000e+000:6 
#C 3.599549e-009 6
1.000000e+000:1 -2.325184e-002:2 4.539216e-006:3 -1.749589e-002:4 4.539216e-006:5 0.000000e+000:6 
#C 3.639549e-009 6
1.000000e+000:1 -2.904759e-002:2 4.539216e-006:3 -2.193158e-002:4 4.539216e-006:5 0.000000e+000:6 
#C 3.679549e-009 6
1.000000e+000:1 -2.848831e-002:2 4.539216e-006:3 -2.662234e-002:4 4.539216e-006:5 0.000000e+000:6 
#C 3.719549e-009 6
1.000000e+000:1 -2.918299e-002:2 4.539216e-006:3 -2.929651e-002:4 4.539216e-006:5 0.000000e+000:6 
#C 3.759549e-009 6
1.000000e+000:1 -3.003064e-002:2 4.539216e-006:3 -3.013013e-002:4 4.539216e-006:5 0.000000e+000:6 
#C 3.799549e-009 6
1.000000e+000:1 -3.088762e-002:2 4.503731e-006:3 -3.034369e-002:4 -5.236289e-007:5 0.000000e+000:6 
#C 3.839549e-009 6
1.000000e+000:1 -3.012179e-002:2 3.154109e-006:3 -3.053152e-002:4 -7.546292e-005:5 0.000000e+000:6 
#C 3.879549e-009 6
1.000000e+000:1 -2.801029e-002:2 -7.619922e-006:3 -3.018186e-002:4 -3.004433e-004:5 0.000000e+000:6 
#C 3.919549e-009 6
1.000000e+000:1 -2.633905e-002:2 -4.810944e-005:3 -2.883570e-002:4 -6.522581e-004:5 0.000000e+000:6 
#C 3.959549e-009 6
1.000000e+000:1 -2.108128e-002:2 -1.473869e-004:3 -2.668006e-002:4 -1.068177e-003:5 0.000000e+000:6 
#C 3.999549e-009 6
1.000000e+000:1 -7.247389e-003:2 -3.372348e-004:3 -2.230696e-002:4 -1.659717e-003:5 0.000000e+000:6 
#C 4.039549e-009 6
1.000000e+000:1 1.477586e-001:2 -6.585653e-004:3 1.808446e-003:4 -2.602919e-003:5 0.000000e+000:6 
#C 4.079549e-009 6
1.000000e+000:1 2.185517e-001:2 -1.170117e-003:3 8.273774e-002:4 -3.828691e-003:5 0.000000e+000:6 
#C 4.119549e-009 6
1.000000e+000:1 2.790157e-001:2 -1.940018e-003:3 1.819523e-001:4 -5.315130e-003:5 0.000000e+000:6 
#C 4.159549e-009 6
1.000000e+000:1 4.203369e-001:2 -3.041349e-003:3 2.741121e-001:4 -7.390821e-003:5 0.000000e+000:6 
#C 4.199549e-009 6
1.000000e+000:1 6.894103e-001:2 -4.567701e-003:3 3.988626e-001:4 -1.005180e-002:5 0.000000e+000:6 
#C 4.239549e-009 6
1.000000e+000:1 8.319816e-001:2 -6.620818e-003:3 5.892269e-001:4 -1.275012e-002:5 0.000000e+000:6 
#C 4.279549e-009 6
1.000000e+000:1 9.911905e-001:2 -9.261749e-003:3 7.843489e-001:4 -1.544762e-002:5 0.000000e+000:6 
#C 4.319549e-009 6
1.000000e+000:1 1.241383e+000:2 -1.250561e-002:3 9.717286e-001:4 -1.892615e-002:5 0.000000e+000:6 
#C 4.359549e-009 6
1.000000e+000:1 1.369950e+000:2 -1.638143e-002:3 1.169814e+000:4 -2.375608e-002:5 0.000000e+000:6 
#C 4.399549e-009 6
1.000000e+000:1 1.556467e+000:2 -2.097994e-002:3 1.348594e+000:4 -2.982718e-002:5 0.000000e+000:6 
#C 4.439549e-009 6
1.000000e+000:1 1.755104e+000:2 -2.642014e-002:3 1.522454e+000:4 -3.537113e-002:5 0.000000e+000:6 
#C 4.479549e-009 6
1.000000e+000:1 1.893328e+000:2 -3.268895e-002:3 1.701357e+000:4 -3.860988e-002:5 0.000000e+000:6 
#C 4.519549e-009 6
1.000000e+000:1 1.972813e+000:2 -3.949990e-002:3 1.857899e+000:4 -3.994915e-002:5 0.000000e+000:6 
#C 4.559549e-009 6
1.000000e+000:1 2.048277e+000:2 -4.634412e-002:3 1.969420e+000:4 -4.080851e-002:5 0.000000e+000:6 
#C 4.599549e-009 6
1.000000e+000:1 2.148203e+000:2 -5.265550e-002:3 2.049400e+000:4 -4.196547e-002:5 0.000000e+000:6 
#C 4.639549e-009 6
1.000000e+000:1 2.230661e+000:2 -5.793447e-002:3 2.126418e+000:4 -4.312851e-002:5 0.000000e+000:6 
#C 4.679549e-009 6
1.000000e+000:1 2.253298e+000:2 -6.178203e-002:3 2.199946e+000:4 -4.397224e-002:5 0.000000e+000:6 
#C 4.719549e-009 6
1.000000e+000:1 2.292806e+000:2 -6.390102e-002:3 2.251380e+000:4 -4.366592e-002:5 0.000000e+000:6 
#C 4.759549e-009 6
1.000000e+000:1 2.332645e+000:2 -6.397411e-002:3 2.287678e+000:4 -3.398876e-002:5 0.000000e+000:6 
#C 4.799549e-009 6
1.000000e+000:1 2.367911e+000:2 -6.062051e-002:3 2.320425e+000:4 1.979019e-002:5 0.000000e+000:6 
#C 4.839549e-009 6
1.000000e+000:1 2.385880e+000:2 -4.884455e-002:3 2.351663e+000:4 1.283876e-001:5 0.000000e+000:6 
#C 4.879549e-009 6
1.000000e+000:1 2.404892e+000:2 -1.985975e-002:3 2.376944e+000:4 2.522681e-001:5 0.000000e+000:6 
#C 4.919549e-009 6
1.000000e+000:1 2.425617e+000:2 3.533847e-002:3 2.396624e+000:4 3.828674e-001:5 0.000000e+000:6 
#C 4.959549e-009 6
1.000000e+000:1 2.446538e+000:2 1.245210e-001:3 2.414380e+000:4 5.607107e-001:5 0.000000e+000:6 
#C 4.999549e-009 6
1.000000e+000:1 2.455542e+000:2 2.562054e-001:3 2.432007e+000:4 7.862140e-001:5 0.000000e+000:6 
#C 5.039549e-009 6
1.000000e+000:1 2.461794e+000:2 4.387985e-001:3 2.446093e+000:4 1.015245e+000:5 0.000000e+000:6 
#C 5.079549e-009 6
1.000000e+000:1 2.470646e+000:2 6.767580e-001:3 2.455179e+000:4 1.246376e+000:5 0.000000e+000:6 
#C 5.119549e-009 6
1.000000e+000:1 2.478489e+000:2 9.693102e-001:3 2.461348e+000:4 1.473892e+000:5 0.000000e+000:6 
#C 5.159549e-009 6
1.000000e+000:1 2.482508e+000:2 1.310113e+000:3 2.465224e+000:4 1.694717e+000:5 0.000000e+000:6 
#C 5.199549e-009 6
1.000000e+000:1 2.483378e+000:2 1.687888e+000:3 2.467730e+000:4 1.931116e+000:5 1.000000e+000:6 
#C 5.239549e-009 6
1.000000e+000:1 2.486503e+000:2 2.089051e+000:3 2.470694e+000:4 2.186004e+000:5 1.000000e+000:6 
#C 5.279549e-009 6
1.000000e+000:1 2.488095e+000:2 2.499192e+000:3 2.474686e+000:4 2.434213e+000:5 1.000000e+000:6 
#C 5.319549e-009 6
1.000000e+000:1 2.489661e+000:2 2.902550e+000:3 2.477655e+000:4 2.661652e+000:5 1.000000e+000:6 
#C 5.359549e-009 6
1.000000e+000:1 2.489851e+000:2 3.282440e+000:3 2.478039e+000:4 2.886458e+000:5 1.000000e+000:6 
#C 5.399549e-009 6
1.000000e+000:1 2.490832e+000:2 3.624228e+000:3 2.476696e+000:4 3.129449e+000:5 1.000000e+000:6 
#C 5.439549e-009 6
1.000000e+000:1 2.489923e+000:2 3.918297e+000:3 2.474779e+000:4 3.380324e+000:5 1.000000e+000:6 
#C 5.479549e-009 6
1.000000e+000:1 2.488266e+000:2 4.159882e+000:3 2.466751e+000:4 3.621451e+000:5 1.000000e+000:6 
#C 5.519549e-009 6
1.000000e+000:1 2.482133e+000:2 4.344243e+000:3 2.440730e+000:4 3.849246e+000:5 1.000000e+000:6 
#C 5.559549e-009 6
1.000000e+000:1 2.472224e+000:2 4.465123e+000:3 2.438425e+000:4 4.062278e+000:5 1.000000e+000:6 
#C 5.599549e-009 6
1.000000e+000:1 2.471716e+000:2 4.532687e+000:3 2.483331e+000:4 4.251410e+000:5 1.000000e+000:6 
#C 5.639549e-009 6
1.000000e+000:1 2.483639e+000:2 4.563575e+000:3 2.512987e+000:4 4.406492e+000:5 1.000000e+000:6 
#C 5.679549e-009 6
1.000000e+000:1 2.494389e+000:2 4.574933e+000:3 2.493295e+000:4 4.524686e+000:5 1.000000e+000:6 
#C 5.719549e-009 6
1.000000e+000:1 2.496651e+000:2 4.579435e+000:3 2.495648e+000:4 4.609306e+000:5 1.000000e+000:6 
#C 5.759549e-009 6
1.000000e+000:1 2.506093e+000:2 4.585343e+000:3 2.544997e+000:4 4.664144e+000:5 1.000000e+000:6 
#C 5.799549e-009 6
1.000000e+000:1 2.524629e+000:2 4.596602e+000:3 2.581891e+000:4 4.692986e+000:5 1.000000e+000:6 
#C 5.839549e-009 6
1.000000e+000:1 2.547280e+000:2 4.613706e+000:3 2.614347e+000:4 4.703138e+000:5 1.000000e+000:6 
#C 5.879549e-009 6
1.000000e+000:1 2.573029e+000:2 4.634963e+000:3 2.648362e+000:4 4.703658e+000:5 1.000000e+000:6 
#C 5.919549e-009 6
1.000000e+000:1 2.600300e+000:2 4.657803e+000:3 2.681728e+000:4 4.700612e+000:5 1.000000e+000:6 
#C 5.959549e-009 6
1.000000e+000:1 2.632486e+000:2 4.679712e+000:3 2.748481e+000:4 4.697787e+000:5 1.000000e+000:6 
#C 5.999549e-009 6
1.000000e+000:1 2.678631e+000:2 4.698773e+000:3 2.862187e+000:4 4.698338e+000:5 1.000000e+000:6 
#C 6.039549e-009 6
1.000000e+000:1 2.742523e+000:2 4.713889e+000:3 2.985954e+000:4 4.703298e+000:5 1.000000e+000:6 
#C 6.079549e-009 6
1.000000e+000:1 2.817024e+000:2 4.724796e+000:3 3.085467e+000:4 4.710887e+000:5 1.000000e+000:6 
#C 6.119549e-009 6
1.000000e+000:1 2.892400e+000:2 4.732086e+000:3 3.177891e+000:4 4.718720e+000:5 1.000000e+000:6 
#C 6.159549e-009 6
1.000000e+000:1 2.971649e+000:2 4.736593e+000:3 3.296588e+000:4 4.726366e+000:5 1.000000e+000:6 
#C 6.199549e-009 6
1.000000e+000:1 3.058311e+000:2 4.739213e+000:3 3.425157e+000:4 4.735584e+000:5 1.000000e+000:6 
#C 6.239549e-009 6
1.000000e+000:1 3.148234e+000:2 4.740937e+000:3 3.529735e+000:4 4.746080e+000:5 1.000000e+000:6 
#C 6.279549e-009 6
1.000000e+000:1 3.234447e+000:2 4.742519e+000:3 3.603341e+000:4 4.743374e+000:5 1.000000e+000:6 
#C 6.319549e-009 6
1.000000e+000:1 3.313093e+000:2 4.743787e+000:3 3.653900e+000:4 4.742450e+000:5 1.000000e+000:6 
#C 6.359549e-009 6
1.000000e+000:1 3.382254e+000:2 4.744873e+000:3 3.681096e+000:4 4.762953e+000:5 1.000000e+000:6 
#C 6.399549e-009 6
1.000000e+000:1 3.440032e+000:2 4.747210e+000:3 3.680873e+000:4 4.780071e+000:5 1.000000e+000:6 
#C 6.439549e-009 6
1.000000e+000:1 3.484067e+000:2 4.751389e+000:3 3.658159e+000:4 4.762924e+000:5 1.000000e+000:6 
#C 6.479549e-009 6
1.000000e+000:1 3.513990e+000:2 4.755532e+000:3 3.626087e+000:4 4.743360e+000:5 1.000000e+000:6 
#C 6.519549e-009 6
1.000000e+000:1 3.531570e+000:2 4.757912e+000:3 3.593918e+000:4 4.744502e+000:5 1.000000e+000:6 
#C 6.559549e-009 6
1.000000e+000:1 3.540023e+000:2 4.758470e+000:3 3.563880e+000:4 4.738109e+000:5 1.000000e+000:6 
#C 6.599549e-009 6
1.000000e+000:1 3.541606e+000:2 4.757016e+000:3 3.538952e+000:4 4.723649e+000:5 1.000000e+000:6 
#C 6.639549e-009 6
1.000000e+000:1 3.539048e+000:2 4.752899e+000:3 3.523928e+000:4 4.703168e+000:5 1.000000e+000:6 
#C 6.679549e-009 6
1.000000e+000:1 3.535076e+000:2 4.745219e+000:3 3.518802e+000:4 4.670870e+000:5 1.000000e+000:6 
#C 6.719549e-009 6
1.000000e+000:1 3.531522e+000:2 4.732775e+000:3 3.520189e+000:4 4.637664e+000:5 1.000000e+000:6 
#C 6.759549e-009 6
1.000000e+000:1 3.529333e+000:2 4.714950e+000:3 3.526144e+000:4 4.611939e+000:5 1.000000e+000:6 
#C 6.799549e-009 6
1.000000e+000:1 3.528986e+000:2 4.692006e+000:3 3.535139e+000:4 4.577672e+000:5 1.000000e+000:6 
#C 6.839549e-009 6
1.000000e+000:1 3.530419e+000:2 4.663419e+000:3 3.543791e+000:4 4.512569e+000:5 1.000000e+000:6 
#C 6.879549e-009 6
