#H
SOURCE='IsSpice4'	VERSION='ver. 8.11-SI-1.0.3   10/6/2010'
TITLE='* Thu Sep 24 20:37:03 2015, Generated by: 010328058, Server: None, Windows, INSTALLED_SOFTWARE_VERSION: 2015.07 Build 6, Engine: 2015.07rc1, GUI: 2015.07rc1'
SUBTITLE='pc'
TIME='20:37:06' DATE='Sep 24, 2015' TEMPERATURE='298.15'
ANALYSIS='Trans'	SERIALNO='01234567'
ALLVALUES='NO' COMPLEXVALUES='NO' NODES='6'
SWEEPVAR='time' SWEEPMODE='VAR_STEP' DGTLDATA='NO'
XBEGIN='0.000000e+000' XEND='3.700000e-008'
FORMAT='0 VOLTSorAMPS;EFLOAT : NODEorBRANCH;NODE'
#N
'V(v_stimulus)'
'V(stload_sl_wopkg_!load)'
'V(stload_sl_wpkg_!load)'
'V(stload_sl_wopkg_!pad)'
'V(stload_sl_wpkg_!pad)'
'V(stload_sl_wpkg_!pin)'
#U
'Volts'
'Volts'
'Volts'
'Volts'
'Volts'
'Volts'
#C 0.000000e+000 6
0.000000e+000:1 7.333450e-001:2 7.358843e-001:3 7.333450e-001:4 7.313137e-001:5 7.358843e-001:6 
#C 2.560000e-011 6
0.000000e+000:1 7.333450e-001:2 7.358843e-001:3 7.333450e-001:4 7.313137e-001:5 7.358843e-001:6 
#C 5.440000e-011 6
0.000000e+000:1 7.333450e-001:2 7.358843e-001:3 7.333450e-001:4 7.313137e-001:5 7.358843e-001:6 
#C 8.320000e-011 6
0.000000e+000:1 7.333450e-001:2 7.358843e-001:3 7.333450e-001:4 7.313137e-001:5 7.358843e-001:6 
#C 1.088000e-010 6
0.000000e+000:1 7.333450e-001:2 7.358843e-001:3 7.333450e-001:4 7.313137e-001:5 7.358843e-001:6 
#C 1.600000e-010 6
0.000000e+000:1 7.333450e-001:2 7.358843e-001:3 7.333450e-001:4 7.313137e-001:5 7.358843e-001:6 
#C 2.624000e-010 6
0.000000e+000:1 7.333450e-001:2 7.358843e-001:3 7.333450e-001:4 7.313137e-001:5 7.358843e-001:6 
#C 4.672000e-010 6
0.000000e+000:1 7.333450e-001:2 7.358843e-001:3 7.333450e-001:4 7.313137e-001:5 7.358843e-001:6 
#C 8.768000e-010 6
0.000000e+000:1 7.333450e-001:2 7.358843e-001:3 7.333450e-001:4 7.313137e-001:5 7.358843e-001:6 
#C 9.016303e-010 6
0.000000e+000:1 7.333450e-001:2 7.358843e-001:3 7.333450e-001:4 7.313137e-001:5 7.358843e-001:6 
#C 9.264606e-010 6
0.000000e+000:1 7.333450e-001:2 7.358843e-001:3 7.333450e-001:4 7.313137e-001:5 7.358843e-001:6 
#C 9.761211e-010 6
0.000000e+000:1 7.333450e-001:2 7.358843e-001:3 7.333450e-001:4 7.313137e-001:5 7.358843e-001:6 
#C 1.075442e-009 6
0.000000e+000:1 7.333450e-001:2 7.358843e-001:3 7.333450e-001:4 7.313137e-001:5 7.358843e-001:6 
#C 1.100273e-009 6
0.000000e+000:1 7.333450e-001:2 7.358843e-001:3 7.333450e-001:4 7.313137e-001:5 7.358843e-001:6 
#C 1.130612e-009 6
0.000000e+000:1 7.333450e-001:2 7.358843e-001:3 7.333450e-001:4 7.313137e-001:5 7.358843e-001:6 
#C 1.160951e-009 6
0.000000e+000:1 7.333450e-001:2 7.358843e-001:3 7.333450e-001:4 7.313137e-001:5 7.358843e-001:6 
#C 1.189933e-009 6
0.000000e+000:1 7.333450e-001:2 7.358843e-001:3 7.333450e-001:4 7.313137e-001:5 7.358843e-001:6 
#C 1.210612e-009 6
0.000000e+000:1 7.333450e-001:2 7.358843e-001:3 7.333450e-001:4 7.313137e-001:5 7.358843e-001:6 
#C 1.250612e-009 6
0.000000e+000:1 7.333450e-001:2 7.358843e-001:3 7.333450e-001:4 7.313137e-001:5 7.358843e-001:6 
#C 1.290612e-009 6
0.000000e+000:1 7.333450e-001:2 7.358843e-001:3 7.333450e-001:4 7.313137e-001:5 7.358843e-001:6 
#C 1.330612e-009 6
0.000000e+000:1 7.333450e-001:2 7.358843e-001:3 7.333450e-001:4 7.313137e-001:5 7.358843e-001:6 
#C 1.370612e-009 6
0.000000e+000:1 7.333450e-001:2 7.358843e-001:3 7.333450e-001:4 7.313137e-001:5 7.358843e-001:6 
#C 1.410612e-009 6
0.000000e+000:1 7.333450e-001:2 7.358843e-001:3 7.333450e-001:4 7.313137e-001:5 7.358843e-001:6 
#C 1.450612e-009 6
0.000000e+000:1 7.333450e-001:2 7.358843e-001:3 7.333450e-001:4 7.313137e-001:5 7.358843e-001:6 
#C 1.490612e-009 6
0.000000e+000:1 7.333450e-001:2 7.358843e-001:3 7.333450e-001:4 7.313137e-001:5 7.358843e-001:6 
#C 1.530612e-009 6
0.000000e+000:1 7.333450e-001:2 7.358843e-001:3 7.333450e-001:4 7.313137e-001:5 7.358843e-001:6 
#C 1.570612e-009 6
0.000000e+000:1 7.333450e-001:2 7.358843e-001:3 7.333450e-001:4 7.313137e-001:5 7.358843e-001:6 
#C 1.610612e-009 6
0.000000e+000:1 7.333450e-001:2 7.358843e-001:3 7.333450e-001:4 7.313137e-001:5 7.358843e-001:6 
#C 1.650612e-009 6
0.000000e+000:1 7.333450e-001:2 7.358843e-001:3 7.333450e-001:4 7.313137e-001:5 7.358843e-001:6 
#C 1.690612e-009 6
0.000000e+000:1 7.333450e-001:2 7.358843e-001:3 7.333450e-001:4 7.313137e-001:5 7.358843e-001:6 
#C 1.730612e-009 6
0.000000e+000:1 7.333450e-001:2 7.358843e-001:3 7.333450e-001:4 7.313137e-001:5 7.358843e-001:6 
#C 1.770612e-009 6
0.000000e+000:1 7.333450e-001:2 7.358843e-001:3 7.333450e-001:4 7.313137e-001:5 7.358843e-001:6 
#C 1.810612e-009 6
0.000000e+000:1 7.333450e-001:2 7.358843e-001:3 7.333450e-001:4 7.313137e-001:5 7.358843e-001:6 
#C 1.850612e-009 6
0.000000e+000:1 7.333450e-001:2 7.358843e-001:3 7.333450e-001:4 7.313137e-001:5 7.358843e-001:6 
#C 1.890612e-009 6
0.000000e+000:1 7.333450e-001:2 7.358843e-001:3 7.333450e-001:4 7.313137e-001:5 7.358843e-001:6 
#C 1.930612e-009 6
0.000000e+000:1 7.333450e-001:2 7.358843e-001:3 7.333450e-001:4 7.313137e-001:5 7.358843e-001:6 
#C 1.970612e-009 6
0.000000e+000:1 7.333450e-001:2 7.358843e-001:3 7.333450e-001:4 7.313137e-001:5 7.358843e-001:6 
#C 2.010612e-009 6
0.000000e+000:1 7.333450e-001:2 7.358843e-001:3 7.333450e-001:4 7.313137e-001:5 7.358843e-001:6 
#C 2.050612e-009 6
0.000000e+000:1 7.333450e-001:2 7.358843e-001:3 7.333450e-001:4 7.313137e-001:5 7.358843e-001:6 
#C 2.090612e-009 6
0.000000e+000:1 7.333450e-001:2 7.358843e-001:3 7.333450e-001:4 7.313137e-001:5 7.358843e-001:6 
#C 2.130612e-009 6
0.000000e+000:1 7.333450e-001:2 7.358843e-001:3 7.333450e-001:4 7.313137e-001:5 7.358843e-001:6 
#C 2.170612e-009 6
0.000000e+000:1 7.333450e-001:2 7.358843e-001:3 7.333450e-001:4 7.313137e-001:5 7.358843e-001:6 
#C 2.210612e-009 6
0.000000e+000:1 7.333450e-001:2 7.358843e-001:3 7.333450e-001:4 7.313137e-001:5 7.358843e-001:6 
#C 2.250612e-009 6
0.000000e+000:1 7.333450e-001:2 7.358843e-001:3 7.333450e-001:4 7.313137e-001:5 7.358843e-001:6 
#C 2.290612e-009 6
0.000000e+000:1 7.333450e-001:2 7.358843e-001:3 7.333450e-001:4 7.313137e-001:5 7.358843e-001:6 
#C 2.330612e-009 6
0.000000e+000:1 7.333450e-001:2 7.358843e-001:3 7.333450e-001:4 7.313137e-001:5 7.358843e-001:6 
#C 2.370612e-009 6
0.000000e+000:1 7.333450e-001:2 7.358843e-001:3 7.333450e-001:4 7.313137e-001:5 7.358843e-001:6 
#C 2.410612e-009 6
0.000000e+000:1 7.333450e-001:2 7.358843e-001:3 7.333450e-001:4 7.313137e-001:5 7.358843e-001:6 
#C 2.450612e-009 6
0.000000e+000:1 7.333450e-001:2 7.358843e-001:3 7.333450e-001:4 7.313137e-001:5 7.358843e-001:6 
#C 2.490612e-009 6
0.000000e+000:1 7.333450e-001:2 7.358843e-001:3 7.333450e-001:4 7.313137e-001:5 7.358843e-001:6 
#C 2.530612e-009 6
0.000000e+000:1 7.333450e-001:2 7.358843e-001:3 7.333450e-001:4 7.313137e-001:5 7.358843e-001:6 
#C 2.570612e-009 6
0.000000e+000:1 7.333450e-001:2 7.358843e-001:3 7.333450e-001:4 7.313137e-001:5 7.358843e-001:6 
#C 2.610612e-009 6
0.000000e+000:1 7.333450e-001:2 7.358843e-001:3 7.333450e-001:4 7.313137e-001:5 7.358843e-001:6 
#C 2.650612e-009 6
0.000000e+000:1 7.333450e-001:2 7.358843e-001:3 7.333450e-001:4 7.313137e-001:5 7.358843e-001:6 
#C 2.690612e-009 6
0.000000e+000:1 7.333450e-001:2 7.358843e-001:3 7.333450e-001:4 7.313137e-001:5 7.358843e-001:6 
#C 2.730612e-009 6
0.000000e+000:1 7.333450e-001:2 7.358843e-001:3 7.333450e-001:4 7.313137e-001:5 7.358843e-001:6 
#C 2.770612e-009 6
0.000000e+000:1 7.333450e-001:2 7.358843e-001:3 7.333450e-001:4 7.313137e-001:5 7.358843e-001:6 
#C 2.810612e-009 6
0.000000e+000:1 7.333450e-001:2 7.358843e-001:3 7.333450e-001:4 7.313137e-001:5 7.358843e-001:6 
#C 2.850612e-009 6
0.000000e+000:1 7.333450e-001:2 7.358843e-001:3 7.333450e-001:4 7.313137e-001:5 7.358843e-001:6 
#C 2.890612e-009 6
0.000000e+000:1 7.333450e-001:2 7.358843e-001:3 7.333450e-001:4 7.313137e-001:5 7.358843e-001:6 
#C 2.930612e-009 6
0.000000e+000:1 7.333450e-001:2 7.358843e-001:3 7.333450e-001:4 7.313137e-001:5 7.358843e-001:6 
#C 2.970612e-009 6
0.000000e+000:1 7.333450e-001:2 7.358843e-001:3 7.333450e-001:4 7.313137e-001:5 7.358843e-001:6 
#C 3.010612e-009 6
0.000000e+000:1 7.333450e-001:2 7.358843e-001:3 7.333450e-001:4 7.313137e-001:5 7.358843e-001:6 
#C 3.050612e-009 6
0.000000e+000:1 7.333450e-001:2 7.358843e-001:3 7.333450e-001:4 7.313137e-001:5 7.358843e-001:6 
#C 3.090612e-009 6
0.000000e+000:1 7.333450e-001:2 7.358843e-001:3 7.333450e-001:4 7.313137e-001:5 7.358843e-001:6 
#C 3.130612e-009 6
0.000000e+000:1 7.333450e-001:2 7.358843e-001:3 7.333450e-001:4 7.313137e-001:5 7.358843e-001:6 
#C 3.170612e-009 6
0.000000e+000:1 7.333450e-001:2 7.358843e-001:3 7.333450e-001:4 7.313137e-001:5 7.358843e-001:6 
#C 3.210612e-009 6
0.000000e+000:1 7.333450e-001:2 7.358843e-001:3 7.333450e-001:4 7.313137e-001:5 7.358843e-001:6 
#C 3.250612e-009 6
0.000000e+000:1 7.333450e-001:2 7.358843e-001:3 7.333450e-001:4 7.313137e-001:5 7.358843e-001:6 
#C 3.290612e-009 6
0.000000e+000:1 7.333450e-001:2 7.358843e-001:3 7.333450e-001:4 7.313137e-001:5 7.358843e-001:6 
#C 3.330612e-009 6
0.000000e+000:1 7.333450e-001:2 7.358843e-001:3 7.333450e-001:4 7.313137e-001:5 7.358843e-001:6 
#C 3.370612e-009 6
0.000000e+000:1 7.333450e-001:2 7.358843e-001:3 7.333450e-001:4 7.313137e-001:5 7.358843e-001:6 
#C 3.410612e-009 6
0.000000e+000:1 7.333450e-001:2 7.358843e-001:3 7.333450e-001:4 7.313137e-001:5 7.358843e-001:6 
#C 3.450612e-009 6
0.000000e+000:1 7.333450e-001:2 7.358843e-001:3 7.333450e-001:4 7.313137e-001:5 7.358843e-001:6 
#C 3.490612e-009 6
0.000000e+000:1 7.333450e-001:2 7.358843e-001:3 7.333450e-001:4 7.313137e-001:5 7.358843e-001:6 
#C 3.530612e-009 6
0.000000e+000:1 7.333450e-001:2 7.358843e-001:3 7.333450e-001:4 7.313137e-001:5 7.358843e-001:6 
#C 3.570612e-009 6
0.000000e+000:1 7.333450e-001:2 7.358843e-001:3 7.333450e-001:4 7.313137e-001:5 7.358843e-001:6 
#C 3.610612e-009 6
0.000000e+000:1 7.333450e-001:2 7.358843e-001:3 7.333450e-001:4 7.313137e-001:5 7.358843e-001:6 
#C 3.650612e-009 6
0.000000e+000:1 7.333450e-001:2 7.358843e-001:3 7.333450e-001:4 7.313137e-001:5 7.358843e-001:6 
#C 3.690612e-009 6
0.000000e+000:1 7.333450e-001:2 7.358843e-001:3 7.333450e-001:4 7.313137e-001:5 7.358843e-001:6 
#C 3.730612e-009 6
0.000000e+000:1 7.333450e-001:2 7.358843e-001:3 7.333450e-001:4 7.313137e-001:5 7.358843e-001:6 
#C 3.770612e-009 6
0.000000e+000:1 7.333450e-001:2 7.358843e-001:3 7.333450e-001:4 7.313137e-001:5 7.358843e-001:6 
#C 3.810612e-009 6
0.000000e+000:1 7.333450e-001:2 7.358843e-001:3 7.333450e-001:4 7.313137e-001:5 7.358843e-001:6 
#C 3.850612e-009 6
0.000000e+000:1 7.333450e-001:2 7.358843e-001:3 7.333450e-001:4 7.313137e-001:5 7.358843e-001:6 
#C 3.890612e-009 6
0.000000e+000:1 7.333450e-001:2 7.358843e-001:3 7.333450e-001:4 7.313137e-001:5 7.358843e-001:6 
#C 3.930612e-009 6
0.000000e+000:1 7.333450e-001:2 7.358843e-001:3 7.333450e-001:4 7.313137e-001:5 7.358843e-001:6 
#C 3.970612e-009 6
0.000000e+000:1 7.333450e-001:2 7.358843e-001:3 7.333450e-001:4 7.313137e-001:5 7.358843e-001:6 
#C 4.010612e-009 6
0.000000e+000:1 7.333450e-001:2 7.358843e-001:3 7.333450e-001:4 7.313137e-001:5 7.358843e-001:6 
#C 4.050612e-009 6
0.000000e+000:1 7.333450e-001:2 7.358843e-001:3 7.333450e-001:4 7.313137e-001:5 7.358843e-001:6 
#C 4.090612e-009 6
0.000000e+000:1 7.333450e-001:2 7.358843e-001:3 7.333450e-001:4 7.313137e-001:5 7.358843e-001:6 
#C 4.130612e-009 6
0.000000e+000:1 7.333450e-001:2 7.358843e-001:3 7.333450e-001:4 7.313137e-001:5 7.358843e-001:6 
#C 4.170612e-009 6
0.000000e+000:1 7.333450e-001:2 7.358843e-001:3 7.333450e-001:4 7.313137e-001:5 7.358843e-001:6 
#C 4.210612e-009 6
0.000000e+000:1 7.333450e-001:2 7.358843e-001:3 7.333450e-001:4 7.313137e-001:5 7.358843e-001:6 
#C 4.250612e-009 6
0.000000e+000:1 7.333450e-001:2 7.358843e-001:3 7.333450e-001:4 7.313137e-001:5 7.358843e-001:6 
#C 4.290612e-009 6
0.000000e+000:1 7.333450e-001:2 7.358843e-001:3 7.333450e-001:4 7.313137e-001:5 7.358843e-001:6 
#C 4.330612e-009 6
0.000000e+000:1 7.333450e-001:2 7.358843e-001:3 7.333450e-001:4 7.313137e-001:5 7.358843e-001:6 
#C 4.370612e-009 6
0.000000e+000:1 7.333450e-001:2 7.358843e-001:3 7.333450e-001:4 7.313137e-001:5 7.358843e-001:6 
#C 4.410612e-009 6
0.000000e+000:1 7.333450e-001:2 7.358843e-001:3 7.333450e-001:4 7.313137e-001:5 7.358843e-001:6 
#C 4.450612e-009 6
0.000000e+000:1 7.333450e-001:2 7.358843e-001:3 7.333450e-001:4 7.313137e-001:5 7.358843e-001:6 
#C 4.490612e-009 6
0.000000e+000:1 7.333450e-001:2 7.358843e-001:3 7.333450e-001:4 7.313137e-001:5 7.358843e-001:6 
#C 4.530612e-009 6
0.000000e+000:1 7.333450e-001:2 7.358843e-001:3 7.333450e-001:4 7.313137e-001:5 7.358843e-001:6 
#C 4.570612e-009 6
0.000000e+000:1 7.333450e-001:2 7.358843e-001:3 7.333450e-001:4 7.313137e-001:5 7.358843e-001:6 
#C 4.610612e-009 6
0.000000e+000:1 7.333450e-001:2 7.358843e-001:3 7.333450e-001:4 7.313137e-001:5 7.358843e-001:6 
#C 4.650612e-009 6
0.000000e+000:1 7.333450e-001:2 7.358843e-001:3 7.333450e-001:4 7.313137e-001:5 7.358843e-001:6 
#C 4.690612e-009 6
0.000000e+000:1 7.333450e-001:2 7.358843e-001:3 7.333450e-001:4 7.313137e-001:5 7.358843e-001:6 
#C 4.730612e-009 6
0.000000e+000:1 7.333450e-001:2 7.358843e-001:3 7.333450e-001:4 7.313137e-001:5 7.358843e-001:6 
#C 4.770612e-009 6
0.000000e+000:1 7.333450e-001:2 7.358843e-001:3 7.333450e-001:4 7.313137e-001:5 7.358843e-001:6 
#C 4.810612e-009 6
0.000000e+000:1 7.333450e-001:2 7.358843e-001:3 7.333450e-001:4 7.313137e-001:5 7.358843e-001:6 
#C 4.850612e-009 6
0.000000e+000:1 7.333450e-001:2 7.358843e-001:3 7.333450e-001:4 7.313137e-001:5 7.358843e-001:6 
#C 4.890612e-009 6
0.000000e+000:1 7.333450e-001:2 7.358843e-001:3 7.333450e-001:4 7.313137e-001:5 7.358843e-001:6 
#C 4.930612e-009 6
0.000000e+000:1 7.333450e-001:2 7.358843e-001:3 7.333450e-001:4 7.313137e-001:5 7.358843e-001:6 
#C 4.970612e-009 6
0.000000e+000:1 7.333450e-001:2 7.358843e-001:3 7.333450e-001:4 7.313137e-001:5 7.358843e-001:6 
#C 5.010612e-009 6
0.000000e+000:1 7.333450e-001:2 7.358843e-001:3 7.333450e-001:4 7.313137e-001:5 7.358843e-001:6 
#C 5.050612e-009 6
0.000000e+000:1 7.333450e-001:2 7.358843e-001:3 7.333450e-001:4 7.313137e-001:5 7.358843e-001:6 
#C 5.090612e-009 6
0.000000e+000:1 7.333450e-001:2 7.358843e-001:3 7.333450e-001:4 7.313137e-001:5 7.358843e-001:6 
#C 5.130612e-009 6
0.000000e+000:1 7.333450e-001:2 7.358843e-001:3 7.333450e-001:4 7.313137e-001:5 7.358843e-001:6 
#C 5.170612e-009 6
0.000000e+000:1 7.333450e-001:2 7.358843e-001:3 7.333450e-001:4 7.313137e-001:5 7.358843e-001:6 
#C 5.210612e-009 6
0.000000e+000:1 7.333450e-001:2 7.358843e-001:3 7.333450e-001:4 7.313137e-001:5 7.358843e-001:6 
#C 5.250612e-009 6
0.000000e+000:1 7.333450e-001:2 7.358843e-001:3 7.333450e-001:4 7.313137e-001:5 7.358843e-001:6 
#C 5.290612e-009 6
0.000000e+000:1 7.333450e-001:2 7.358843e-001:3 7.333450e-001:4 7.313137e-001:5 7.358843e-001:6 
#C 5.330612e-009 6
0.000000e+000:1 7.333450e-001:2 7.358843e-001:3 7.333450e-001:4 7.313137e-001:5 7.358843e-001:6 
#C 5.370612e-009 6
0.000000e+000:1 7.333450e-001:2 7.358843e-001:3 7.333450e-001:4 7.313137e-001:5 7.358843e-001:6 
#C 5.410612e-009 6
0.000000e+000:1 7.333450e-001:2 7.358843e-001:3 7.333450e-001:4 7.313137e-001:5 7.358843e-001:6 
#C 5.450612e-009 6
0.000000e+000:1 7.333450e-001:2 7.358843e-001:3 7.333450e-001:4 7.313137e-001:5 7.358843e-001:6 
#C 5.490612e-009 6
0.000000e+000:1 7.333450e-001:2 7.358843e-001:3 7.333450e-001:4 7.313137e-001:5 7.358843e-001:6 
#C 5.530612e-009 6
0.000000e+000:1 7.333450e-001:2 7.358843e-001:3 7.333450e-001:4 7.313137e-001:5 7.358843e-001:6 
#C 5.570612e-009 6
0.000000e+000:1 7.333450e-001:2 7.358843e-001:3 7.333450e-001:4 7.313137e-001:5 7.358843e-001:6 
#C 5.610612e-009 6
0.000000e+000:1 7.333450e-001:2 7.358843e-001:3 7.333450e-001:4 7.313137e-001:5 7.358843e-001:6 
#C 5.650612e-009 6
0.000000e+000:1 7.333450e-001:2 7.358843e-001:3 7.333450e-001:4 7.313137e-001:5 7.358843e-001:6 
#C 5.690612e-009 6
0.000000e+000:1 7.333450e-001:2 7.358843e-001:3 7.333450e-001:4 7.313137e-001:5 7.358843e-001:6 
#C 5.730612e-009 6
0.000000e+000:1 7.333450e-001:2 7.358843e-001:3 7.333450e-001:4 7.313137e-001:5 7.358843e-001:6 
#C 5.770612e-009 6
0.000000e+000:1 7.333450e-001:2 7.358843e-001:3 7.333450e-001:4 7.313137e-001:5 7.358843e-001:6 
#C 5.810612e-009 6
0.000000e+000:1 7.333450e-001:2 7.358843e-001:3 7.333450e-001:4 7.313137e-001:5 7.358843e-001:6 
#C 5.850612e-009 6
0.000000e+000:1 7.333450e-001:2 7.358843e-001:3 7.333450e-001:4 7.313137e-001:5 7.358843e-001:6 
#C 5.890612e-009 6
0.000000e+000:1 7.333450e-001:2 7.358843e-001:3 7.333450e-001:4 7.313137e-001:5 7.358843e-001:6 
#C 5.930612e-009 6
0.000000e+000:1 7.333450e-001:2 7.358843e-001:3 7.333450e-001:4 7.313137e-001:5 7.358843e-001:6 
#C 5.970612e-009 6
0.000000e+000:1 7.333450e-001:2 7.358843e-001:3 7.333450e-001:4 7.313137e-001:5 7.358843e-001:6 
#C 6.000000e-009 6
0.000000e+000:1 7.333450e-001:2 7.358843e-001:3 7.333450e-001:4 7.313137e-001:5 7.358843e-001:6 
#C 6.031018e-009 6
3.845937e-002:1 7.333450e-001:2 7.358843e-001:3 7.333450e-001:4 7.313137e-001:5 7.358843e-001:6 
#C 6.071018e-009 6
8.805506e-002:1 7.333450e-001:2 7.358843e-001:3 7.333450e-001:4 7.313137e-001:5 7.358843e-001:6 
#C 6.095849e-009 6
1.188419e-001:1 7.333450e-001:2 7.358843e-001:3 7.333450e-001:4 7.313137e-001:5 7.358843e-001:6 
#C 6.126188e-009 6
1.564596e-001:1 7.333450e-001:2 7.358843e-001:3 7.333450e-001:4 7.313137e-001:5 7.358843e-001:6 
#C 6.151018e-009 6
1.872464e-001:1 7.333450e-001:2 7.358843e-001:3 7.333450e-001:4 7.313137e-001:5 7.358843e-001:6 
#C 6.175849e-009 6
2.180333e-001:1 7.333450e-001:2 7.358843e-001:3 7.333450e-001:4 7.313137e-001:5 7.358843e-001:6 
#C 6.200679e-009 6
2.488202e-001:1 7.333450e-001:2 7.358843e-001:3 7.333450e-001:4 7.313137e-001:5 7.358843e-001:6 
#C 6.221358e-009 6
2.744598e-001:1 7.333450e-001:2 7.358843e-001:3 7.333450e-001:4 7.313137e-001:5 7.358843e-001:6 
#C 6.262091e-009 6
3.249641e-001:1 7.333450e-001:2 7.358843e-001:3 7.333450e-001:4 7.313137e-001:5 7.358843e-001:6 
#C 6.286921e-009 6
3.557510e-001:1 7.333450e-001:2 7.358843e-001:3 7.333450e-001:4 7.313137e-001:5 7.358843e-001:6 
#C 6.311751e-009 6
3.865379e-001:1 7.333450e-001:2 7.358843e-001:3 7.333450e-001:4 7.313137e-001:5 7.358843e-001:6 
#C 6.336581e-009 6
4.173247e-001:1 7.333450e-001:2 7.358843e-001:3 7.333450e-001:4 7.313137e-001:5 7.358843e-001:6 
#C 6.371000e-009 6
4.600000e-001:1 7.333450e-001:2 7.358843e-001:3 7.333450e-001:4 7.313137e-001:5 7.358843e-001:6 
#C 6.394320e-009 6
5.601806e-001:1 7.400654e-001:2 7.359758e-001:3 7.400654e-001:4 7.383838e-001:5 7.359757e-001:6 
#C 6.434320e-009 6
6.096430e-001:1 7.664307e-001:2 7.388549e-001:3 7.664306e-001:4 7.679086e-001:5 7.388549e-001:6 
#C 6.459150e-009 6
6.403471e-001:1 7.927029e-001:2 7.445244e-001:3 7.927029e-001:4 7.978429e-001:5 7.445244e-001:6 
#C 6.483981e-009 6
6.710512e-001:1 8.277914e-001:2 7.552025e-001:3 8.277914e-001:4 8.377794e-001:5 7.552024e-001:6 
#C 6.523981e-009 6
7.205136e-001:1 9.042432e-001:2 7.869054e-001:3 9.042432e-001:4 9.239687e-001:5 7.869054e-001:6 
#C 6.563981e-009 6
7.699760e-001:1 1.002486e+000:2 8.409944e-001:3 1.002486e+000:4 1.033106e+000:5 8.409944e-001:6 
#C 6.603981e-009 6
8.194383e-001:1 1.113963e+000:2 9.196363e-001:3 1.113963e+000:4 1.154174e+000:5 9.196363e-001:6 
#C 6.643981e-009 6
8.689007e-001:1 1.233195e+000:2 1.020428e+000:3 1.233195e+000:4 1.279773e+000:5 1.020428e+000:6 
#C 6.683981e-009 6
9.183631e-001:1 1.357200e+000:2 1.137640e+000:3 1.357200e+000:4 1.406462e+000:5 1.137640e+000:6 
#C 6.723981e-009 6
9.678254e-001:1 1.483904e+000:2 1.264607e+000:3 1.483904e+000:4 1.532992e+000:5 1.264607e+000:6 
#C 6.750000e-009 6
1.000000e+000:1 1.567186e+000:2 1.349702e+000:3 1.567186e+000:4 1.615258e+000:5 1.349702e+000:6 
#C 6.781018e-009 6
1.000000e+000:1 1.666991e+000:2 1.451854e+000:3 1.666991e+000:4 1.713502e+000:5 1.451854e+000:6 
#C 6.814105e-009 6
1.000000e+000:1 1.773928e+000:2 1.560455e+000:3 1.773928e+000:4 1.818888e+000:5 1.560455e+000:6 
#C 6.837561e-009 6
1.000000e+000:1 1.849914e+000:2 1.636916e+000:3 1.849914e+000:4 1.894027e+000:5 1.636916e+000:6 
#C 6.862392e-009 6
1.000000e+000:1 1.930530e+000:2 1.717336e+000:3 1.930530e+000:4 1.974039e+000:5 1.717336e+000:6 
#C 6.887222e-009 6
