#H
SOURCE='IsSpice4'	VERSION='ver. 8.11-SI-1.0.3   10/6/2010'
TITLE='* Thu Oct 29 20:49:59 2015, Generated by: 010328058, Server: None, Windows, INSTALLED_SOFTWARE_VERSION: 2015.07 Build 6, Engine: 2015.07rc1, GUI: 2015.07rc1'
SUBTITLE='pc'
TIME='20:51:05' DATE='Oct 29, 2015' TEMPERATURE='273.15'
ANALYSIS='Trans'	SERIALNO='01234567'
ALLVALUES='NO' COMPLEXVALUES='NO' NODES='9'
SWEEPVAR='time' SWEEPMODE='VAR_STEP' DGTLDATA='NO'
XBEGIN='0.000000e+000' XEND='2.590000e-007'
FORMAT='0 VOLTSorAMPS;EFLOAT : NODEorBRANCH;NODE'
#N
'V(v_stimulus)'
'V(controller_pad)'
'V(io0_pad)'
'V(io1_pad)'
'V(controller_pin)'
'V(io0_pin)'
'V(io1_pin)'
'V(io0_z)'
'V(io1_z)'
#U
'Volts'
'Volts'
'Volts'
'Volts'
'Volts'
'Volts'
'Volts'
'Volts'
'Volts'
#C 0.000000e+000 9
0.000000e+000:1 1.035774e-004:2 1.035765e-004:3 1.035765e-004:4 1.035768e-004:5 1.035768e-004:6 
1.035768e-004:7 0.000000e+000:8 0.000000e+000:9 
#C 2.560000e-011 9
0.000000e+000:1 1.035774e-004:2 1.035765e-004:3 1.035765e-004:4 1.035768e-004:5 1.035768e-004:6 
1.035768e-004:7 0.000000e+000:8 0.000000e+000:9 
#C 5.440000e-011 9
0.000000e+000:1 1.035774e-004:2 1.035765e-004:3 1.035765e-004:4 1.035768e-004:5 1.035768e-004:6 
1.035768e-004:7 0.000000e+000:8 0.000000e+000:9 
#C 8.320000e-011 9
0.000000e+000:1 1.035774e-004:2 1.035765e-004:3 1.035765e-004:4 1.035768e-004:5 1.035768e-004:6 
1.035768e-004:7 0.000000e+000:8 0.000000e+000:9 
#C 1.088000e-010 9
0.000000e+000:1 1.035774e-004:2 1.035765e-004:3 1.035765e-004:4 1.035768e-004:5 1.035768e-004:6 
1.035768e-004:7 0.000000e+000:8 0.000000e+000:9 
#C 1.600000e-010 9
0.000000e+000:1 1.035774e-004:2 1.035765e-004:3 1.035765e-004:4 1.035768e-004:5 1.035768e-004:6 
1.035768e-004:7 0.000000e+000:8 0.000000e+000:9 
#C 2.289426e-010 9
0.000000e+000:1 1.035774e-004:2 1.035765e-004:3 1.035765e-004:4 1.035768e-004:5 1.035768e-004:6 
1.035768e-004:7 0.000000e+000:8 0.000000e+000:9 
#C 2.978851e-010 9
0.000000e+000:1 1.035774e-004:2 1.035765e-004:3 1.035765e-004:4 1.035768e-004:5 1.035768e-004:6 
1.035768e-004:7 0.000000e+000:8 0.000000e+000:9 
#C 3.668277e-010 9
0.000000e+000:1 1.035774e-004:2 1.035765e-004:3 1.035765e-004:4 1.035768e-004:5 1.035768e-004:6 
1.035768e-004:7 0.000000e+000:8 0.000000e+000:9 
#C 4.357702e-010 9
0.000000e+000:1 1.035774e-004:2 1.035765e-004:3 1.035765e-004:4 1.035768e-004:5 1.035768e-004:6 
1.035768e-004:7 0.000000e+000:8 0.000000e+000:9 
#C 5.047128e-010 9
0.000000e+000:1 1.035774e-004:2 1.035765e-004:3 1.035765e-004:4 1.035768e-004:5 1.035768e-004:6 
1.035768e-004:7 0.000000e+000:8 0.000000e+000:9 
#C 5.736553e-010 9
0.000000e+000:1 1.035774e-004:2 1.035765e-004:3 1.035765e-004:4 1.035768e-004:5 1.035768e-004:6 
1.035768e-004:7 0.000000e+000:8 0.000000e+000:9 
#C 6.425979e-010 9
0.000000e+000:1 1.035774e-004:2 1.035765e-004:3 1.035765e-004:4 1.035768e-004:5 1.035768e-004:6 
1.035768e-004:7 0.000000e+000:8 0.000000e+000:9 
#C 7.115404e-010 9
0.000000e+000:1 1.035774e-004:2 1.035765e-004:3 1.035765e-004:4 1.035768e-004:5 1.035768e-004:6 
1.035768e-004:7 0.000000e+000:8 0.000000e+000:9 
#C 7.804830e-010 9
0.000000e+000:1 1.035774e-004:2 1.035765e-004:3 1.035765e-004:4 1.035768e-004:5 1.035768e-004:6 
1.035768e-004:7 0.000000e+000:8 0.000000e+000:9 
#C 8.494255e-010 9
0.000000e+000:1 1.035774e-004:2 1.035765e-004:3 1.035765e-004:4 1.035768e-004:5 1.035768e-004:6 
1.035768e-004:7 0.000000e+000:8 0.000000e+000:9 
#C 8.711520e-010 9
0.000000e+000:1 1.035774e-004:2 1.035765e-004:3 1.035765e-004:4 1.035768e-004:5 1.035768e-004:6 
1.035768e-004:7 0.000000e+000:8 0.000000e+000:9 
#C 8.928785e-010 9
0.000000e+000:1 1.035774e-004:2 1.035765e-004:3 1.035765e-004:4 1.035768e-004:5 1.035768e-004:6 
1.035768e-004:7 0.000000e+000:8 0.000000e+000:9 
#C 9.363315e-010 9
0.000000e+000:1 1.035774e-004:2 1.035765e-004:3 1.035765e-004:4 1.035768e-004:5 1.035768e-004:6 
1.035768e-004:7 0.000000e+000:8 0.000000e+000:9 
#C 1.005274e-009 9
0.000000e+000:1 1.035774e-004:2 1.035765e-004:3 1.035765e-004:4 1.035768e-004:5 1.035768e-004:6 
1.035768e-004:7 0.000000e+000:8 0.000000e+000:9 
#C 1.027001e-009 9
0.000000e+000:1 1.035774e-004:2 1.035765e-004:3 1.035765e-004:4 1.035768e-004:5 1.035768e-004:6 
1.035768e-004:7 0.000000e+000:8 0.000000e+000:9 
#C 1.048727e-009 9
0.000000e+000:1 1.035774e-004:2 1.035765e-004:3 1.035765e-004:4 1.035768e-004:5 1.035768e-004:6 
1.035768e-004:7 0.000000e+000:8 0.000000e+000:9 
#C 1.092180e-009 9
0.000000e+000:1 1.035774e-004:2 1.035765e-004:3 1.035765e-004:4 1.035768e-004:5 1.035768e-004:6 
1.035768e-004:7 0.000000e+000:8 0.000000e+000:9 
#C 1.113907e-009 9
0.000000e+000:1 1.035774e-004:2 1.035765e-004:3 1.035765e-004:4 1.035768e-004:5 1.035768e-004:6 
1.035768e-004:7 0.000000e+000:8 0.000000e+000:9 
#C 1.135633e-009 9
0.000000e+000:1 1.035774e-004:2 1.035765e-004:3 1.035765e-004:4 1.035768e-004:5 1.035768e-004:6 
1.035768e-004:7 0.000000e+000:8 0.000000e+000:9 
#C 1.179086e-009 9
0.000000e+000:1 1.035774e-004:2 1.035765e-004:3 1.035765e-004:4 1.035768e-004:5 1.035768e-004:6 
1.035768e-004:7 0.000000e+000:8 0.000000e+000:9 
#C 1.248029e-009 9
0.000000e+000:1 1.035774e-004:2 1.035765e-004:3 1.035765e-004:4 1.035768e-004:5 1.035768e-004:6 
1.035768e-004:7 0.000000e+000:8 0.000000e+000:9 
#C 1.269755e-009 9
0.000000e+000:1 1.035774e-004:2 1.035765e-004:3 1.035765e-004:4 1.035768e-004:5 1.035768e-004:6 
1.035768e-004:7 0.000000e+000:8 0.000000e+000:9 
#C 1.291482e-009 9
0.000000e+000:1 1.035774e-004:2 1.035765e-004:3 1.035765e-004:4 1.035768e-004:5 1.035768e-004:6 
1.035768e-004:7 0.000000e+000:8 0.000000e+000:9 
#C 1.312199e-009 9
0.000000e+000:1 1.035774e-004:2 1.035765e-004:3 1.035765e-004:4 1.035768e-004:5 1.035768e-004:6 
1.035768e-004:7 0.000000e+000:8 0.000000e+000:9 
#C 1.338388e-009 9
0.000000e+000:1 1.035774e-004:2 1.035765e-004:3 1.035765e-004:4 1.035768e-004:5 1.035768e-004:6 
1.035768e-004:7 0.000000e+000:8 0.000000e+000:9 
#C 1.363140e-009 9
0.000000e+000:1 1.035774e-004:2 1.035765e-004:3 1.035765e-004:4 1.035768e-004:5 1.035768e-004:6 
1.035768e-004:7 0.000000e+000:8 0.000000e+000:9 
#C 1.384866e-009 9
0.000000e+000:1 1.035774e-004:2 1.035765e-004:3 1.035765e-004:4 1.035768e-004:5 1.035768e-004:6 
1.035768e-004:7 0.000000e+000:8 0.000000e+000:9 
#C 1.421413e-009 9
0.000000e+000:1 1.035774e-004:2 1.035765e-004:3 1.035765e-004:4 1.035768e-004:5 1.035768e-004:6 
1.035768e-004:7 0.000000e+000:8 0.000000e+000:9 
#C 1.443140e-009 9
0.000000e+000:1 1.035774e-004:2 1.035765e-004:3 1.035765e-004:4 1.035768e-004:5 1.035768e-004:6 
1.035768e-004:7 0.000000e+000:8 0.000000e+000:9 
#C 1.464866e-009 9
0.000000e+000:1 1.035774e-004:2 1.035765e-004:3 1.035765e-004:4 1.035768e-004:5 1.035768e-004:6 
1.035768e-004:7 0.000000e+000:8 0.000000e+000:9 
#C 1.501413e-009 9
0.000000e+000:1 1.035774e-004:2 1.035765e-004:3 1.035765e-004:4 1.035768e-004:5 1.035768e-004:6 
1.035768e-004:7 0.000000e+000:8 0.000000e+000:9 
#C 1.523140e-009 9
0.000000e+000:1 1.035774e-004:2 1.035765e-004:3 1.035765e-004:4 1.035768e-004:5 1.035768e-004:6 
1.035768e-004:7 0.000000e+000:8 0.000000e+000:9 
#C 1.544866e-009 9
0.000000e+000:1 1.035774e-004:2 1.035765e-004:3 1.035765e-004:4 1.035768e-004:5 1.035768e-004:6 
1.035768e-004:7 0.000000e+000:8 0.000000e+000:9 
#C 1.566593e-009 9
0.000000e+000:1 1.035774e-004:2 1.035765e-004:3 1.035765e-004:4 1.035768e-004:5 1.035768e-004:6 
1.035768e-004:7 0.000000e+000:8 0.000000e+000:9 
#C 1.587311e-009 9
0.000000e+000:1 1.035774e-004:2 1.035765e-004:3 1.035765e-004:4 1.035768e-004:5 1.035768e-004:6 
1.035768e-004:7 0.000000e+000:8 0.000000e+000:9 
#C 1.614935e-009 9
0.000000e+000:1 1.035774e-004:2 1.035765e-004:3 1.035765e-004:4 1.035768e-004:5 1.035768e-004:6 
1.035768e-004:7 0.000000e+000:8 0.000000e+000:9 
#C 1.639687e-009 9
0.000000e+000:1 1.035774e-004:2 1.035765e-004:3 1.035765e-004:4 1.035768e-004:5 1.035768e-004:6 
1.035768e-004:7 0.000000e+000:8 0.000000e+000:9 
#C 1.661413e-009 9
0.000000e+000:1 1.035774e-004:2 1.035765e-004:3 1.035765e-004:4 1.035768e-004:5 1.035768e-004:6 
1.035768e-004:7 0.000000e+000:8 0.000000e+000:9 
#C 1.683140e-009 9
0.000000e+000:1 1.035774e-004:2 1.035765e-004:3 1.035765e-004:4 1.035768e-004:5 1.035768e-004:6 
1.035768e-004:7 0.000000e+000:8 0.000000e+000:9 
#C 1.704866e-009 9
0.000000e+000:1 1.035774e-004:2 1.035765e-004:3 1.035765e-004:4 1.035768e-004:5 1.035768e-004:6 
1.035768e-004:7 0.000000e+000:8 0.000000e+000:9 
#C 1.726593e-009 9
0.000000e+000:1 1.035774e-004:2 1.035765e-004:3 1.035765e-004:4 1.035768e-004:5 1.035768e-004:6 
1.035768e-004:7 0.000000e+000:8 0.000000e+000:9 
#C 1.748319e-009 9
0.000000e+000:1 1.035774e-004:2 1.035765e-004:3 1.035765e-004:4 1.035768e-004:5 1.035768e-004:6 
1.035768e-004:7 0.000000e+000:8 0.000000e+000:9 
#C 1.770046e-009 9
0.000000e+000:1 1.035774e-004:2 1.035765e-004:3 1.035765e-004:4 1.035768e-004:5 1.035768e-004:6 
1.035768e-004:7 0.000000e+000:8 0.000000e+000:9 
#C 1.790764e-009 9
0.000000e+000:1 1.035774e-004:2 1.035765e-004:3 1.035765e-004:4 1.035768e-004:5 1.035768e-004:6 
1.035768e-004:7 0.000000e+000:8 0.000000e+000:9 
#C 1.818387e-009 9
0.000000e+000:1 1.035774e-004:2 1.035765e-004:3 1.035765e-004:4 1.035768e-004:5 1.035768e-004:6 
1.035768e-004:7 0.000000e+000:8 0.000000e+000:9 
#C 1.843140e-009 9
0.000000e+000:1 1.035774e-004:2 1.035765e-004:3 1.035765e-004:4 1.035768e-004:5 1.035768e-004:6 
1.035768e-004:7 0.000000e+000:8 0.000000e+000:9 
#C 1.864866e-009 9
0.000000e+000:1 1.035774e-004:2 1.035765e-004:3 1.035765e-004:4 1.035768e-004:5 1.035768e-004:6 
1.035768e-004:7 0.000000e+000:8 0.000000e+000:9 
#C 1.886593e-009 9
0.000000e+000:1 1.035774e-004:2 1.035765e-004:3 1.035765e-004:4 1.035768e-004:5 1.035768e-004:6 
1.035768e-004:7 0.000000e+000:8 0.000000e+000:9 
#C 1.908319e-009 9
0.000000e+000:1 1.035774e-004:2 1.035765e-004:3 1.035765e-004:4 1.035768e-004:5 1.035768e-004:6 
1.035768e-004:7 0.000000e+000:8 0.000000e+000:9 
#C 1.930046e-009 9
0.000000e+000:1 1.035774e-004:2 1.035765e-004:3 1.035765e-004:4 1.035768e-004:5 1.035768e-004:6 
1.035768e-004:7 0.000000e+000:8 0.000000e+000:9 
#C 1.951772e-009 9
0.000000e+000:1 1.035774e-004:2 1.035765e-004:3 1.035765e-004:4 1.035768e-004:5 1.035768e-004:6 
1.035768e-004:7 0.000000e+000:8 0.000000e+000:9 
#C 1.973499e-009 9
0.000000e+000:1 1.035774e-004:2 1.035765e-004:3 1.035765e-004:4 1.035768e-004:5 1.035768e-004:6 
1.035768e-004:7 0.000000e+000:8 0.000000e+000:9 
#C 1.994217e-009 9
0.000000e+000:1 1.035774e-004:2 1.035765e-004:3 1.035765e-004:4 1.035768e-004:5 1.035768e-004:6 
1.035768e-004:7 0.000000e+000:8 0.000000e+000:9 
#C 2.021840e-009 9
0.000000e+000:1 1.035774e-004:2 1.035765e-004:3 1.035765e-004:4 1.035768e-004:5 1.035768e-004:6 
1.035768e-004:7 0.000000e+000:8 0.000000e+000:9 
#C 2.052336e-009 9
0.000000e+000:1 1.035774e-004:2 1.035765e-004:3 1.035765e-004:4 1.035768e-004:5 1.035768e-004:6 
1.035768e-004:7 0.000000e+000:8 0.000000e+000:9 
#C 2.082832e-009 9
0.000000e+000:1 1.035774e-004:2 1.035765e-004:3 1.035765e-004:4 1.035768e-004:5 1.035768e-004:6 
1.035768e-004:7 0.000000e+000:8 0.000000e+000:9 
#C 2.111345e-009 9
0.000000e+000:1 1.035774e-004:2 1.035765e-004:3 1.035765e-004:4 1.035768e-004:5 1.035768e-004:6 
1.035768e-004:7 0.000000e+000:8 0.000000e+000:9 
#C 2.132336e-009 9
0.000000e+000:1 1.035774e-004:2 1.035765e-004:3 1.035765e-004:4 1.035768e-004:5 1.035768e-004:6 
1.035768e-004:7 0.000000e+000:8 0.000000e+000:9 
#C 2.172336e-009 9
0.000000e+000:1 1.035774e-004:2 1.035765e-004:3 1.035765e-004:4 1.035768e-004:5 1.035768e-004:6 
1.035768e-004:7 0.000000e+000:8 0.000000e+000:9 
#C 2.212336e-009 9
0.000000e+000:1 1.035774e-004:2 1.035765e-004:3 1.035765e-004:4 1.035768e-004:5 1.035768e-004:6 
1.035768e-004:7 0.000000e+000:8 0.000000e+000:9 
#C 2.252336e-009 9
0.000000e+000:1 1.035774e-004:2 1.035765e-004:3 1.035765e-004:4 1.035768e-004:5 1.035768e-004:6 
1.035768e-004:7 0.000000e+000:8 0.000000e+000:9 
#C 2.292336e-009 9
0.000000e+000:1 1.035774e-004:2 1.035765e-004:3 1.035765e-004:4 1.035768e-004:5 1.035768e-004:6 
1.035768e-004:7 0.000000e+000:8 0.000000e+000:9 
#C 2.332336e-009 9
0.000000e+000:1 1.035774e-004:2 1.035765e-004:3 1.035765e-004:4 1.035768e-004:5 1.035768e-004:6 
1.035768e-004:7 0.000000e+000:8 0.000000e+000:9 
#C 2.372336e-009 9
0.000000e+000:1 1.035774e-004:2 1.035765e-004:3 1.035765e-004:4 1.035768e-004:5 1.035768e-004:6 
1.035768e-004:7 0.000000e+000:8 0.000000e+000:9 
#C 2.412336e-009 9
0.000000e+000:1 1.035774e-004:2 1.035765e-004:3 1.035765e-004:4 1.035768e-004:5 1.035768e-004:6 
1.035768e-004:7 0.000000e+000:8 0.000000e+000:9 
#C 2.452336e-009 9
0.000000e+000:1 1.035774e-004:2 1.035765e-004:3 1.035765e-004:4 1.035768e-004:5 1.035768e-004:6 
1.035768e-004:7 0.000000e+000:8 0.000000e+000:9 
#C 2.492336e-009 9
0.000000e+000:1 1.035774e-004:2 1.035765e-004:3 1.035765e-004:4 1.035768e-004:5 1.035768e-004:6 
1.035768e-004:7 0.000000e+000:8 0.000000e+000:9 
#C 2.532336e-009 9
0.000000e+000:1 1.035774e-004:2 1.035765e-004:3 1.035765e-004:4 1.035768e-004:5 1.035768e-004:6 
1.035768e-004:7 0.000000e+000:8 0.000000e+000:9 
#C 2.572336e-009 9
0.000000e+000:1 1.035774e-004:2 1.035765e-004:3 1.035765e-004:4 1.035768e-004:5 1.035768e-004:6 
1.035768e-004:7 0.000000e+000:8 0.000000e+000:9 
#C 2.612336e-009 9
0.000000e+000:1 1.035774e-004:2 1.035765e-004:3 1.035765e-004:4 1.035768e-004:5 1.035768e-004:6 
1.035768e-004:7 0.000000e+000:8 0.000000e+000:9 
#C 2.652336e-009 9
0.000000e+000:1 1.035774e-004:2 1.035765e-004:3 1.035765e-004:4 1.035768e-004:5 1.035768e-004:6 
1.035768e-004:7 0.000000e+000:8 0.000000e+000:9 
#C 2.692336e-009 9
0.000000e+000:1 1.035774e-004:2 1.035765e-004:3 1.035765e-004:4 1.035768e-004:5 1.035768e-004:6 
1.035768e-004:7 0.000000e+000:8 0.000000e+000:9 
#C 2.732336e-009 9
0.000000e+000:1 1.035774e-004:2 1.035765e-004:3 1.035765e-004:4 1.035768e-004:5 1.035768e-004:6 
1.035768e-004:7 0.000000e+000:8 0.000000e+000:9 
#C 2.772336e-009 9
0.000000e+000:1 1.035774e-004:2 1.035765e-004:3 1.035765e-004:4 1.035768e-004:5 1.035768e-004:6 
1.035768e-004:7 0.000000e+000:8 0.000000e+000:9 
#C 2.812336e-009 9
0.000000e+000:1 1.035774e-004:2 1.035765e-004:3 1.035765e-004:4 1.035768e-004:5 1.035768e-004:6 
1.035768e-004:7 0.000000e+000:8 0.000000e+000:9 
#C 2.852336e-009 9
0.000000e+000:1 1.035774e-004:2 1.035765e-004:3 1.035765e-004:4 1.035768e-004:5 1.035768e-004:6 
1.035768e-004:7 0.000000e+000:8 0.000000e+000:9 
#C 2.892336e-009 9
0.000000e+000:1 1.035774e-004:2 1.035765e-004:3 1.035765e-004:4 1.035768e-004:5 1.035768e-004:6 
1.035768e-004:7 0.000000e+000:8 0.000000e+000:9 
#C 2.932336e-009 9
0.000000e+000:1 1.035774e-004:2 1.035765e-004:3 1.035765e-004:4 1.035768e-004:5 1.035768e-004:6 
1.035768e-004:7 0.000000e+000:8 0.000000e+000:9 
#C 2.972336e-009 9
0.000000e+000:1 1.035774e-004:2 1.035765e-004:3 1.035765e-004:4 1.035768e-004:5 1.035768e-004:6 
1.035768e-004:7 0.000000e+000:8 0.000000e+000:9 
#C 3.012336e-009 9
0.000000e+000:1 1.035774e-004:2 1.035765e-004:3 1.035765e-004:4 1.035768e-004:5 1.035768e-004:6 
1.035768e-004:7 0.000000e+000:8 0.000000e+000:9 
#C 3.052336e-009 9
0.000000e+000:1 1.035774e-004:2 1.035765e-004:3 1.035765e-004:4 1.035768e-004:5 1.035768e-004:6 
1.035768e-004:7 0.000000e+000:8 0.000000e+000:9 
#C 3.092336e-009 9
0.000000e+000:1 1.035774e-004:2 1.035765e-004:3 1.035765e-004:4 1.035768e-004:5 1.035768e-004:6 
1.035768e-004:7 0.000000e+000:8 0.000000e+000:9 
#C 3.132336e-009 9
0.000000e+000:1 1.035774e-004:2 1.035765e-004:3 1.035765e-004:4 1.035768e-004:5 1.035768e-004:6 
1.035768e-004:7 0.000000e+000:8 0.000000e+000:9 
#C 3.172336e-009 9
0.000000e+000:1 1.035774e-004:2 1.035765e-004:3 1.035765e-004:4 1.035768e-004:5 1.035768e-004:6 
1.035768e-004:7 0.000000e+000:8 0.000000e+000:9 
#C 3.212336e-009 9
0.000000e+000:1 1.035774e-004:2 1.035765e-004:3 1.035765e-004:4 1.035768e-004:5 1.035768e-004:6 
1.035768e-004:7 0.000000e+000:8 0.000000e+000:9 
#C 3.252336e-009 9
0.000000e+000:1 1.035774e-004:2 1.035765e-004:3 1.035765e-004:4 1.035768e-004:5 1.035768e-004:6 
1.035768e-004:7 0.000000e+000:8 0.000000e+000:9 
#C 3.292336e-009 9
0.000000e+000:1 1.035774e-004:2 1.035765e-004:3 1.035765e-004:4 1.035768e-004:5 1.035768e-004:6 
1.035768e-004:7 0.000000e+000:8 0.000000e+000:9 
#C 3.332336e-009 9
0.000000e+000:1 1.035774e-004:2 1.035765e-004:3 1.035765e-004:4 1.035768e-004:5 1.035768e-004:6 
1.035768e-004:7 0.000000e+000:8 0.000000e+000:9 
#C 3.372336e-009 9
0.000000e+000:1 1.035774e-004:2 1.035765e-004:3 1.035765e-004:4 1.035768e-004:5 1.035768e-004:6 
1.035768e-004:7 0.000000e+000:8 0.000000e+000:9 
#C 3.412336e-009 9
0.000000e+000:1 1.035774e-004:2 1.035765e-004:3 1.035765e-004:4 1.035768e-004:5 1.035768e-004:6 
1.035768e-004:7 0.000000e+000:8 0.000000e+000:9 
#C 3.452336e-009 9
0.000000e+000:1 1.035774e-004:2 1.035765e-004:3 1.035765e-004:4 1.035768e-004:5 1.035768e-004:6 
1.035768e-004:7 0.000000e+000:8 0.000000e+000:9 
#C 3.492336e-009 9
0.000000e+000:1 1.035774e-004:2 1.035765e-004:3 1.035765e-004:4 1.035768e-004:5 1.035768e-004:6 
1.035768e-004:7 0.000000e+000:8 0.000000e+000:9 
#C 3.532336e-009 9
0.000000e+000:1 1.035774e-004:2 1.035765e-004:3 1.035765e-004:4 1.035768e-004:5 1.035768e-004:6 
1.035768e-004:7 0.000000e+000:8 0.000000e+000:9 
#C 3.572336e-009 9
0.000000e+000:1 1.035774e-004:2 1.035765e-004:3 1.035765e-004:4 1.035768e-004:5 1.035768e-004:6 
1.035768e-004:7 0.000000e+000:8 0.000000e+000:9 
#C 3.612336e-009 9
0.000000e+000:1 1.035774e-004:2 1.035765e-004:3 1.035765e-004:4 1.035768e-004:5 1.035768e-004:6 
1.035768e-004:7 0.000000e+000:8 0.000000e+000:9 
#C 3.652336e-009 9
0.000000e+000:1 1.035774e-004:2 1.035765e-004:3 1.035765e-004:4 1.035768e-004:5 1.035768e-004:6 
1.035768e-004:7 0.000000e+000:8 0.000000e+000:9 
#C 3.692336e-009 9
0.000000e+000:1 1.035774e-004:2 1.035765e-004:3 1.035765e-004:4 1.035768e-004:5 1.035768e-004:6 
1.035768e-004:7 0.000000e+000:8 0.000000e+000:9 
#C 3.732336e-009 9
0.000000e+000:1 1.035774e-004:2 1.035765e-004:3 1.035765e-004:4 1.035768e-004:5 1.035768e-004:6 
1.035768e-004:7 0.000000e+000:8 0.000000e+000:9 
#C 3.772336e-009 9
0.000000e+000:1 1.035774e-004:2 1.035765e-004:3 1.035765e-004:4 1.035768e-004:5 1.035768e-004:6 
1.035768e-004:7 0.000000e+000:8 0.000000e+000:9 
#C 3.812336e-009 9
0.000000e+000:1 1.035774e-004:2 1.035765e-004:3 1.035765e-004:4 1.035768e-004:5 1.035768e-004:6 
1.035768e-004:7 0.000000e+000:8 0.000000e+000:9 
#C 3.852336e-009 9
0.000000e+000:1 1.035774e-004:2 1.035765e-004:3 1.035765e-004:4 1.035768e-004:5 1.035768e-004:6 
1.035768e-004:7 0.000000e+000:8 0.000000e+000:9 
#C 3.892336e-009 9
0.000000e+000:1 1.035774e-004:2 1.035765e-004:3 1.035765e-004:4 1.035768e-004:5 1.035768e-004:6 
1.035768e-004:7 0.000000e+000:8 0.000000e+000:9 
#C 3.932336e-009 9
0.000000e+000:1 1.035774e-004:2 1.035765e-004:3 1.035765e-004:4 1.035768e-004:5 1.035768e-004:6 
1.035768e-004:7 0.000000e+000:8 0.000000e+000:9 
#C 3.972336e-009 9
0.000000e+000:1 1.035774e-004:2 1.035765e-004:3 1.035765e-004:4 1.035768e-004:5 1.035768e-004:6 
1.035768e-004:7 0.000000e+000:8 0.000000e+000:9 
#C 4.012336e-009 9
0.000000e+000:1 1.035774e-004:2 1.035765e-004:3 1.035765e-004:4 1.035768e-004:5 1.035768e-004:6 
1.035768e-004:7 0.000000e+000:8 0.000000e+000:9 
#C 4.052336e-009 9
0.000000e+000:1 1.035774e-004:2 1.035765e-004:3 1.035765e-004:4 1.035768e-004:5 1.035768e-004:6 
1.035768e-004:7 0.000000e+000:8 0.000000e+000:9 
#C 4.092336e-009 9
0.000000e+000:1 1.035774e-004:2 1.035765e-004:3 1.035765e-004:4 1.035768e-004:5 1.035768e-004:6 
1.035768e-004:7 0.000000e+000:8 0.000000e+000:9 
#C 4.132336e-009 9
0.000000e+000:1 1.035774e-004:2 1.035765e-004:3 1.035765e-004:4 1.035768e-004:5 1.035768e-004:6 
1.035768e-004:7 0.000000e+000:8 0.000000e+000:9 
#C 4.172336e-009 9
0.000000e+000:1 1.035774e-004:2 1.035765e-004:3 1.035765e-004:4 1.035768e-004:5 1.035768e-004:6 
1.035768e-004:7 0.000000e+000:8 0.000000e+000:9 
#C 4.212336e-009 9
0.000000e+000:1 1.035774e-004:2 1.035765e-004:3 1.035765e-004:4 1.035768e-004:5 1.035768e-004:6 
1.035768e-004:7 0.000000e+000:8 0.000000e+000:9 
#C 4.252336e-009 9
0.000000e+000:1 1.035774e-004:2 1.035765e-004:3 1.035765e-004:4 1.035768e-004:5 1.035768e-004:6 
