#H
SOURCE='IsSpice4'	VERSION='ver. 8.11-SI-1.0.3   10/6/2010'
TITLE='* Thu Sep 24 20:37:03 2015, Generated by: 010328058, Server: None, Windows, INSTALLED_SOFTWARE_VERSION: 2015.07 Build 6, Engine: 2015.07rc1, GUI: 2015.07rc1'
SUBTITLE='pc'
TIME='20:37:06' DATE='Sep 24, 2015' TEMPERATURE='298.15'
ANALYSIS='Trans'	SERIALNO='01234567'
ALLVALUES='NO' COMPLEXVALUES='NO' NODES='6'
SWEEPVAR='time' SWEEPMODE='VAR_STEP' DGTLDATA='NO'
XBEGIN='0.000000e+000' XEND='1.180000e-007'
FORMAT='0 VOLTSorAMPS;EFLOAT : NODEorBRANCH;NODE'
#N
'V(v_stimulus)'
'V(mydriver_pad)'
'V(myreceiver_pad)'
'V(mydriver_pin)'
'V(myreceiver_pin)'
'V(myreceiver_z)'
#U
'Volts'
'Volts'
'Volts'
'Volts'
'Volts'
'Volts'
#C 0.000000e+000 6
0.000000e+000:1 2.019160e-004:2 2.034395e-004:3 2.026778e-004:4 2.026778e-004:5 0.000000e+000:6 
#C 2.560000e-011 6
0.000000e+000:1 2.019160e-004:2 2.034395e-004:3 2.026778e-004:4 2.026778e-004:5 0.000000e+000:6 
#C 5.440000e-011 6
0.000000e+000:1 2.019160e-004:2 2.034395e-004:3 2.026778e-004:4 2.026778e-004:5 0.000000e+000:6 
#C 8.320000e-011 6
0.000000e+000:1 2.019160e-004:2 2.034395e-004:3 2.026778e-004:4 2.026778e-004:5 0.000000e+000:6 
#C 1.088000e-010 6
0.000000e+000:1 2.019160e-004:2 2.034395e-004:3 2.026778e-004:4 2.026778e-004:5 0.000000e+000:6 
#C 1.600000e-010 6
0.000000e+000:1 2.019160e-004:2 2.034395e-004:3 2.026778e-004:4 2.026778e-004:5 0.000000e+000:6 
#C 2.600000e-010 6
0.000000e+000:1 2.019160e-004:2 2.034395e-004:3 2.026778e-004:4 2.026778e-004:5 0.000000e+000:6 
#C 3.600000e-010 6
0.000000e+000:1 2.019160e-004:2 2.034395e-004:3 2.026778e-004:4 2.026778e-004:5 0.000000e+000:6 
#C 4.600000e-010 6
0.000000e+000:1 2.019160e-004:2 2.034395e-004:3 2.026778e-004:4 2.026778e-004:5 0.000000e+000:6 
#C 5.600000e-010 6
0.000000e+000:1 2.019160e-004:2 2.034395e-004:3 2.026778e-004:4 2.026778e-004:5 0.000000e+000:6 
#C 6.600000e-010 6
0.000000e+000:1 2.019160e-004:2 2.034395e-004:3 2.026778e-004:4 2.026778e-004:5 0.000000e+000:6 
#C 7.600000e-010 6
0.000000e+000:1 2.019160e-004:2 2.034395e-004:3 2.026778e-004:4 2.026778e-004:5 0.000000e+000:6 
#C 8.600000e-010 6
0.000000e+000:1 2.019160e-004:2 2.034395e-004:3 2.026778e-004:4 2.026778e-004:5 0.000000e+000:6 
#C 9.600000e-010 6
0.000000e+000:1 2.019160e-004:2 2.034395e-004:3 2.026778e-004:4 2.026778e-004:5 0.000000e+000:6 
#C 9.995942e-010 6
0.000000e+000:1 2.019160e-004:2 2.034395e-004:3 2.026778e-004:4 2.026778e-004:5 0.000000e+000:6 
#C 1.025158e-009 6
0.000000e+000:1 2.019160e-004:2 2.034395e-004:3 2.026778e-004:4 2.026778e-004:5 0.000000e+000:6 
#C 1.051127e-009 6
0.000000e+000:1 2.019160e-004:2 2.034395e-004:3 2.026778e-004:4 2.026778e-004:5 0.000000e+000:6 
#C 1.083373e-009 6
0.000000e+000:1 2.019160e-004:2 2.034395e-004:3 2.026778e-004:4 2.026778e-004:5 0.000000e+000:6 
#C 1.106636e-009 6
0.000000e+000:1 2.019160e-004:2 2.034395e-004:3 2.026778e-004:4 2.026778e-004:5 0.000000e+000:6 
#C 1.131127e-009 6
0.000000e+000:1 2.019160e-004:2 2.034395e-004:3 2.026778e-004:4 2.026778e-004:5 0.000000e+000:6 
#C 1.167057e-009 6
0.000000e+000:1 2.019160e-004:2 2.034395e-004:3 2.026778e-004:4 2.026778e-004:5 0.000000e+000:6 
#C 1.189092e-009 6
0.000000e+000:1 2.019160e-004:2 2.034395e-004:3 2.026778e-004:4 2.026778e-004:5 0.000000e+000:6 
#C 1.228686e-009 6
0.000000e+000:1 2.019160e-004:2 2.034395e-004:3 2.026778e-004:4 2.026778e-004:5 0.000000e+000:6 
#C 1.254250e-009 6
0.000000e+000:1 2.019160e-004:2 2.034395e-004:3 2.026778e-004:4 2.026778e-004:5 0.000000e+000:6 
#C 1.280219e-009 6
0.000000e+000:1 2.019160e-004:2 2.034395e-004:3 2.026778e-004:4 2.026778e-004:5 0.000000e+000:6 
#C 1.312465e-009 6
0.000000e+000:1 2.019160e-004:2 2.034395e-004:3 2.026778e-004:4 2.026778e-004:5 0.000000e+000:6 
#C 1.335728e-009 6
0.000000e+000:1 2.019160e-004:2 2.034395e-004:3 2.026778e-004:4 2.026778e-004:5 0.000000e+000:6 
#C 1.360219e-009 6
0.000000e+000:1 2.019160e-004:2 2.034395e-004:3 2.026778e-004:4 2.026778e-004:5 0.000000e+000:6 
#C 1.396149e-009 6
0.000000e+000:1 2.019160e-004:2 2.034395e-004:3 2.026778e-004:4 2.026778e-004:5 0.000000e+000:6 
#C 1.436149e-009 6
0.000000e+000:1 2.019160e-004:2 2.034395e-004:3 2.026778e-004:4 2.026778e-004:5 0.000000e+000:6 
#C 1.475744e-009 6
0.000000e+000:1 2.019160e-004:2 2.034395e-004:3 2.026778e-004:4 2.026778e-004:5 0.000000e+000:6 
#C 1.501307e-009 6
0.000000e+000:1 2.019160e-004:2 2.034395e-004:3 2.026778e-004:4 2.026778e-004:5 0.000000e+000:6 
#C 1.529369e-009 6
0.000000e+000:1 2.019160e-004:2 2.034395e-004:3 2.026778e-004:4 2.026778e-004:5 0.000000e+000:6 
#C 1.555338e-009 6
0.000000e+000:1 2.019160e-004:2 2.034395e-004:3 2.026778e-004:4 2.026778e-004:5 0.000000e+000:6 
#C 1.594932e-009 6
0.000000e+000:1 2.019160e-004:2 2.034395e-004:3 2.026778e-004:4 2.026778e-004:5 0.000000e+000:6 
#C 1.620496e-009 6
0.000000e+000:1 2.019160e-004:2 2.034395e-004:3 2.026778e-004:4 2.026778e-004:5 0.000000e+000:6 
#C 1.646465e-009 6
0.000000e+000:1 2.019160e-004:2 2.034395e-004:3 2.026778e-004:4 2.026778e-004:5 0.000000e+000:6 
#C 1.678711e-009 6
0.000000e+000:1 2.019160e-004:2 2.034395e-004:3 2.026778e-004:4 2.026778e-004:5 0.000000e+000:6 
#C 1.718711e-009 6
0.000000e+000:1 2.019160e-004:2 2.034395e-004:3 2.026778e-004:4 2.026778e-004:5 0.000000e+000:6 
#C 1.758305e-009 6
0.000000e+000:1 2.019160e-004:2 2.034395e-004:3 2.026778e-004:4 2.026778e-004:5 0.000000e+000:6 
#C 1.783868e-009 6
0.000000e+000:1 2.019160e-004:2 2.034395e-004:3 2.026778e-004:4 2.026778e-004:5 0.000000e+000:6 
#C 1.809838e-009 6
0.000000e+000:1 2.019160e-004:2 2.034395e-004:3 2.026778e-004:4 2.026778e-004:5 0.000000e+000:6 
#C 1.842083e-009 6
0.000000e+000:1 2.019160e-004:2 2.034395e-004:3 2.026778e-004:4 2.026778e-004:5 0.000000e+000:6 
#C 1.882083e-009 6
0.000000e+000:1 2.019160e-004:2 2.034395e-004:3 2.026778e-004:4 2.026778e-004:5 0.000000e+000:6 
#C 1.921677e-009 6
0.000000e+000:1 2.019160e-004:2 2.034395e-004:3 2.026778e-004:4 2.026778e-004:5 0.000000e+000:6 
#C 1.947241e-009 6
0.000000e+000:1 2.019160e-004:2 2.034395e-004:3 2.026778e-004:4 2.026778e-004:5 0.000000e+000:6 
#C 1.973210e-009 6
0.000000e+000:1 2.019160e-004:2 2.034395e-004:3 2.026778e-004:4 2.026778e-004:5 0.000000e+000:6 
#C 2.005456e-009 6
0.000000e+000:1 2.019160e-004:2 2.034395e-004:3 2.026778e-004:4 2.026778e-004:5 0.000000e+000:6 
#C 2.045456e-009 6
0.000000e+000:1 2.019160e-004:2 2.034395e-004:3 2.026778e-004:4 2.026778e-004:5 0.000000e+000:6 
#C 2.085050e-009 6
0.000000e+000:1 2.019160e-004:2 2.034395e-004:3 2.026778e-004:4 2.026778e-004:5 0.000000e+000:6 
#C 2.110614e-009 6
0.000000e+000:1 2.019160e-004:2 2.034395e-004:3 2.026778e-004:4 2.026778e-004:5 0.000000e+000:6 
#C 2.138675e-009 6
0.000000e+000:1 2.019160e-004:2 2.034395e-004:3 2.026778e-004:4 2.026778e-004:5 0.000000e+000:6 
#C 2.166736e-009 6
0.000000e+000:1 2.019160e-004:2 2.034395e-004:3 2.026778e-004:4 2.026778e-004:5 0.000000e+000:6 
#C 2.208829e-009 6
0.000000e+000:1 2.019160e-004:2 2.034395e-004:3 2.026778e-004:4 2.026778e-004:5 0.000000e+000:6 
#C 2.248423e-009 6
0.000000e+000:1 2.019160e-004:2 2.034395e-004:3 2.026778e-004:4 2.026778e-004:5 0.000000e+000:6 
#C 2.273986e-009 6
0.000000e+000:1 2.019160e-004:2 2.034395e-004:3 2.026778e-004:4 2.026778e-004:5 0.000000e+000:6 
#C 2.302048e-009 6
0.000000e+000:1 2.019160e-004:2 2.034395e-004:3 2.026778e-004:4 2.026778e-004:5 0.000000e+000:6 
#C 2.330109e-009 6
0.000000e+000:1 2.019160e-004:2 2.034395e-004:3 2.026778e-004:4 2.026778e-004:5 0.000000e+000:6 
#C 2.370109e-009 6
0.000000e+000:1 2.019160e-004:2 2.034395e-004:3 2.026778e-004:4 2.026778e-004:5 0.000000e+000:6 
#C 2.409703e-009 6
0.000000e+000:1 2.019160e-004:2 2.034395e-004:3 2.026778e-004:4 2.026778e-004:5 0.000000e+000:6 
#C 2.429906e-009 6
0.000000e+000:1 2.019160e-004:2 2.034395e-004:3 2.026778e-004:4 2.026778e-004:5 0.000000e+000:6 
#C 2.450109e-009 6
0.000000e+000:1 2.019160e-004:2 2.034395e-004:3 2.026778e-004:4 2.026778e-004:5 0.000000e+000:6 
#C 2.475267e-009 6
0.000000e+000:1 2.019160e-004:2 2.034395e-004:3 2.026778e-004:4 2.026778e-004:5 0.000000e+000:6 
#C 2.503328e-009 6
0.000000e+000:1 2.019160e-004:2 2.034395e-004:3 2.026778e-004:4 2.026778e-004:5 0.000000e+000:6 
#C 2.531390e-009 6
0.000000e+000:1 2.019160e-004:2 2.034395e-004:3 2.026778e-004:4 2.026778e-004:5 0.000000e+000:6 
#C 2.573482e-009 6
0.000000e+000:1 2.019160e-004:2 2.034395e-004:3 2.026778e-004:4 2.026778e-004:5 0.000000e+000:6 
#C 2.613076e-009 6
0.000000e+000:1 2.019160e-004:2 2.034395e-004:3 2.026778e-004:4 2.026778e-004:5 0.000000e+000:6 
#C 2.638640e-009 6
0.000000e+000:1 2.019160e-004:2 2.034395e-004:3 2.026778e-004:4 2.026778e-004:5 0.000000e+000:6 
#C 2.664609e-009 6
0.000000e+000:1 2.019160e-004:2 2.034395e-004:3 2.026778e-004:4 2.026778e-004:5 0.000000e+000:6 
#C 2.716547e-009 6
0.000000e+000:1 2.019160e-004:2 2.034395e-004:3 2.026778e-004:4 2.026778e-004:5 0.000000e+000:6 
#C 2.816547e-009 6
0.000000e+000:1 2.019160e-004:2 2.034395e-004:3 2.026778e-004:4 2.026778e-004:5 0.000000e+000:6 
#C 2.856142e-009 6
0.000000e+000:1 2.019160e-004:2 2.034395e-004:3 2.026778e-004:4 2.026778e-004:5 0.000000e+000:6 
#C 2.881705e-009 6
0.000000e+000:1 2.019160e-004:2 2.034395e-004:3 2.026778e-004:4 2.026778e-004:5 0.000000e+000:6 
#C 2.907675e-009 6
0.000000e+000:1 2.019160e-004:2 2.034395e-004:3 2.026778e-004:4 2.026778e-004:5 0.000000e+000:6 
#C 2.931552e-009 6
0.000000e+000:1 2.019160e-004:2 2.034395e-004:3 2.026778e-004:4 2.026778e-004:5 0.000000e+000:6 
#C 2.971146e-009 6
0.000000e+000:1 2.019160e-004:2 2.034395e-004:3 2.026778e-004:4 2.026778e-004:5 0.000000e+000:6 
#C 2.991349e-009 6
0.000000e+000:1 2.019160e-004:2 2.034395e-004:3 2.026778e-004:4 2.026778e-004:5 0.000000e+000:6 
#C 3.031349e-009 6
0.000000e+000:1 2.019160e-004:2 2.034395e-004:3 2.026778e-004:4 2.026778e-004:5 0.000000e+000:6 
#C 3.071349e-009 6
0.000000e+000:1 2.019160e-004:2 2.034395e-004:3 2.026778e-004:4 2.026778e-004:5 0.000000e+000:6 
#C 3.111349e-009 6
0.000000e+000:1 2.019160e-004:2 2.034395e-004:3 2.026778e-004:4 2.026778e-004:5 0.000000e+000:6 
#C 3.151349e-009 6
0.000000e+000:1 2.019160e-004:2 2.034395e-004:3 2.026778e-004:4 2.026778e-004:5 0.000000e+000:6 
#C 3.191349e-009 6
0.000000e+000:1 2.019160e-004:2 2.034395e-004:3 2.026778e-004:4 2.026778e-004:5 0.000000e+000:6 
#C 3.231349e-009 6
0.000000e+000:1 2.019160e-004:2 2.034395e-004:3 2.026778e-004:4 2.026778e-004:5 0.000000e+000:6 
#C 3.271349e-009 6
0.000000e+000:1 2.019160e-004:2 2.034395e-004:3 2.026778e-004:4 2.026778e-004:5 0.000000e+000:6 
#C 3.311349e-009 6
0.000000e+000:1 2.019160e-004:2 2.034395e-004:3 2.026778e-004:4 2.026778e-004:5 0.000000e+000:6 
#C 3.351349e-009 6
0.000000e+000:1 2.019160e-004:2 2.034395e-004:3 2.026778e-004:4 2.026778e-004:5 0.000000e+000:6 
#C 3.391349e-009 6
0.000000e+000:1 2.019160e-004:2 2.034395e-004:3 2.026778e-004:4 2.026778e-004:5 0.000000e+000:6 
#C 3.431349e-009 6
0.000000e+000:1 2.019160e-004:2 2.034395e-004:3 2.026778e-004:4 2.026778e-004:5 0.000000e+000:6 
#C 3.471349e-009 6
0.000000e+000:1 2.019160e-004:2 2.034395e-004:3 2.026778e-004:4 2.026778e-004:5 0.000000e+000:6 
#C 3.511349e-009 6
0.000000e+000:1 2.019160e-004:2 2.034395e-004:3 2.026778e-004:4 2.026778e-004:5 0.000000e+000:6 
#C 3.551349e-009 6
0.000000e+000:1 2.019160e-004:2 2.034395e-004:3 2.026778e-004:4 2.026778e-004:5 0.000000e+000:6 
#C 3.591349e-009 6
0.000000e+000:1 2.019160e-004:2 2.034395e-004:3 2.026778e-004:4 2.026778e-004:5 0.000000e+000:6 
#C 3.631349e-009 6
0.000000e+000:1 2.019160e-004:2 2.034395e-004:3 2.026778e-004:4 2.026778e-004:5 0.000000e+000:6 
#C 3.671349e-009 6
0.000000e+000:1 2.019160e-004:2 2.034395e-004:3 2.026778e-004:4 2.026778e-004:5 0.000000e+000:6 
#C 3.711349e-009 6
0.000000e+000:1 2.019160e-004:2 2.034395e-004:3 2.026778e-004:4 2.026778e-004:5 0.000000e+000:6 
#C 3.751349e-009 6
0.000000e+000:1 2.019160e-004:2 2.034395e-004:3 2.026778e-004:4 2.026778e-004:5 0.000000e+000:6 
#C 3.791349e-009 6
0.000000e+000:1 2.019160e-004:2 2.034395e-004:3 2.026778e-004:4 2.026778e-004:5 0.000000e+000:6 
#C 3.831349e-009 6
0.000000e+000:1 2.019160e-004:2 2.034395e-004:3 2.026778e-004:4 2.026778e-004:5 0.000000e+000:6 
#C 3.871349e-009 6
0.000000e+000:1 2.019160e-004:2 2.034395e-004:3 2.026778e-004:4 2.026778e-004:5 0.000000e+000:6 
#C 3.911349e-009 6
0.000000e+000:1 2.019160e-004:2 2.034395e-004:3 2.026778e-004:4 2.026778e-004:5 0.000000e+000:6 
#C 3.951349e-009 6
0.000000e+000:1 2.019160e-004:2 2.034395e-004:3 2.026778e-004:4 2.026778e-004:5 0.000000e+000:6 
#C 3.991349e-009 6
0.000000e+000:1 2.019160e-004:2 2.034395e-004:3 2.026778e-004:4 2.026778e-004:5 0.000000e+000:6 
#C 4.031349e-009 6
0.000000e+000:1 2.019160e-004:2 2.034395e-004:3 2.026778e-004:4 2.026778e-004:5 0.000000e+000:6 
#C 4.071349e-009 6
0.000000e+000:1 2.019160e-004:2 2.034395e-004:3 2.026778e-004:4 2.026778e-004:5 0.000000e+000:6 
#C 4.111349e-009 6
0.000000e+000:1 2.019160e-004:2 2.034395e-004:3 2.026778e-004:4 2.026778e-004:5 0.000000e+000:6 
#C 4.151349e-009 6
0.000000e+000:1 2.019160e-004:2 2.034395e-004:3 2.026778e-004:4 2.026778e-004:5 0.000000e+000:6 
#C 4.191349e-009 6
0.000000e+000:1 2.019160e-004:2 2.034395e-004:3 2.026778e-004:4 2.026778e-004:5 0.000000e+000:6 
#C 4.231349e-009 6
0.000000e+000:1 2.019160e-004:2 2.034395e-004:3 2.026778e-004:4 2.026778e-004:5 0.000000e+000:6 
#C 4.271349e-009 6
0.000000e+000:1 2.019160e-004:2 2.034395e-004:3 2.026778e-004:4 2.026778e-004:5 0.000000e+000:6 
#C 4.311349e-009 6
0.000000e+000:1 2.019160e-004:2 2.034395e-004:3 2.026778e-004:4 2.026778e-004:5 0.000000e+000:6 
#C 4.351349e-009 6
0.000000e+000:1 2.019160e-004:2 2.034395e-004:3 2.026778e-004:4 2.026778e-004:5 0.000000e+000:6 
#C 4.391349e-009 6
0.000000e+000:1 2.019160e-004:2 2.034395e-004:3 2.026778e-004:4 2.026778e-004:5 0.000000e+000:6 
#C 4.431349e-009 6
0.000000e+000:1 2.019160e-004:2 2.034395e-004:3 2.026778e-004:4 2.026778e-004:5 0.000000e+000:6 
#C 4.471349e-009 6
0.000000e+000:1 2.019160e-004:2 2.034395e-004:3 2.026778e-004:4 2.026778e-004:5 0.000000e+000:6 
#C 4.511349e-009 6
0.000000e+000:1 2.019160e-004:2 2.034395e-004:3 2.026778e-004:4 2.026778e-004:5 0.000000e+000:6 
#C 4.551349e-009 6
0.000000e+000:1 2.019160e-004:2 2.034395e-004:3 2.026778e-004:4 2.026778e-004:5 0.000000e+000:6 
#C 4.591349e-009 6
0.000000e+000:1 2.019160e-004:2 2.034395e-004:3 2.026778e-004:4 2.026778e-004:5 0.000000e+000:6 
#C 4.631349e-009 6
0.000000e+000:1 2.019160e-004:2 2.034395e-004:3 2.026778e-004:4 2.026778e-004:5 0.000000e+000:6 
#C 4.671349e-009 6
0.000000e+000:1 2.019160e-004:2 2.034395e-004:3 2.026778e-004:4 2.026778e-004:5 0.000000e+000:6 
#C 4.711349e-009 6
0.000000e+000:1 2.019160e-004:2 2.034395e-004:3 2.026778e-004:4 2.026778e-004:5 0.000000e+000:6 
#C 4.751349e-009 6
0.000000e+000:1 2.019160e-004:2 2.034395e-004:3 2.026778e-004:4 2.026778e-004:5 0.000000e+000:6 
#C 4.791349e-009 6
0.000000e+000:1 2.019160e-004:2 2.034395e-004:3 2.026778e-004:4 2.026778e-004:5 0.000000e+000:6 
#C 4.831349e-009 6
0.000000e+000:1 2.019160e-004:2 2.034395e-004:3 2.026778e-004:4 2.026778e-004:5 0.000000e+000:6 
#C 4.871349e-009 6
0.000000e+000:1 2.019160e-004:2 2.034395e-004:3 2.026778e-004:4 2.026778e-004:5 0.000000e+000:6 
#C 4.911349e-009 6
0.000000e+000:1 2.019160e-004:2 2.034395e-004:3 2.026778e-004:4 2.026778e-004:5 0.000000e+000:6 
#C 4.951349e-009 6
0.000000e+000:1 2.019160e-004:2 2.034395e-004:3 2.026778e-004:4 2.026778e-004:5 0.000000e+000:6 
#C 4.991349e-009 6
0.000000e+000:1 2.019160e-004:2 2.034395e-004:3 2.026778e-004:4 2.026778e-004:5 0.000000e+000:6 
#C 5.031349e-009 6
0.000000e+000:1 2.019160e-004:2 2.034395e-004:3 2.026778e-004:4 2.026778e-004:5 0.000000e+000:6 
#C 5.071349e-009 6
0.000000e+000:1 2.019160e-004:2 2.034395e-004:3 2.026778e-004:4 2.026778e-004:5 0.000000e+000:6 
#C 5.111349e-009 6
0.000000e+000:1 2.019160e-004:2 2.034395e-004:3 2.026778e-004:4 2.026778e-004:5 0.000000e+000:6 
#C 5.151349e-009 6
0.000000e+000:1 2.019160e-004:2 2.034395e-004:3 2.026778e-004:4 2.026778e-004:5 0.000000e+000:6 
#C 5.191349e-009 6
0.000000e+000:1 2.019160e-004:2 2.034395e-004:3 2.026778e-004:4 2.026778e-004:5 0.000000e+000:6 
#C 5.231349e-009 6
0.000000e+000:1 2.019160e-004:2 2.034395e-004:3 2.026778e-004:4 2.026778e-004:5 0.000000e+000:6 
#C 5.271349e-009 6
0.000000e+000:1 2.019160e-004:2 2.034395e-004:3 2.026778e-004:4 2.026778e-004:5 0.000000e+000:6 
#C 5.311349e-009 6
0.000000e+000:1 2.019160e-004:2 2.034395e-004:3 2.026778e-004:4 2.026778e-004:5 0.000000e+000:6 
#C 5.351349e-009 6
0.000000e+000:1 2.019160e-004:2 2.034395e-004:3 2.026778e-004:4 2.026778e-004:5 0.000000e+000:6 
#C 5.391349e-009 6
0.000000e+000:1 2.019160e-004:2 2.034395e-004:3 2.026778e-004:4 2.026778e-004:5 0.000000e+000:6 
#C 5.431349e-009 6
0.000000e+000:1 2.019160e-004:2 2.034395e-004:3 2.026778e-004:4 2.026778e-004:5 0.000000e+000:6 
#C 5.471349e-009 6
0.000000e+000:1 2.019160e-004:2 2.034395e-004:3 2.026778e-004:4 2.026778e-004:5 0.000000e+000:6 
#C 5.511349e-009 6
0.000000e+000:1 2.019160e-004:2 2.034395e-004:3 2.026778e-004:4 2.026778e-004:5 0.000000e+000:6 
#C 5.551349e-009 6
0.000000e+000:1 2.019160e-004:2 2.034395e-004:3 2.026778e-004:4 2.026778e-004:5 0.000000e+000:6 
#C 5.591349e-009 6
0.000000e+000:1 2.019160e-004:2 2.034395e-004:3 2.026778e-004:4 2.026778e-004:5 0.000000e+000:6 
#C 5.631349e-009 6
0.000000e+000:1 2.019160e-004:2 2.034395e-004:3 2.026778e-004:4 2.026778e-004:5 0.000000e+000:6 
#C 5.671349e-009 6
0.000000e+000:1 2.019160e-004:2 2.034395e-004:3 2.026778e-004:4 2.026778e-004:5 0.000000e+000:6 
#C 5.711349e-009 6
0.000000e+000:1 2.019160e-004:2 2.034395e-004:3 2.026778e-004:4 2.026778e-004:5 0.000000e+000:6 
#C 5.751349e-009 6
0.000000e+000:1 2.019160e-004:2 2.034395e-004:3 2.026778e-004:4 2.026778e-004:5 0.000000e+000:6 
#C 5.791349e-009 6
0.000000e+000:1 2.019160e-004:2 2.034395e-004:3 2.026778e-004:4 2.026778e-004:5 0.000000e+000:6 
#C 5.831349e-009 6
0.000000e+000:1 2.019160e-004:2 2.034395e-004:3 2.026778e-004:4 2.026778e-004:5 0.000000e+000:6 
#C 5.871349e-009 6
0.000000e+000:1 2.019160e-004:2 2.034395e-004:3 2.026778e-004:4 2.026778e-004:5 0.000000e+000:6 
#C 5.911349e-009 6
0.000000e+000:1 2.019160e-004:2 2.034395e-004:3 2.026778e-004:4 2.026778e-004:5 0.000000e+000:6 
#C 5.951349e-009 6
0.000000e+000:1 2.019160e-004:2 2.034395e-004:3 2.026778e-004:4 2.026778e-004:5 0.000000e+000:6 
#C 5.991349e-009 6
0.000000e+000:1 2.019160e-004:2 2.034395e-004:3 2.026778e-004:4 2.026778e-004:5 0.000000e+000:6 
#C 6.013858e-009 6
1.718240e-002:1 2.019160e-004:2 2.034395e-004:3 2.026778e-004:4 2.026778e-004:5 0.000000e+000:6 
#C 6.038020e-009 6
4.714106e-002:1 2.019160e-004:2 2.034395e-004:3 2.026778e-004:4 2.026778e-004:5 0.000000e+000:6 
#C 6.071319e-009 6
8.842756e-002:1 2.019160e-004:2 2.034395e-004:3 2.026778e-004:4 2.026778e-004:5 0.000000e+000:6 
#C 6.094670e-009 6
1.173800e-001:1 2.019160e-004:2 2.034395e-004:3 2.026778e-004:4 2.026778e-004:5 0.000000e+000:6 
#C 6.121266e-009 6
1.503573e-001:1 2.019160e-004:2 2.034395e-004:3 2.026778e-004:4 2.026778e-004:5 0.000000e+000:6 
#C 6.148491e-009 6
1.841128e-001:1 2.019160e-004:2 2.034395e-004:3 2.026778e-004:4 2.026778e-004:5 0.000000e+000:6 
#C 6.175716e-009 6
2.178684e-001:1 2.019160e-004:2 2.034395e-004:3 2.026778e-004:4 2.026778e-004:5 0.000000e+000:6 
#C 6.201266e-009 6
2.495487e-001:1 2.019160e-004:2 2.034395e-004:3 2.026778e-004:4 2.026778e-004:5 0.000000e+000:6 
#C 6.240861e-009 6
2.986413e-001:1 2.019160e-004:2 2.034395e-004:3 2.026778e-004:4 2.026778e-004:5 0.000000e+000:6 
#C 6.266424e-009 6
3.303373e-001:1 2.019160e-004:2 2.034395e-004:3 2.026778e-004:4 2.026778e-004:5 0.000000e+000:6 
#C 6.292393e-009 6
3.625364e-001:1 2.019160e-004:2 2.034395e-004:3 2.026778e-004:4 2.026778e-004:5 0.000000e+000:6 
#C 6.331988e-009 6
4.116290e-001:1 2.019160e-004:2 2.034395e-004:3 2.026778e-004:4 2.026778e-004:5 0.000000e+000:6 
#C 6.362607e-009 6
4.495939e-001:1 2.019160e-004:2 2.034395e-004:3 2.026778e-004:4 2.026778e-004:5 0.000000e+000:6 
#C 6.386128e-009 6
5.500508e-001:1 3.834691e-003:2 2.034395e-004:3 2.199762e-004:4 2.026778e-004:5 0.000000e+000:6 
#C 6.410704e-009 6
