#H
SOURCE='IsSpice4'	VERSION='ver. 8.11-SI-1.0.3   10/6/2010'
TITLE='* Thu Nov 05 20:24:49 2015, Generated by: 010328058, Server: None, Windows, INSTALLED_SOFTWARE_VERSION: 2015.07 Build 6, Engine: 2015.07rc1, GUI: 2015.07rc1'
SUBTITLE='pc'
TIME='20:24:53' DATE='Nov 05, 2015' TEMPERATURE='373.15'
ANALYSIS='Trans'	SERIALNO='01234567'
ALLVALUES='NO' COMPLEXVALUES='NO' NODES='8'
SWEEPVAR='time' SWEEPMODE='VAR_STEP' DGTLDATA='NO'
XBEGIN='0.000000e+000' XEND='1.740000e-007'
FORMAT='0 VOLTSorAMPS;EFLOAT : NODEorBRANCH;NODE'
#N
'V(v_stimulus)'
'V(designator1_pad)'
'V(designator2_pad)'
'V(designator3_pad)'
'V(designator1_pin)'
'V(designator2_pin)'
'V(designator3_pin)'
'V(designator2_z)'
#U
'Volts'
'Volts'
'Volts'
'Volts'
'Volts'
'Volts'
'Volts'
'Volts'
#C 0.000000e+000 8
0.000000e+000:1 8.720653e-005:2 8.720653e-005:3 8.720653e-005:4 8.720653e-005:5 8.720653e-005:6 
8.720653e-005:7 0.000000e+000:8 
#C 2.560000e-011 8
0.000000e+000:1 8.720653e-005:2 8.720653e-005:3 8.720653e-005:4 8.720653e-005:5 8.720653e-005:6 
8.720653e-005:7 0.000000e+000:8 
#C 5.440000e-011 8
0.000000e+000:1 8.720653e-005:2 8.720653e-005:3 8.720653e-005:4 8.720653e-005:5 8.720653e-005:6 
8.720653e-005:7 0.000000e+000:8 
#C 8.320000e-011 8
0.000000e+000:1 8.720653e-005:2 8.720653e-005:3 8.720653e-005:4 8.720653e-005:5 8.720653e-005:6 
8.720653e-005:7 0.000000e+000:8 
#C 1.088000e-010 8
0.000000e+000:1 8.720653e-005:2 8.720653e-005:3 8.720653e-005:4 8.720653e-005:5 8.720653e-005:6 
8.720653e-005:7 0.000000e+000:8 
#C 1.600000e-010 8
0.000000e+000:1 8.720653e-005:2 8.720653e-005:3 8.720653e-005:4 8.720653e-005:5 8.720653e-005:6 
8.720653e-005:7 0.000000e+000:8 
#C 2.442591e-010 8
0.000000e+000:1 8.720653e-005:2 8.720653e-005:3 8.720653e-005:4 8.720653e-005:5 8.720653e-005:6 
8.720653e-005:7 0.000000e+000:8 
#C 3.285183e-010 8
0.000000e+000:1 8.720653e-005:2 8.720653e-005:3 8.720653e-005:4 8.720653e-005:5 8.720653e-005:6 
8.720653e-005:7 0.000000e+000:8 
#C 4.127774e-010 8
0.000000e+000:1 8.720653e-005:2 8.720653e-005:3 8.720653e-005:4 8.720653e-005:5 8.720653e-005:6 
8.720653e-005:7 0.000000e+000:8 
#C 4.970366e-010 8
0.000000e+000:1 8.720653e-005:2 8.720653e-005:3 8.720653e-005:4 8.720653e-005:5 8.720653e-005:6 
8.720653e-005:7 0.000000e+000:8 
#C 5.812957e-010 8
0.000000e+000:1 8.720653e-005:2 8.720653e-005:3 8.720653e-005:4 8.720653e-005:5 8.720653e-005:6 
8.720653e-005:7 0.000000e+000:8 
#C 6.655549e-010 8
0.000000e+000:1 8.720653e-005:2 8.720653e-005:3 8.720653e-005:4 8.720653e-005:5 8.720653e-005:6 
8.720653e-005:7 0.000000e+000:8 
#C 7.498140e-010 8
0.000000e+000:1 8.720653e-005:2 8.720653e-005:3 8.720653e-005:4 8.720653e-005:5 8.720653e-005:6 
8.720653e-005:7 0.000000e+000:8 
#C 8.340732e-010 8
0.000000e+000:1 8.720653e-005:2 8.720653e-005:3 8.720653e-005:4 8.720653e-005:5 8.720653e-005:6 
8.720653e-005:7 0.000000e+000:8 
#C 9.183323e-010 8
0.000000e+000:1 8.720653e-005:2 8.720653e-005:3 8.720653e-005:4 8.720653e-005:5 8.720653e-005:6 
8.720653e-005:7 0.000000e+000:8 
#C 9.475247e-010 8
0.000000e+000:1 8.720653e-005:2 8.720653e-005:3 8.720653e-005:4 8.720653e-005:5 8.720653e-005:6 
8.720653e-005:7 0.000000e+000:8 
#C 9.767170e-010 8
0.000000e+000:1 8.720653e-005:2 8.720653e-005:3 8.720653e-005:4 8.720653e-005:5 8.720653e-005:6 
8.720653e-005:7 0.000000e+000:8 
#C 9.983323e-010 8
0.000000e+000:1 8.720653e-005:2 8.720653e-005:3 8.720653e-005:4 8.720653e-005:5 8.720653e-005:6 
8.720653e-005:7 0.000000e+000:8 
#C 1.027525e-009 8
0.000000e+000:1 8.720653e-005:2 8.720653e-005:3 8.720653e-005:4 8.720653e-005:5 8.720653e-005:6 
8.720653e-005:7 0.000000e+000:8 
#C 1.056717e-009 8
0.000000e+000:1 8.720653e-005:2 8.720653e-005:3 8.720653e-005:4 8.720653e-005:5 8.720653e-005:6 
8.720653e-005:7 0.000000e+000:8 
#C 1.078332e-009 8
0.000000e+000:1 8.720653e-005:2 8.720653e-005:3 8.720653e-005:4 8.720653e-005:5 8.720653e-005:6 
8.720653e-005:7 0.000000e+000:8 
#C 1.107525e-009 8
0.000000e+000:1 8.720653e-005:2 8.720653e-005:3 8.720653e-005:4 8.720653e-005:5 8.720653e-005:6 
8.720653e-005:7 0.000000e+000:8 
#C 1.136717e-009 8
0.000000e+000:1 8.720653e-005:2 8.720653e-005:3 8.720653e-005:4 8.720653e-005:5 8.720653e-005:6 
8.720653e-005:7 0.000000e+000:8 
#C 1.158332e-009 8
0.000000e+000:1 8.720653e-005:2 8.720653e-005:3 8.720653e-005:4 8.720653e-005:5 8.720653e-005:6 
8.720653e-005:7 0.000000e+000:8 
#C 1.187525e-009 8
0.000000e+000:1 8.720653e-005:2 8.720653e-005:3 8.720653e-005:4 8.720653e-005:5 8.720653e-005:6 
8.720653e-005:7 0.000000e+000:8 
#C 1.216717e-009 8
0.000000e+000:1 8.720653e-005:2 8.720653e-005:3 8.720653e-005:4 8.720653e-005:5 8.720653e-005:6 
8.720653e-005:7 0.000000e+000:8 
#C 1.238332e-009 8
0.000000e+000:1 8.720653e-005:2 8.720653e-005:3 8.720653e-005:4 8.720653e-005:5 8.720653e-005:6 
8.720653e-005:7 0.000000e+000:8 
#C 1.267525e-009 8
0.000000e+000:1 8.720653e-005:2 8.720653e-005:3 8.720653e-005:4 8.720653e-005:5 8.720653e-005:6 
8.720653e-005:7 0.000000e+000:8 
#C 1.296717e-009 8
0.000000e+000:1 8.720653e-005:2 8.720653e-005:3 8.720653e-005:4 8.720653e-005:5 8.720653e-005:6 
8.720653e-005:7 0.000000e+000:8 
#C 1.318332e-009 8
0.000000e+000:1 8.720653e-005:2 8.720653e-005:3 8.720653e-005:4 8.720653e-005:5 8.720653e-005:6 
8.720653e-005:7 0.000000e+000:8 
#C 1.347525e-009 8
0.000000e+000:1 8.720653e-005:2 8.720653e-005:3 8.720653e-005:4 8.720653e-005:5 8.720653e-005:6 
8.720653e-005:7 0.000000e+000:8 
#C 1.376717e-009 8
0.000000e+000:1 8.720653e-005:2 8.720653e-005:3 8.720653e-005:4 8.720653e-005:5 8.720653e-005:6 
8.720653e-005:7 0.000000e+000:8 
#C 1.398332e-009 8
0.000000e+000:1 8.720653e-005:2 8.720653e-005:3 8.720653e-005:4 8.720653e-005:5 8.720653e-005:6 
8.720653e-005:7 0.000000e+000:8 
#C 1.427525e-009 8
0.000000e+000:1 8.720653e-005:2 8.720653e-005:3 8.720653e-005:4 8.720653e-005:5 8.720653e-005:6 
8.720653e-005:7 0.000000e+000:8 
#C 1.456717e-009 8
0.000000e+000:1 8.720653e-005:2 8.720653e-005:3 8.720653e-005:4 8.720653e-005:5 8.720653e-005:6 
8.720653e-005:7 0.000000e+000:8 
#C 1.478332e-009 8
0.000000e+000:1 8.720653e-005:2 8.720653e-005:3 8.720653e-005:4 8.720653e-005:5 8.720653e-005:6 
8.720653e-005:7 0.000000e+000:8 
#C 1.507525e-009 8
0.000000e+000:1 8.720653e-005:2 8.720653e-005:3 8.720653e-005:4 8.720653e-005:5 8.720653e-005:6 
8.720653e-005:7 0.000000e+000:8 
#C 1.536717e-009 8
0.000000e+000:1 8.720653e-005:2 8.720653e-005:3 8.720653e-005:4 8.720653e-005:5 8.720653e-005:6 
8.720653e-005:7 0.000000e+000:8 
#C 1.558332e-009 8
0.000000e+000:1 8.720653e-005:2 8.720653e-005:3 8.720653e-005:4 8.720653e-005:5 8.720653e-005:6 
8.720653e-005:7 0.000000e+000:8 
#C 1.587525e-009 8
0.000000e+000:1 8.720653e-005:2 8.720653e-005:3 8.720653e-005:4 8.720653e-005:5 8.720653e-005:6 
8.720653e-005:7 0.000000e+000:8 
#C 1.616717e-009 8
0.000000e+000:1 8.720653e-005:2 8.720653e-005:3 8.720653e-005:4 8.720653e-005:5 8.720653e-005:6 
8.720653e-005:7 0.000000e+000:8 
#C 1.638332e-009 8
0.000000e+000:1 8.720653e-005:2 8.720653e-005:3 8.720653e-005:4 8.720653e-005:5 8.720653e-005:6 
8.720653e-005:7 0.000000e+000:8 
#C 1.683560e-009 8
0.000000e+000:1 8.720653e-005:2 8.720653e-005:3 8.720653e-005:4 8.720653e-005:5 8.720653e-005:6 
8.720653e-005:7 0.000000e+000:8 
#C 1.712753e-009 8
0.000000e+000:1 8.720653e-005:2 8.720653e-005:3 8.720653e-005:4 8.720653e-005:5 8.720653e-005:6 
8.720653e-005:7 0.000000e+000:8 
#C 1.741945e-009 8
0.000000e+000:1 8.720653e-005:2 8.720653e-005:3 8.720653e-005:4 8.720653e-005:5 8.720653e-005:6 
8.720653e-005:7 0.000000e+000:8 
#C 1.763560e-009 8
0.000000e+000:1 8.720653e-005:2 8.720653e-005:3 8.720653e-005:4 8.720653e-005:5 8.720653e-005:6 
8.720653e-005:7 0.000000e+000:8 
#C 1.792753e-009 8
0.000000e+000:1 8.720653e-005:2 8.720653e-005:3 8.720653e-005:4 8.720653e-005:5 8.720653e-005:6 
8.720653e-005:7 0.000000e+000:8 
#C 1.821945e-009 8
0.000000e+000:1 8.720653e-005:2 8.720653e-005:3 8.720653e-005:4 8.720653e-005:5 8.720653e-005:6 
8.720653e-005:7 0.000000e+000:8 
#C 1.843560e-009 8
0.000000e+000:1 8.720653e-005:2 8.720653e-005:3 8.720653e-005:4 8.720653e-005:5 8.720653e-005:6 
8.720653e-005:7 0.000000e+000:8 
#C 1.872753e-009 8
0.000000e+000:1 8.720653e-005:2 8.720653e-005:3 8.720653e-005:4 8.720653e-005:5 8.720653e-005:6 
8.720653e-005:7 0.000000e+000:8 
#C 1.901945e-009 8
0.000000e+000:1 8.720653e-005:2 8.720653e-005:3 8.720653e-005:4 8.720653e-005:5 8.720653e-005:6 
8.720653e-005:7 0.000000e+000:8 
#C 1.923560e-009 8
0.000000e+000:1 8.720653e-005:2 8.720653e-005:3 8.720653e-005:4 8.720653e-005:5 8.720653e-005:6 
8.720653e-005:7 0.000000e+000:8 
#C 1.952753e-009 8
0.000000e+000:1 8.720653e-005:2 8.720653e-005:3 8.720653e-005:4 8.720653e-005:5 8.720653e-005:6 
8.720653e-005:7 0.000000e+000:8 
#C 1.981945e-009 8
0.000000e+000:1 8.720653e-005:2 8.720653e-005:3 8.720653e-005:4 8.720653e-005:5 8.720653e-005:6 
8.720653e-005:7 0.000000e+000:8 
#C 2.003560e-009 8
0.000000e+000:1 8.720653e-005:2 8.720653e-005:3 8.720653e-005:4 8.720653e-005:5 8.720653e-005:6 
8.720653e-005:7 0.000000e+000:8 
#C 2.032753e-009 8
0.000000e+000:1 8.720653e-005:2 8.720653e-005:3 8.720653e-005:4 8.720653e-005:5 8.720653e-005:6 
8.720653e-005:7 0.000000e+000:8 
#C 2.061945e-009 8
0.000000e+000:1 8.720653e-005:2 8.720653e-005:3 8.720653e-005:4 8.720653e-005:5 8.720653e-005:6 
8.720653e-005:7 0.000000e+000:8 
#C 2.091137e-009 8
0.000000e+000:1 8.720653e-005:2 8.720653e-005:3 8.720653e-005:4 8.720653e-005:5 8.720653e-005:6 
8.720653e-005:7 0.000000e+000:8 
#C 2.120330e-009 8
0.000000e+000:1 8.720653e-005:2 8.720653e-005:3 8.720653e-005:4 8.720653e-005:5 8.720653e-005:6 
8.720653e-005:7 0.000000e+000:8 
#C 2.157099e-009 8
0.000000e+000:1 8.720653e-005:2 8.720653e-005:3 8.720653e-005:4 8.720653e-005:5 8.720653e-005:6 
8.720653e-005:7 0.000000e+000:8 
#C 2.178714e-009 8
0.000000e+000:1 8.720653e-005:2 8.720653e-005:3 8.720653e-005:4 8.720653e-005:5 8.720653e-005:6 
8.720653e-005:7 0.000000e+000:8 
#C 2.207907e-009 8
0.000000e+000:1 8.720653e-005:2 8.720653e-005:3 8.720653e-005:4 8.720653e-005:5 8.720653e-005:6 
8.720653e-005:7 0.000000e+000:8 
#C 2.237099e-009 8
0.000000e+000:1 8.720653e-005:2 8.720653e-005:3 8.720653e-005:4 8.720653e-005:5 8.720653e-005:6 
8.720653e-005:7 0.000000e+000:8 
#C 2.258714e-009 8
0.000000e+000:1 8.720653e-005:2 8.720653e-005:3 8.720653e-005:4 8.720653e-005:5 8.720653e-005:6 
8.720653e-005:7 0.000000e+000:8 
#C 2.287907e-009 8
0.000000e+000:1 8.720653e-005:2 8.720653e-005:3 8.720653e-005:4 8.720653e-005:5 8.720653e-005:6 
8.720653e-005:7 0.000000e+000:8 
#C 2.317099e-009 8
0.000000e+000:1 8.720653e-005:2 8.720653e-005:3 8.720653e-005:4 8.720653e-005:5 8.720653e-005:6 
8.720653e-005:7 0.000000e+000:8 
#C 2.338714e-009 8
0.000000e+000:1 8.720653e-005:2 8.720653e-005:3 8.720653e-005:4 8.720653e-005:5 8.720653e-005:6 
8.720653e-005:7 0.000000e+000:8 
#C 2.367907e-009 8
0.000000e+000:1 8.720653e-005:2 8.720653e-005:3 8.720653e-005:4 8.720653e-005:5 8.720653e-005:6 
8.720653e-005:7 0.000000e+000:8 
#C 2.397099e-009 8
0.000000e+000:1 8.720653e-005:2 8.720653e-005:3 8.720653e-005:4 8.720653e-005:5 8.720653e-005:6 
8.720653e-005:7 0.000000e+000:8 
#C 2.418714e-009 8
0.000000e+000:1 8.720653e-005:2 8.720653e-005:3 8.720653e-005:4 8.720653e-005:5 8.720653e-005:6 
8.720653e-005:7 0.000000e+000:8 
#C 2.447907e-009 8
0.000000e+000:1 8.720653e-005:2 8.720653e-005:3 8.720653e-005:4 8.720653e-005:5 8.720653e-005:6 
8.720653e-005:7 0.000000e+000:8 
#C 2.477099e-009 8
0.000000e+000:1 8.720653e-005:2 8.720653e-005:3 8.720653e-005:4 8.720653e-005:5 8.720653e-005:6 
8.720653e-005:7 0.000000e+000:8 
#C 2.498714e-009 8
0.000000e+000:1 8.720653e-005:2 8.720653e-005:3 8.720653e-005:4 8.720653e-005:5 8.720653e-005:6 
8.720653e-005:7 0.000000e+000:8 
#C 2.527907e-009 8
0.000000e+000:1 8.720653e-005:2 8.720653e-005:3 8.720653e-005:4 8.720653e-005:5 8.720653e-005:6 
8.720653e-005:7 0.000000e+000:8 
#C 2.557099e-009 8
0.000000e+000:1 8.720653e-005:2 8.720653e-005:3 8.720653e-005:4 8.720653e-005:5 8.720653e-005:6 
8.720653e-005:7 0.000000e+000:8 
#C 2.578714e-009 8
0.000000e+000:1 8.720653e-005:2 8.720653e-005:3 8.720653e-005:4 8.720653e-005:5 8.720653e-005:6 
8.720653e-005:7 0.000000e+000:8 
#C 2.607907e-009 8
0.000000e+000:1 8.720653e-005:2 8.720653e-005:3 8.720653e-005:4 8.720653e-005:5 8.720653e-005:6 
8.720653e-005:7 0.000000e+000:8 
#C 2.637099e-009 8
0.000000e+000:1 8.720653e-005:2 8.720653e-005:3 8.720653e-005:4 8.720653e-005:5 8.720653e-005:6 
8.720653e-005:7 0.000000e+000:8 
#C 2.673869e-009 8
0.000000e+000:1 8.720653e-005:2 8.720653e-005:3 8.720653e-005:4 8.720653e-005:5 8.720653e-005:6 
8.720653e-005:7 0.000000e+000:8 
#C 2.710638e-009 8
0.000000e+000:1 8.720653e-005:2 8.720653e-005:3 8.720653e-005:4 8.720653e-005:5 8.720653e-005:6 
8.720653e-005:7 0.000000e+000:8 
#C 2.750638e-009 8
0.000000e+000:1 8.720653e-005:2 8.720653e-005:3 8.720653e-005:4 8.720653e-005:5 8.720653e-005:6 
8.720653e-005:7 0.000000e+000:8 
#C 2.779830e-009 8
0.000000e+000:1 8.720653e-005:2 8.720653e-005:3 8.720653e-005:4 8.720653e-005:5 8.720653e-005:6 
8.720653e-005:7 0.000000e+000:8 
#C 2.809023e-009 8
0.000000e+000:1 8.720653e-005:2 8.720653e-005:3 8.720653e-005:4 8.720653e-005:5 8.720653e-005:6 
8.720653e-005:7 0.000000e+000:8 
#C 2.830638e-009 8
0.000000e+000:1 8.720653e-005:2 8.720653e-005:3 8.720653e-005:4 8.720653e-005:5 8.720653e-005:6 
8.720653e-005:7 0.000000e+000:8 
#C 2.859830e-009 8
0.000000e+000:1 8.720653e-005:2 8.720653e-005:3 8.720653e-005:4 8.720653e-005:5 8.720653e-005:6 
8.720653e-005:7 0.000000e+000:8 
#C 2.889023e-009 8
0.000000e+000:1 8.720653e-005:2 8.720653e-005:3 8.720653e-005:4 8.720653e-005:5 8.720653e-005:6 
8.720653e-005:7 0.000000e+000:8 
#C 2.910638e-009 8
0.000000e+000:1 8.720653e-005:2 8.720653e-005:3 8.720653e-005:4 8.720653e-005:5 8.720653e-005:6 
8.720653e-005:7 0.000000e+000:8 
#C 2.939830e-009 8
0.000000e+000:1 8.720653e-005:2 8.720653e-005:3 8.720653e-005:4 8.720653e-005:5 8.720653e-005:6 
8.720653e-005:7 0.000000e+000:8 
#C 2.969023e-009 8
0.000000e+000:1 8.720653e-005:2 8.720653e-005:3 8.720653e-005:4 8.720653e-005:5 8.720653e-005:6 
8.720653e-005:7 0.000000e+000:8 
#C 2.990638e-009 8
0.000000e+000:1 8.720653e-005:2 8.720653e-005:3 8.720653e-005:4 8.720653e-005:5 8.720653e-005:6 
8.720653e-005:7 0.000000e+000:8 
#C 3.019830e-009 8
0.000000e+000:1 8.720653e-005:2 8.720653e-005:3 8.720653e-005:4 8.720653e-005:5 8.720653e-005:6 
8.720653e-005:7 0.000000e+000:8 
#C 3.049023e-009 8
0.000000e+000:1 8.720653e-005:2 8.720653e-005:3 8.720653e-005:4 8.720653e-005:5 8.720653e-005:6 
8.720653e-005:7 0.000000e+000:8 
#C 3.070638e-009 8
0.000000e+000:1 8.720653e-005:2 8.720653e-005:3 8.720653e-005:4 8.720653e-005:5 8.720653e-005:6 
8.720653e-005:7 0.000000e+000:8 
#C 3.099830e-009 8
0.000000e+000:1 8.720653e-005:2 8.720653e-005:3 8.720653e-005:4 8.720653e-005:5 8.720653e-005:6 
8.720653e-005:7 0.000000e+000:8 
#C 3.129023e-009 8
0.000000e+000:1 8.720653e-005:2 8.720653e-005:3 8.720653e-005:4 8.720653e-005:5 8.720653e-005:6 
8.720653e-005:7 0.000000e+000:8 
#C 3.150638e-009 8
0.000000e+000:1 8.720653e-005:2 8.720653e-005:3 8.720653e-005:4 8.720653e-005:5 8.720653e-005:6 
8.720653e-005:7 0.000000e+000:8 
#C 3.195866e-009 8
0.000000e+000:1 8.720653e-005:2 8.720653e-005:3 8.720653e-005:4 8.720653e-005:5 8.720653e-005:6 
8.720653e-005:7 0.000000e+000:8 
#C 3.225058e-009 8
0.000000e+000:1 8.720653e-005:2 8.720653e-005:3 8.720653e-005:4 8.720653e-005:5 8.720653e-005:6 
8.720653e-005:7 0.000000e+000:8 
#C 3.254251e-009 8
0.000000e+000:1 8.720653e-005:2 8.720653e-005:3 8.720653e-005:4 8.720653e-005:5 8.720653e-005:6 
8.720653e-005:7 0.000000e+000:8 
#C 3.275866e-009 8
0.000000e+000:1 8.720653e-005:2 8.720653e-005:3 8.720653e-005:4 8.720653e-005:5 8.720653e-005:6 
8.720653e-005:7 0.000000e+000:8 
#C 3.305058e-009 8
0.000000e+000:1 8.720653e-005:2 8.720653e-005:3 8.720653e-005:4 8.720653e-005:5 8.720653e-005:6 
8.720653e-005:7 0.000000e+000:8 
#C 3.334251e-009 8
0.000000e+000:1 8.720653e-005:2 8.720653e-005:3 8.720653e-005:4 8.720653e-005:5 8.720653e-005:6 
8.720653e-005:7 0.000000e+000:8 
#C 3.355866e-009 8
0.000000e+000:1 8.720653e-005:2 8.720653e-005:3 8.720653e-005:4 8.720653e-005:5 8.720653e-005:6 
8.720653e-005:7 0.000000e+000:8 
#C 3.385058e-009 8
0.000000e+000:1 8.720653e-005:2 8.720653e-005:3 8.720653e-005:4 8.720653e-005:5 8.720653e-005:6 
8.720653e-005:7 0.000000e+000:8 
#C 3.414251e-009 8
0.000000e+000:1 8.720653e-005:2 8.720653e-005:3 8.720653e-005:4 8.720653e-005:5 8.720653e-005:6 
8.720653e-005:7 0.000000e+000:8 
#C 3.435866e-009 8
0.000000e+000:1 8.720653e-005:2 8.720653e-005:3 8.720653e-005:4 8.720653e-005:5 8.720653e-005:6 
8.720653e-005:7 0.000000e+000:8 
#C 3.465058e-009 8
0.000000e+000:1 8.720653e-005:2 8.720653e-005:3 8.720653e-005:4 8.720653e-005:5 8.720653e-005:6 
8.720653e-005:7 0.000000e+000:8 
#C 3.494251e-009 8
0.000000e+000:1 8.720653e-005:2 8.720653e-005:3 8.720653e-005:4 8.720653e-005:5 8.720653e-005:6 
8.720653e-005:7 0.000000e+000:8 
#C 3.515866e-009 8
0.000000e+000:1 8.720653e-005:2 8.720653e-005:3 8.720653e-005:4 8.720653e-005:5 8.720653e-005:6 
8.720653e-005:7 0.000000e+000:8 
#C 3.545058e-009 8
0.000000e+000:1 8.720653e-005:2 8.720653e-005:3 8.720653e-005:4 8.720653e-005:5 8.720653e-005:6 
8.720653e-005:7 0.000000e+000:8 
#C 3.574251e-009 8
0.000000e+000:1 8.720653e-005:2 8.720653e-005:3 8.720653e-005:4 8.720653e-005:5 8.720653e-005:6 
8.720653e-005:7 0.000000e+000:8 
#C 3.611020e-009 8
0.000000e+000:1 8.720653e-005:2 8.720653e-005:3 8.720653e-005:4 8.720653e-005:5 8.720653e-005:6 
8.720653e-005:7 0.000000e+000:8 
#C 3.647790e-009 8
0.000000e+000:1 8.720653e-005:2 8.720653e-005:3 8.720653e-005:4 8.720653e-005:5 8.720653e-005:6 
8.720653e-005:7 0.000000e+000:8 
#C 3.687790e-009 8
0.000000e+000:1 8.720653e-005:2 8.720653e-005:3 8.720653e-005:4 8.720653e-005:5 8.720653e-005:6 
8.720653e-005:7 0.000000e+000:8 
#C 3.716982e-009 8
0.000000e+000:1 8.720653e-005:2 8.720653e-005:3 8.720653e-005:4 8.720653e-005:5 8.720653e-005:6 
8.720653e-005:7 0.000000e+000:8 
#C 3.746174e-009 8
0.000000e+000:1 8.720653e-005:2 8.720653e-005:3 8.720653e-005:4 8.720653e-005:5 8.720653e-005:6 
8.720653e-005:7 0.000000e+000:8 
#C 3.767790e-009 8
0.000000e+000:1 8.720653e-005:2 8.720653e-005:3 8.720653e-005:4 8.720653e-005:5 8.720653e-005:6 
8.720653e-005:7 0.000000e+000:8 
#C 3.796982e-009 8
0.000000e+000:1 8.720653e-005:2 8.720653e-005:3 8.720653e-005:4 8.720653e-005:5 8.720653e-005:6 
8.720653e-005:7 0.000000e+000:8 
#C 3.826174e-009 8
0.000000e+000:1 8.720653e-005:2 8.720653e-005:3 8.720653e-005:4 8.720653e-005:5 8.720653e-005:6 
8.720653e-005:7 0.000000e+000:8 
#C 3.847790e-009 8
0.000000e+000:1 8.720653e-005:2 8.720653e-005:3 8.720653e-005:4 8.720653e-005:5 8.720653e-005:6 
8.720653e-005:7 0.000000e+000:8 
#C 3.876982e-009 8
0.000000e+000:1 8.720653e-005:2 8.720653e-005:3 8.720653e-005:4 8.720653e-005:5 8.720653e-005:6 
8.720653e-005:7 0.000000e+000:8 
#C 3.906174e-009 8
0.000000e+000:1 8.720653e-005:2 8.720653e-005:3 8.720653e-005:4 8.720653e-005:5 8.720653e-005:6 
8.720653e-005:7 0.000000e+000:8 
#C 3.927790e-009 8
0.000000e+000:1 8.720653e-005:2 8.720653e-005:3 8.720653e-005:4 8.720653e-005:5 8.720653e-005:6 
8.720653e-005:7 0.000000e+000:8 
#C 3.956982e-009 8
0.000000e+000:1 8.720653e-005:2 8.720653e-005:3 8.720653e-005:4 8.720653e-005:5 8.720653e-005:6 
8.720653e-005:7 0.000000e+000:8 
#C 3.986174e-009 8
0.000000e+000:1 8.720653e-005:2 8.720653e-005:3 8.720653e-005:4 8.720653e-005:5 8.720653e-005:6 
8.720653e-005:7 0.000000e+000:8 
#C 4.007790e-009 8
0.000000e+000:1 8.720653e-005:2 8.720653e-005:3 8.720653e-005:4 8.720653e-005:5 8.720653e-005:6 
8.720653e-005:7 0.000000e+000:8 
#C 4.036982e-009 8
0.000000e+000:1 8.720653e-005:2 8.720653e-005:3 8.720653e-005:4 8.720653e-005:5 8.720653e-005:6 
8.720653e-005:7 0.000000e+000:8 
#C 4.066174e-009 8
0.000000e+000:1 8.720653e-005:2 8.720653e-005:3 8.720653e-005:4 8.720653e-005:5 8.720653e-005:6 
8.720653e-005:7 0.000000e+000:8 
#C 4.102944e-009 8
0.000000e+000:1 8.720653e-005:2 8.720653e-005:3 8.720653e-005:4 8.720653e-005:5 8.720653e-005:6 
8.720653e-005:7 0.000000e+000:8 
#C 4.139713e-009 8
